Time[s], Channel 0, Channel 1, Channel 2, Channel 3
0.20000000, 1, 0, 0, 0
0.24331438, 1, 0, 0, 1
0.24331442, 1, 0, 0, 0
0.24331682, 0, 0, 0, 0
0.24331686, 0, 0, 1, 0
0.24331694, 1, 0, 1, 0
0.24331708, 0, 0, 1, 0
0.24331710, 0, 0, 0, 0
0.24331720, 1, 0, 0, 0
0.24331732, 0, 0, 0, 0
0.24331744, 1, 0, 0, 0
0.24331756, 0, 0, 0, 0
0.24331768, 1, 0, 0, 0
0.24331782, 0, 0, 0, 0
0.24331794, 1, 0, 0, 0
0.24331806, 0, 0, 0, 0
0.24331808, 0, 1, 0, 0
0.24331818, 1, 1, 0, 0
0.24331830, 0, 1, 0, 0
0.24331832, 0, 0, 0, 0
0.24331834, 0, 0, 1, 0
0.24331842, 1, 0, 1, 0
0.24331856, 0, 1, 1, 0
0.24331868, 1, 1, 1, 0
0.24331930, 1, 1, 0, 0
0.24332212, 0, 1, 0, 0
0.24332214, 0, 0, 1, 0
0.24332224, 1, 0, 1, 0
0.24332236, 0, 0, 1, 0
0.24332240, 0, 0, 0, 0
0.24332250, 1, 0, 0, 0
0.24332262, 0, 1, 0, 0
0.24332274, 1, 1, 0, 0
0.24332286, 0, 1, 0, 0
0.24332298, 1, 1, 0, 0
0.24332310, 0, 1, 0, 0
0.24332312, 0, 0, 0, 0
0.24332322, 1, 0, 0, 0
0.24332336, 0, 0, 0, 0
0.24332348, 1, 0, 0, 0
0.24332360, 0, 0, 0, 0
0.24332372, 1, 0, 0, 0
0.24332384, 0, 0, 0, 0
0.24332396, 1, 0, 0, 0
0.24332538, 1, 0, 0, 1
0.24332554, 1, 0, 0, 0
0.24332796, 0, 0, 0, 0
0.24332808, 1, 0, 0, 0
0.24332822, 0, 0, 0, 0
0.24332834, 1, 0, 0, 0
0.24332846, 0, 0, 0, 0
0.24332858, 1, 0, 0, 0
0.24332870, 0, 0, 0, 0
0.24332882, 1, 0, 0, 0
0.24332896, 0, 0, 0, 0
0.24332908, 1, 0, 0, 0
0.24332920, 0, 0, 0, 0
0.24332922, 0, 1, 0, 0
0.24332932, 1, 1, 0, 0
0.24332944, 0, 1, 0, 0
0.24332946, 0, 0, 1, 0
0.24332956, 1, 0, 1, 0
0.24332968, 0, 0, 1, 0
0.24332970, 0, 1, 1, 0
0.24332982, 1, 1, 1, 0
0.24333042, 1, 1, 0, 0
0.24333326, 0, 1, 0, 0
0.24333328, 0, 0, 0, 0
0.24333338, 1, 0, 0, 0
0.24333350, 0, 0, 0, 0
0.24333364, 1, 0, 0, 0
0.24333376, 0, 1, 0, 0
0.24333378, 0, 1, 1, 0
0.24333388, 1, 1, 1, 0
0.24333400, 0, 1, 1, 0
0.24333402, 0, 1, 0, 0
0.24333412, 1, 1, 0, 0
0.24333424, 0, 1, 0, 0
0.24333426, 0, 0, 0, 0
0.24333436, 1, 0, 0, 0
0.24333450, 0, 0, 0, 0
0.24333462, 1, 0, 0, 0
0.24333474, 0, 0, 0, 0
0.24333486, 1, 0, 0, 0
0.24333498, 0, 0, 0, 0
0.24333510, 1, 0, 0, 0
0.24333656, 1, 0, 0, 1
0.24334278, 1, 0, 0, 0
0.24334534, 0, 0, 0, 0
0.24334536, 0, 0, 1, 0
0.24334546, 1, 0, 1, 0
0.24334558, 0, 0, 1, 0
0.24334560, 0, 0, 0, 0
0.24334570, 1, 0, 0, 0
0.24334582, 0, 0, 0, 0
0.24334594, 1, 0, 0, 0
0.24334608, 0, 0, 0, 0
0.24334620, 1, 0, 0, 0
0.24334632, 0, 0, 0, 0
0.24334644, 1, 0, 0, 0
0.24334656, 0, 0, 0, 0
0.24334658, 0, 1, 0, 0
0.24334668, 1, 1, 0, 0
0.24334680, 0, 1, 0, 0
0.24334682, 0, 0, 0, 0
0.24334694, 1, 0, 0, 0
0.24334706, 0, 1, 0, 0
0.24334718, 1, 1, 0, 0
0.24334730, 0, 1, 0, 0
0.24334732, 0, 1, 1, 0
0.24334742, 1, 1, 1, 0
0.24334754, 0, 1, 1, 0
0.24334756, 0, 0, 1, 0
0.24334758, 0, 0, 0, 0
0.24334768, 1, 0, 0, 0
0.24334780, 0, 0, 0, 0
0.24334792, 1, 0, 0, 0
0.24334804, 0, 0, 0, 0
0.24334816, 1, 0, 0, 0
0.24334828, 0, 0, 0, 0
0.24334830, 0, 1, 0, 0
0.24334840, 1, 1, 0, 0
0.24334854, 0, 0, 0, 0
0.24334856, 0, 0, 1, 0
0.24334866, 1, 0, 1, 0
0.24334878, 0, 0, 1, 0
0.24334880, 0, 0, 0, 0
0.24334890, 1, 0, 0, 0
0.24334902, 0, 0, 0, 0
0.24334904, 0, 0, 1, 0
0.24334914, 1, 0, 1, 0
0.24334928, 0, 0, 1, 0
0.24334940, 1, 0, 1, 0
0.24334952, 0, 0, 1, 0
0.24334954, 0, 0, 0, 0
0.24334964, 1, 0, 0, 0
0.24334976, 0, 0, 0, 0
0.24334988, 1, 0, 0, 0
0.24335000, 0, 0, 0, 0
0.24335014, 1, 0, 0, 0
0.24335026, 0, 0, 0, 0
0.24335038, 1, 0, 0, 0
0.24335050, 0, 0, 0, 0
0.24335052, 0, 0, 1, 0
0.24335062, 1, 0, 1, 0
0.24335074, 0, 0, 1, 0
0.24335088, 1, 0, 1, 0
0.24335100, 0, 0, 1, 0
0.24335102, 0, 0, 0, 0
0.24335112, 1, 0, 0, 0
0.24335124, 0, 0, 0, 0
0.24335126, 0, 0, 1, 0
0.24335136, 1, 0, 1, 0
0.24335148, 0, 0, 1, 0
0.24335152, 0, 0, 0, 0
0.24335160, 1, 0, 0, 0
0.24335174, 0, 0, 0, 0
0.24335186, 1, 0, 0, 0
0.24335198, 0, 0, 0, 0
0.24335210, 1, 0, 0, 0
0.24335222, 0, 0, 0, 0
0.24335234, 1, 0, 0, 0
0.24335248, 0, 0, 0, 0
0.24335250, 0, 0, 1, 0
0.24335260, 1, 0, 1, 0
0.24335272, 0, 0, 1, 0
0.24335284, 1, 0, 1, 0
0.24335296, 0, 0, 1, 0
0.24335308, 1, 0, 1, 0
0.24335320, 0, 0, 1, 0
0.24335334, 1, 0, 1, 0
0.24335346, 0, 0, 1, 0
0.24335348, 0, 0, 0, 0
0.24335358, 1, 0, 0, 0
0.24335370, 0, 0, 0, 0
0.24335382, 1, 0, 0, 0
0.24335394, 0, 0, 0, 0
0.24335408, 1, 0, 0, 0
0.24335420, 0, 0, 0, 0
0.24335422, 0, 0, 1, 0
0.24335432, 1, 0, 1, 0
0.24335444, 0, 0, 1, 0
0.24335446, 0, 0, 0, 0
0.24335456, 1, 0, 0, 0
0.24335468, 0, 0, 0, 0
0.24335480, 1, 0, 0, 0
0.24335494, 0, 0, 0, 0
0.24335506, 1, 0, 0, 0
0.24335518, 0, 0, 0, 0
0.24335520, 0, 0, 1, 0
0.24335530, 1, 0, 1, 0
0.24335542, 0, 0, 1, 0
0.24335546, 0, 0, 0, 0
0.24335554, 1, 0, 0, 0
0.24335568, 0, 0, 0, 0
0.24335580, 1, 0, 0, 0
0.24335592, 0, 0, 0, 0
0.24335594, 0, 0, 1, 0
0.24335604, 1, 0, 1, 0
0.24335616, 0, 0, 1, 0
0.24335618, 0, 0, 0, 0
0.24335628, 1, 0, 0, 0
0.24335642, 0, 0, 0, 0
0.24335644, 0, 0, 1, 0
0.24335654, 1, 0, 1, 0
0.24335666, 0, 0, 1, 0
0.24335678, 1, 0, 1, 0
0.24335690, 0, 0, 1, 0
0.24335692, 0, 0, 0, 0
0.24335702, 1, 0, 0, 0
0.24335716, 0, 0, 0, 0
0.24335718, 0, 0, 1, 0
0.24335728, 1, 0, 1, 0
0.24335740, 0, 0, 1, 0
0.24335742, 0, 0, 0, 0
0.24335752, 1, 0, 0, 0
0.24335764, 0, 0, 0, 0
0.24335766, 0, 1, 0, 0
0.24335776, 1, 1, 0, 0
0.24335788, 0, 1, 0, 0
0.24335790, 0, 0, 0, 0
0.24335802, 1, 0, 0, 0
0.24335814, 0, 0, 0, 0
0.24335826, 1, 0, 0, 0
0.24335838, 0, 0, 0, 0
0.24335850, 1, 0, 0, 0
0.24335862, 0, 0, 0, 0
0.24335876, 1, 0, 0, 0
0.24335888, 0, 0, 0, 0
0.24335900, 1, 0, 0, 0
0.24336086, 1, 0, 0, 1
0.24438026, 1, 0, 0, 0
0.24438286, 0, 0, 0, 0
0.24438288, 0, 0, 1, 0
0.24438298, 1, 0, 1, 0
0.24438310, 0, 0, 1, 0
0.24438314, 0, 0, 0, 0
0.24438324, 1, 0, 0, 0
0.24438336, 0, 0, 0, 0
0.24438348, 1, 0, 0, 0
0.24438360, 0, 0, 0, 0
0.24438374, 1, 0, 0, 0
0.24438386, 0, 0, 0, 0
0.24438398, 1, 0, 0, 0
0.24438410, 0, 0, 0, 0
0.24438412, 0, 1, 0, 0
0.24438424, 1, 1, 0, 0
0.24438436, 0, 1, 0, 0
0.24438438, 0, 0, 0, 0
0.24438448, 1, 0, 0, 0
0.24438460, 0, 0, 0, 0
0.24438474, 1, 0, 0, 0
0.24438486, 0, 0, 0, 0
0.24438488, 0, 1, 1, 0
0.24438498, 1, 1, 1, 0
0.24438510, 0, 1, 1, 0
0.24438512, 0, 0, 1, 0
0.24438514, 0, 0, 0, 0
0.24438524, 1, 0, 0, 0
0.24438536, 0, 0, 0, 0
0.24438548, 1, 0, 0, 0
0.24438560, 0, 0, 0, 0
0.24438574, 1, 0, 0, 0
0.24438586, 0, 0, 0, 0
0.24438588, 0, 1, 0, 0
0.24438598, 1, 1, 0, 0
0.24438610, 0, 1, 0, 0
0.24438612, 0, 0, 0, 0
0.24438614, 0, 0, 1, 0
0.24438624, 1, 0, 1, 0
0.24438636, 0, 0, 1, 0
0.24438638, 0, 0, 0, 0
0.24438648, 1, 0, 0, 0
0.24438660, 0, 0, 0, 0
0.24438664, 0, 0, 1, 0
0.24438674, 1, 0, 1, 0
0.24438686, 0, 0, 1, 0
0.24438698, 1, 0, 1, 0
0.24438710, 0, 0, 1, 0
0.24438714, 0, 0, 0, 0
0.24438724, 1, 0, 0, 0
0.24438736, 0, 0, 0, 0
0.24438748, 1, 0, 0, 0
0.24438760, 0, 0, 0, 0
0.24438774, 1, 0, 0, 0
0.24438786, 0, 0, 0, 0
0.24438798, 1, 0, 0, 0
0.24438810, 0, 0, 0, 0
0.24438814, 0, 0, 1, 0
0.24438824, 1, 0, 1, 0
0.24438836, 0, 0, 1, 0
0.24438848, 1, 0, 1, 0
0.24438860, 0, 0, 1, 0
0.24438864, 0, 0, 0, 0
0.24438874, 1, 0, 0, 0
0.24438886, 0, 0, 0, 0
0.24438888, 0, 0, 1, 0
0.24438898, 1, 0, 1, 0
0.24438910, 0, 0, 1, 0
0.24438914, 0, 0, 0, 0
0.24438924, 1, 0, 0, 0
0.24438936, 0, 0, 0, 0
0.24438948, 1, 0, 0, 0
0.24438960, 0, 0, 0, 0
0.24438974, 1, 0, 0, 0
0.24438986, 0, 0, 0, 0
0.24438998, 1, 0, 0, 0
0.24439010, 0, 0, 0, 0
0.24439014, 0, 0, 1, 0
0.24439024, 1, 0, 1, 0
0.24439036, 0, 0, 1, 0
0.24439048, 1, 0, 1, 0
0.24439060, 0, 0, 1, 0
0.24439074, 1, 0, 1, 0
0.24439086, 0, 0, 1, 0
0.24439098, 1, 0, 1, 0
0.24439110, 0, 0, 1, 0
0.24439114, 0, 0, 0, 0
0.24439124, 1, 0, 0, 0
0.24439136, 0, 0, 0, 0
0.24439148, 1, 0, 0, 0
0.24439160, 0, 0, 0, 0
0.24439174, 1, 0, 0, 0
0.24439186, 0, 0, 0, 0
0.24439188, 0, 0, 1, 0
0.24439198, 1, 0, 1, 0
0.24439210, 0, 0, 1, 0
0.24439214, 0, 0, 0, 0
0.24439224, 1, 0, 0, 0
0.24439236, 0, 0, 0, 0
0.24439248, 1, 0, 0, 0
0.24439260, 0, 0, 0, 0
0.24439274, 1, 0, 0, 0
0.24439286, 0, 0, 0, 0
0.24439288, 0, 0, 1, 0
0.24439298, 1, 0, 1, 0
0.24439310, 0, 0, 1, 0
0.24439314, 0, 0, 0, 0
0.24439324, 1, 0, 0, 0
0.24439336, 0, 0, 0, 0
0.24439348, 1, 0, 0, 0
0.24439360, 0, 0, 0, 0
0.24439364, 0, 0, 1, 0
0.24439374, 1, 0, 1, 0
0.24439386, 0, 0, 1, 0
0.24439388, 0, 0, 0, 0
0.24439398, 1, 0, 0, 0
0.24439410, 0, 0, 0, 0
0.24439414, 0, 0, 1, 0
0.24439424, 1, 0, 1, 0
0.24439436, 0, 0, 1, 0
0.24439448, 1, 0, 1, 0
0.24439460, 0, 0, 1, 0
0.24439464, 0, 0, 0, 0
0.24439474, 1, 0, 0, 0
0.24439486, 0, 0, 0, 0
0.24439488, 0, 0, 1, 0
0.24439498, 1, 0, 1, 0
0.24439510, 0, 0, 1, 0
0.24439514, 0, 0, 0, 0
0.24439524, 1, 0, 0, 0
0.24439536, 0, 0, 0, 0
0.24439538, 0, 1, 0, 0
0.24439548, 1, 1, 0, 0
0.24439560, 0, 1, 0, 0
0.24439562, 0, 0, 0, 0
0.24439574, 1, 0, 0, 0
0.24439586, 0, 0, 0, 0
0.24439598, 1, 0, 0, 0
0.24439610, 0, 0, 0, 0
0.24439624, 1, 0, 0, 0
0.24439636, 0, 0, 0, 0
0.24439648, 1, 0, 0, 0
0.24439660, 0, 0, 0, 0
0.24439674, 1, 0, 0, 0
0.24439862, 1, 0, 0, 1
0.24496284, 1, 0, 0, 0
0.24496526, 0, 0, 0, 0
0.24496538, 1, 0, 0, 0
0.24496550, 0, 0, 0, 0
0.24496562, 1, 0, 0, 0
0.24496576, 0, 0, 0, 0
0.24496588, 1, 0, 0, 0
0.24496600, 0, 0, 0, 0
0.24496612, 1, 0, 0, 0
0.24496624, 0, 0, 0, 0
0.24496626, 0, 0, 1, 0
0.24496636, 1, 0, 1, 0
0.24496648, 0, 0, 1, 0
0.24496650, 0, 1, 1, 0
0.24496652, 0, 1, 0, 0
0.24496662, 1, 1, 0, 0
0.24496674, 0, 0, 0, 0
0.24496676, 0, 0, 1, 0
0.24496686, 1, 0, 1, 0
0.24496698, 0, 0, 1, 0
0.24496710, 1, 0, 1, 0
0.24496772, 1, 0, 0, 0
0.24497054, 0, 0, 0, 0
0.24497066, 1, 0, 0, 0
0.24497080, 0, 1, 0, 0
0.24497082, 0, 1, 1, 0
0.24497092, 1, 1, 1, 0
0.24497104, 0, 1, 1, 0
0.24497116, 1, 1, 1, 0
0.24497128, 0, 1, 1, 0
0.24497140, 1, 1, 1, 0
0.24497152, 0, 1, 1, 0
0.24497154, 0, 0, 1, 0
0.24497156, 0, 0, 0, 0
0.24497166, 1, 0, 0, 0
0.24497178, 0, 0, 0, 0
0.24497190, 1, 0, 0, 0
0.24497202, 0, 0, 0, 0
0.24497214, 1, 0, 0, 0
0.24497226, 0, 0, 0, 0
0.24497240, 1, 0, 0, 0
0.24497378, 1, 0, 0, 1
0.24497386, 1, 0, 0, 0
0.24497626, 0, 0, 0, 0
0.24497630, 0, 0, 1, 0
0.24497638, 1, 0, 1, 0
0.24497652, 0, 0, 1, 0
0.24497654, 0, 0, 0, 0
0.24497664, 1, 0, 0, 0
0.24497676, 0, 0, 0, 0
0.24497688, 1, 0, 0, 0
0.24497700, 0, 0, 0, 0
0.24497712, 1, 0, 0, 0
0.24497726, 0, 0, 0, 0
0.24497738, 1, 0, 0, 0
0.24497750, 0, 0, 0, 0
0.24497752, 0, 1, 0, 0
0.24497762, 1, 1, 0, 0
0.24497774, 0, 1, 0, 0
0.24497776, 0, 0, 1, 0
0.24497786, 1, 0, 1, 0
0.24497798, 0, 0, 1, 0
0.24497812, 1, 0, 1, 0
0.24497872, 1, 0, 0, 0
0.24498156, 0, 0, 0, 0
0.24498158, 0, 0, 1, 0
0.24498168, 1, 0, 1, 0
0.24498180, 0, 0, 1, 0
0.24498184, 0, 0, 0, 0
0.24498192, 1, 0, 0, 0
0.24498206, 0, 1, 0, 0
0.24498218, 1, 1, 0, 0
0.24498230, 0, 0, 0, 0
0.24498242, 1, 0, 0, 0
0.24498254, 0, 0, 0, 0
0.24498266, 1, 0, 0, 0
0.24498278, 0, 0, 0, 0
0.24498292, 1, 0, 0, 0
0.24498304, 0, 0, 0, 0
0.24498316, 1, 0, 0, 0
0.24498328, 0, 0, 0, 0
0.24498340, 1, 0, 0, 0
0.24498482, 1, 0, 0, 1
0.24498496, 1, 0, 0, 0
0.24498740, 0, 0, 0, 0
0.24498752, 1, 0, 0, 0
0.24498764, 0, 0, 0, 0
0.24498776, 1, 0, 0, 0
0.24498788, 0, 0, 0, 0
0.24498802, 1, 0, 0, 0
0.24498814, 0, 0, 0, 0
0.24498826, 1, 0, 0, 0
0.24498838, 0, 0, 0, 0
0.24498850, 1, 0, 0, 0
0.24498862, 0, 0, 0, 0
0.24498864, 0, 1, 0, 0
0.24498874, 1, 1, 0, 0
0.24498888, 0, 0, 0, 0
0.24498890, 0, 0, 1, 0
0.24498900, 1, 0, 1, 0
0.24498912, 0, 0, 1, 0
0.24498924, 1, 0, 1, 0
0.24498986, 1, 0, 0, 0
0.24499268, 0, 0, 0, 0
0.24499280, 1, 0, 0, 0
0.24499292, 0, 0, 0, 0
0.24499306, 1, 0, 0, 0
0.24499318, 0, 1, 0, 0
0.24499320, 0, 1, 1, 0
0.24499330, 1, 1, 1, 0
0.24499342, 0, 1, 1, 0
0.24499344, 0, 0, 1, 0
0.24499354, 1, 0, 1, 0
0.24499366, 0, 0, 1, 0
0.24499370, 0, 0, 0, 0
0.24499378, 1, 0, 0, 0
0.24499392, 0, 0, 0, 0
0.24499404, 1, 0, 0, 0
0.24499416, 0, 0, 0, 0
0.24499428, 1, 0, 0, 0
0.24499440, 0, 0, 0, 0
0.24499452, 1, 0, 0, 0
0.24499596, 1, 0, 0, 1
0.24499600, 1, 0, 0, 0
0.35175212, 1, 1, 0, 0
0.35177386, 1, 1, 0, 1
0.35177388, 1, 1, 0, 0
0.35177630, 0, 1, 0, 0
0.35177632, 0, 1, 1, 0
0.35177642, 1, 1, 1, 0
0.35177654, 0, 1, 1, 0
0.35177656, 0, 1, 0, 0
0.35177666, 1, 1, 0, 0
0.35177678, 0, 1, 0, 0
0.35177680, 0, 0, 0, 0
0.35177692, 1, 0, 0, 0
0.35177704, 0, 0, 0, 0
0.35177716, 1, 0, 0, 0
0.35177728, 0, 0, 0, 0
0.35177740, 1, 0, 0, 0
0.35177752, 0, 0, 0, 0
0.35177766, 1, 0, 0, 0
0.35177778, 0, 0, 0, 0
0.35177780, 0, 0, 1, 0
0.35177790, 1, 0, 1, 0
0.35177802, 0, 0, 1, 0
0.35177804, 0, 1, 1, 0
0.35177814, 1, 1, 1, 0
0.35177876, 1, 1, 0, 0
0.35178160, 0, 1, 0, 0
0.35178162, 0, 0, 1, 0
0.35178172, 1, 0, 1, 0
0.35178184, 0, 0, 1, 0
0.35178186, 0, 0, 0, 0
0.35178196, 1, 0, 0, 0
0.35178208, 0, 0, 0, 0
0.35178210, 0, 1, 0, 0
0.35178222, 1, 1, 0, 0
0.35178234, 0, 1, 0, 0
0.35178246, 1, 1, 0, 0
0.35178258, 0, 1, 0, 0
0.35178260, 0, 0, 0, 0
0.35178270, 1, 0, 0, 0
0.35178282, 0, 0, 0, 0
0.35178296, 1, 0, 0, 0
0.35178308, 0, 0, 0, 0
0.35178320, 1, 0, 0, 0
0.35178332, 0, 0, 0, 0
0.35178344, 1, 0, 0, 0
0.35178486, 1, 0, 0, 1
0.35178502, 1, 0, 0, 0
0.35178504, 1, 1, 0, 0
0.35178744, 0, 1, 0, 0
0.35178756, 1, 1, 0, 0
0.35178770, 0, 1, 0, 0
0.35178782, 1, 1, 0, 0
0.35178794, 0, 1, 0, 0
0.35178796, 0, 0, 0, 0
0.35178806, 1, 0, 0, 0
0.35178818, 0, 0, 0, 0
0.35178830, 1, 0, 0, 0
0.35178842, 0, 0, 0, 0
0.35178856, 1, 0, 0, 0
0.35178868, 0, 0, 0, 0
0.35178880, 1, 0, 0, 0
0.35178892, 0, 0, 0, 0
0.35178894, 0, 0, 1, 0
0.35178904, 1, 0, 1, 0
0.35178916, 0, 0, 1, 0
0.35178918, 0, 1, 1, 0
0.35178930, 1, 1, 1, 0
0.35178990, 1, 1, 0, 0
0.35179274, 0, 1, 0, 0
0.35179276, 0, 0, 0, 0
0.35179286, 1, 0, 0, 0
0.35179298, 0, 0, 0, 0
0.35179312, 1, 0, 0, 0
0.35179324, 0, 0, 0, 0
0.35179326, 0, 1, 1, 0
0.35179336, 1, 1, 1, 0
0.35179348, 0, 1, 1, 0
0.35179350, 0, 1, 0, 0
0.35179360, 1, 1, 0, 0
0.35179372, 0, 1, 0, 0
0.35179374, 0, 0, 0, 0
0.35179386, 1, 0, 0, 0
0.35179398, 0, 0, 0, 0
0.35179410, 1, 0, 0, 0
0.35179422, 0, 0, 0, 0
0.35179434, 1, 0, 0, 0
0.35179446, 0, 0, 0, 0
0.35179460, 1, 0, 0, 0
0.35179604, 1, 0, 0, 1
0.35180234, 1, 1, 0, 0
0.35180490, 0, 1, 0, 0
0.35180492, 0, 1, 1, 0
0.35180502, 1, 1, 1, 0
0.35180514, 0, 1, 1, 0
0.35180516, 0, 1, 0, 0
0.35180526, 1, 1, 0, 0
0.35180538, 0, 1, 0, 0
0.35180540, 0, 0, 0, 0
0.35180550, 1, 0, 0, 0
0.35180564, 0, 0, 0, 0
0.35180576, 1, 0, 0, 0
0.35180588, 0, 0, 0, 0
0.35180600, 1, 0, 0, 0
0.35180612, 0, 0, 0, 0
0.35180624, 1, 0, 0, 0
0.35180638, 0, 0, 0, 0
0.35180650, 1, 0, 0, 0
0.35180662, 0, 0, 0, 0
0.35180664, 0, 1, 0, 0
0.35180674, 1, 1, 0, 0
0.35180686, 0, 1, 0, 0
0.35180688, 0, 1, 1, 0
0.35180698, 1, 1, 1, 0
0.35180712, 0, 0, 1, 0
0.35180714, 0, 0, 0, 0
0.35180724, 1, 0, 0, 0
0.35180736, 0, 0, 0, 0
0.35180748, 1, 0, 0, 0
0.35180760, 0, 0, 0, 0
0.35180772, 1, 0, 0, 0
0.35180784, 0, 0, 0, 0
0.35180786, 0, 1, 0, 0
0.35180798, 1, 1, 0, 0
0.35180810, 0, 0, 0, 0
0.35180812, 0, 0, 1, 0
0.35180822, 1, 0, 1, 0
0.35180834, 0, 0, 1, 0
0.35180836, 0, 0, 0, 0
0.35180846, 1, 0, 0, 0
0.35180858, 0, 0, 0, 0
0.35180862, 0, 0, 1, 0
0.35180872, 1, 0, 1, 0
0.35180884, 0, 0, 1, 0
0.35180896, 1, 0, 1, 0
0.35180908, 0, 0, 1, 0
0.35180910, 0, 0, 0, 0
0.35180920, 1, 0, 0, 0
0.35180932, 0, 0, 0, 0
0.35180944, 1, 0, 0, 0
0.35180958, 0, 0, 0, 0
0.35180970, 1, 0, 0, 0
0.35180982, 0, 0, 0, 0
0.35180994, 1, 0, 0, 0
0.35181006, 0, 0, 0, 0
0.35181010, 0, 0, 1, 0
0.35181018, 1, 0, 1, 0
0.35181032, 0, 0, 1, 0
0.35181044, 1, 0, 1, 0
0.35181056, 0, 0, 1, 0
0.35181058, 0, 0, 0, 0
0.35181068, 1, 0, 0, 0
0.35181080, 0, 0, 0, 0
0.35181082, 0, 0, 1, 0
0.35181092, 1, 0, 1, 0
0.35181104, 0, 0, 1, 0
0.35181108, 0, 0, 0, 0
0.35181118, 1, 0, 0, 0
0.35181130, 0, 0, 0, 0
0.35181142, 1, 0, 0, 0
0.35181154, 0, 0, 0, 0
0.35181166, 1, 0, 0, 0
0.35181178, 0, 0, 0, 0
0.35181192, 1, 0, 0, 0
0.35181204, 0, 0, 0, 0
0.35181206, 0, 0, 1, 0
0.35181216, 1, 0, 1, 0
0.35181228, 0, 0, 1, 0
0.35181230, 0, 1, 1, 0
0.35181240, 1, 1, 1, 0
0.35181252, 0, 1, 1, 0
0.35181254, 0, 0, 1, 0
0.35181266, 1, 0, 1, 0
0.35181278, 0, 0, 1, 0
0.35181290, 1, 0, 1, 0
0.35181302, 0, 0, 1, 0
0.35181304, 0, 0, 0, 0
0.35181314, 1, 0, 0, 0
0.35181326, 0, 0, 0, 0
0.35181338, 1, 0, 0, 0
0.35181352, 0, 0, 0, 0
0.35181364, 1, 0, 0, 0
0.35181376, 0, 0, 0, 0
0.35181378, 0, 0, 1, 0
0.35181388, 1, 0, 1, 0
0.35181400, 0, 0, 1, 0
0.35181402, 0, 0, 0, 0
0.35181412, 1, 0, 0, 0
0.35181426, 0, 0, 0, 0
0.35181438, 1, 0, 0, 0
0.35181450, 0, 0, 0, 0
0.35181462, 1, 0, 0, 0
0.35181474, 0, 0, 0, 0
0.35181476, 0, 0, 1, 0
0.35181486, 1, 0, 1, 0
0.35181500, 0, 0, 1, 0
0.35181502, 0, 0, 0, 0
0.35181512, 1, 0, 0, 0
0.35181524, 0, 0, 0, 0
0.35181536, 1, 0, 0, 0
0.35181548, 0, 0, 0, 0
0.35181550, 0, 0, 1, 0
0.35181560, 1, 0, 1, 0
0.35181574, 0, 0, 1, 0
0.35181576, 0, 0, 0, 0
0.35181586, 1, 0, 0, 0
0.35181598, 0, 0, 0, 0
0.35181600, 0, 1, 1, 0
0.35181610, 1, 1, 1, 0
0.35181622, 0, 1, 1, 0
0.35181624, 0, 0, 1, 0
0.35181634, 1, 0, 1, 0
0.35181646, 0, 0, 1, 0
0.35181648, 0, 1, 1, 0
0.35181650, 0, 1, 0, 0
0.35181660, 1, 1, 0, 0
0.35181672, 0, 0, 0, 0
0.35181674, 0, 0, 1, 0
0.35181684, 1, 0, 1, 0
0.35181696, 0, 0, 1, 0
0.35181698, 0, 0, 0, 0
0.35181708, 1, 0, 0, 0
0.35181720, 0, 0, 0, 0
0.35181722, 0, 1, 0, 0
0.35181734, 1, 1, 0, 0
0.35181746, 0, 0, 0, 0
0.35181758, 1, 0, 0, 0
0.35181770, 0, 0, 0, 0
0.35181782, 1, 0, 0, 0
0.35181794, 0, 0, 0, 0
0.35181808, 1, 0, 0, 0
0.35181820, 0, 0, 0, 0
0.35181832, 1, 0, 0, 0
0.35181844, 0, 0, 0, 0
0.35181856, 1, 0, 0, 0
0.35182042, 1, 0, 0, 1
0.35183550, 1, 0, 0, 0
0.35183552, 1, 1, 0, 0
0.35183790, 0, 1, 0, 0
0.35183792, 0, 0, 0, 0
0.35183794, 0, 0, 1, 0
0.35183804, 1, 0, 1, 0
0.35183816, 0, 0, 1, 0
0.35183818, 0, 1, 0, 0
0.35183828, 1, 1, 0, 0
0.35183840, 0, 1, 0, 0
0.35183842, 0, 0, 0, 0
0.35183852, 1, 0, 0, 0
0.35183864, 0, 0, 0, 0
0.35183878, 1, 0, 0, 0
0.35183890, 0, 0, 0, 0
0.35183902, 1, 0, 0, 0
0.35183914, 0, 0, 0, 0
0.35183926, 1, 0, 0, 0
0.35183938, 0, 0, 0, 0
0.35183942, 0, 0, 1, 0
0.35183952, 1, 0, 1, 0
0.35183964, 0, 0, 1, 0
0.35183976, 1, 0, 1, 0
0.35184038, 1, 0, 0, 0
0.35184320, 0, 0, 0, 0
0.35184324, 0, 0, 1, 0
0.35184334, 1, 0, 1, 0
0.35184346, 0, 0, 1, 0
0.35184348, 0, 0, 0, 0
0.35184358, 1, 0, 0, 0
0.35184370, 0, 0, 0, 0
0.35184372, 0, 1, 0, 0
0.35184382, 1, 1, 0, 0
0.35184394, 0, 1, 0, 0
0.35184396, 0, 0, 0, 0
0.35184408, 1, 0, 0, 0
0.35184420, 0, 0, 0, 0
0.35184432, 1, 0, 0, 0
0.35184444, 0, 0, 0, 0
0.35184456, 1, 0, 0, 0
0.35184468, 0, 0, 0, 0
0.35184482, 1, 0, 0, 0
0.35184494, 0, 0, 0, 0
0.35184506, 1, 0, 0, 0
0.35184648, 1, 0, 0, 1
0.35184664, 1, 0, 0, 0
0.35184666, 1, 1, 0, 0
0.35184906, 0, 1, 0, 0
0.35184908, 0, 0, 0, 0
0.35184920, 1, 0, 0, 0
0.35184932, 0, 1, 0, 0
0.35184944, 1, 1, 0, 0
0.35184956, 0, 1, 0, 0
0.35184958, 0, 0, 0, 0
0.35184968, 1, 0, 0, 0
0.35184980, 0, 0, 0, 0
0.35184994, 1, 0, 0, 0
0.35185006, 0, 0, 0, 0
0.35185018, 1, 0, 0, 0
0.35185030, 0, 0, 0, 0
0.35185042, 1, 0, 0, 0
0.35185054, 0, 0, 0, 0
0.35185058, 0, 0, 1, 0
0.35185066, 1, 0, 1, 0
0.35185080, 0, 0, 1, 0
0.35185092, 1, 0, 1, 0
0.35185154, 1, 0, 0, 0
0.35185436, 0, 0, 0, 0
0.35185448, 1, 0, 0, 0
0.35185462, 0, 0, 0, 0
0.35185474, 1, 0, 0, 0
0.35185486, 0, 0, 0, 0
0.35185488, 0, 1, 1, 0
0.35185498, 1, 1, 1, 0
0.35185510, 0, 1, 1, 0
0.35185512, 0, 0, 0, 0
0.35185522, 1, 0, 0, 0
0.35185534, 0, 0, 0, 0
0.35185548, 1, 0, 0, 0
0.35185560, 0, 0, 0, 0
0.35185572, 1, 0, 0, 0
0.35185584, 0, 0, 0, 0
0.35185596, 1, 0, 0, 0
0.35185608, 0, 0, 0, 0
0.35185622, 1, 0, 0, 0
0.35185766, 1, 0, 0, 1
0.35278186, 1, 0, 0, 0
0.35278444, 0, 0, 0, 0
0.35278448, 0, 0, 1, 0
0.35278458, 1, 0, 1, 0
0.35278470, 0, 0, 1, 0
0.35278472, 0, 1, 0, 0
0.35278482, 1, 1, 0, 0
0.35278494, 0, 1, 0, 0
0.35278496, 0, 0, 0, 0
0.35278508, 1, 0, 0, 0
