Time [s],Packet ID,MOSI,MISO
-0.000015760,0,0x80,0x03
-0.000013760,0,0x85,0x88
-0.000011760,0,0x86,0x00
-0.000009760,0,0x87,0x00
-0.000007760,0,0x88,0x00
-0.000005760,0,0x96,0x00
-0.000003760,0,0x80,0x20
0.000984340,1,0x80,0x03
0.000986340,1,0x85,0x88
0.000988340,1,0x86,0x00
0.000990340,1,0x87,0x00
0.000992340,1,0x88,0x00
0.000994340,1,0x96,0x00
0.000996340,1,0x80,0x20
0.001984460,2,0x80,0x03
0.001986460,2,0x85,0x88
0.001988460,2,0x86,0x00
0.001990460,2,0x87,0x00
0.001992460,2,0x88,0x00
0.001994460,2,0x96,0x00
0.001996460,2,0x80,0x20
0.002984560,3,0x80,0x03
0.002986560,3,0x85,0x88
0.002988560,3,0x86,0x00
0.002990560,3,0x87,0x00
0.002992560,3,0x88,0x00
0.002994560,3,0x96,0x00
0.002996560,3,0x80,0x20
0.003984680,4,0x80,0x03
0.003986680,4,0x85,0x88
0.003988680,4,0x86,0x00
0.003990680,4,0x87,0x00
0.003992680,4,0x88,0x00
0.003994680,4,0x96,0x00
0.003996680,4,0x80,0x20
0.004984780,5,0x80,0x03
0.004986780,5,0x85,0x88
0.004988780,5,0x86,0x00
0.004990780,5,0x87,0x00
0.004992780,5,0x88,0x00
0.004994780,5,0x96,0x00
0.004996780,5,0x80,0x20
0.005984900,6,0x80,0x03
0.005986900,6,0x85,0x88
0.005988900,6,0x86,0x00
0.005990900,6,0x87,0x00
0.005992900,6,0x88,0x00
0.005994900,6,0x96,0x00
0.005996900,6,0x80,0x20
0.006985000,7,0x80,0x03
0.006987000,7,0x85,0x88
0.006989000,7,0x86,0x00
0.006991000,7,0x87,0x00
0.006993000,7,0x88,0x00
0.006995000,7,0x96,0x00
0.006997000,7,0x80,0x20
0.007985120,8,0x80,0x03
0.007987120,8,0x85,0x88
0.007989120,8,0x86,0x00
0.007991120,8,0x87,0x00
0.007993120,8,0x88,0x00
0.007995120,8,0x96,0x00
0.007997120,8,0x80,0x20
0.008985220,9,0x80,0x03
0.008987220,9,0x85,0x88
0.008989220,9,0x86,0x00
0.008991220,9,0x87,0x00
0.008993220,9,0x88,0x00
0.008995220,9,0x96,0x00
0.008997220,9,0x80,0x20
0.009985340,10,0x80,0x03
0.009987340,10,0x85,0x88
0.009989340,10,0x86,0x00
0.009991340,10,0x87,0x00
0.009993340,10,0x88,0x00
0.009995340,10,0x96,0x00
0.009997340,10,0x80,0x20
0.010985440,11,0x80,0x03
0.010987440,11,0x85,0x88
0.010989440,11,0x86,0x00
0.010991440,11,0x87,0x00
0.010993440,11,0x88,0x00
0.010995440,11,0x96,0x00
0.010997440,11,0x80,0x20
0.011985560,12,0x80,0x03
0.011987560,12,0x85,0x88
0.011989560,12,0x86,0x00
0.011991560,12,0x87,0x00
0.011993560,12,0x88,0x00
0.011995560,12,0x96,0x00
0.011997560,12,0x80,0x20
0.012985660,13,0x80,0x03
0.012987660,13,0x85,0x88
0.012989660,13,0x86,0x00
0.012991660,13,0x87,0x00
0.012993660,13,0x88,0x00
0.012995680,13,0x96,0x00
0.012997680,13,0x80,0x20
0.013985780,14,0x80,0x03
0.013987780,14,0x85,0x88
0.013989780,14,0x86,0x00
0.013991780,14,0x87,0x00
0.013993780,14,0x88,0x00
0.013995780,14,0x96,0x00
0.013997780,14,0x80,0x20
0.014985880,15,0x80,0x03
0.014987900,15,0x85,0x88
0.014989900,15,0x86,0x00
0.014991900,15,0x87,0x00
0.014993900,15,0x88,0x00
0.014995900,15,0x96,0x00
0.014997900,15,0x80,0x20
0.015986000,16,0x80,0x03
0.015988000,16,0x85,0x88
0.015990000,16,0x86,0x00
0.015992000,16,0x87,0x00
0.015994000,16,0x88,0x00
0.015996000,16,0x96,0x00
0.015998000,16,0x80,0x20
0.016986120,17,0x80,0x03
0.016988120,17,0x85,0x88
0.016990120,17,0x86,0x00
0.016992120,17,0x87,0x00
0.016994120,17,0x88,0x00
0.016996120,17,0x96,0x00
0.016998120,17,0x80,0x20
0.017986220,18,0x80,0x03
0.017988220,18,0x85,0x88
0.017990220,18,0x86,0x00
0.017992220,18,0x87,0x00
0.017994220,18,0x88,0x00
0.017996220,18,0x96,0x00
0.017998220,18,0x80,0x20
0.018986340,19,0x80,0x03
0.018988340,19,0x85,0x88
0.018990340,19,0x86,0x00
0.018992340,19,0x87,0x00
0.018994340,19,0x88,0x00
0.018996340,19,0x96,0x00
0.018998340,19,0x80,0x20
0.019986440,20,0x80,0x03
0.019988440,20,0x85,0x88
0.019990440,20,0x86,0x00
0.019992440,20,0x87,0x00
0.019994440,20,0x88,0x00
0.019996440,20,0x96,0x00
0.019998440,20,0x80,0x20
0.020986560,21,0x80,0x03
0.020988560,21,0x85,0x88
0.020990560,21,0x86,0x00
0.020992560,21,0x87,0x00
0.020994560,21,0x88,0x00
0.020996560,21,0x96,0x00
0.020998560,21,0x80,0x20
0.021986660,22,0x80,0x03
0.021988660,22,0x85,0x88
0.021990660,22,0x86,0x00
0.021992660,22,0x87,0x00
0.021994660,22,0x88,0x00
0.021996660,22,0x96,0x00
0.021998660,22,0x80,0x20
0.022986780,23,0x80,0x03
0.022988780,23,0x85,0x88
0.022990780,23,0x86,0x00
0.022992780,23,0x87,0x00
0.022994780,23,0x88,0x00
0.022996780,23,0x96,0x00
0.022998780,23,0x80,0x20
0.023986880,24,0x80,0x03
0.023988880,24,0x85,0x88
0.023990880,24,0x86,0x00
0.023992880,24,0x87,0x00
0.023994880,24,0x88,0x00
0.023996880,24,0x96,0x00
0.023998880,24,0x80,0x20
0.024987000,25,0x80,0x03
0.024989000,25,0x85,0x88
0.024991000,25,0x86,0x00
0.024993000,25,0x87,0x00
0.024995000,25,0x88,0x00
0.024997000,25,0x96,0x00
0.024999000,25,0x80,0x20
0.025987100,26,0x80,0x03
0.025989100,26,0x85,0x88
0.025991100,26,0x86,0x00
0.025993100,26,0x87,0x00
0.025995100,26,0x88,0x00
0.025997100,26,0x96,0x00
0.025999100,26,0x80,0x20
0.026987220,27,0x80,0x03
0.026989220,27,0x85,0x88
0.026991220,27,0x86,0x00
0.026993220,27,0x87,0x00
0.026995220,27,0x88,0x00
0.026997220,27,0x96,0x00
0.026999220,27,0x80,0x20
0.027987320,28,0x80,0x03
0.027989320,28,0x85,0x88
0.027991320,28,0x86,0x00
0.027993320,28,0x87,0x00
0.027995320,28,0x88,0x00
0.027997320,28,0x96,0x00
0.027999320,28,0x80,0x20
0.028987440,29,0x80,0x03
0.028989440,29,0x85,0x88
0.028991440,29,0x86,0x00
0.028993440,29,0x87,0x00
0.028995440,29,0x88,0x00
0.028997440,29,0x96,0x00
0.028999440,29,0x80,0x20
0.029987540,30,0x80,0x03
0.029989540,30,0x85,0x88
0.029991540,30,0x86,0x00
0.029993540,30,0x87,0x00
0.029995540,30,0x88,0x00
0.029997540,30,0x96,0x00
0.029999540,30,0x80,0x20
0.030987660,31,0x80,0x03
0.030989660,31,0x85,0x88
0.030991660,31,0x86,0x00
0.030993660,31,0x87,0x00
0.030995660,31,0x88,0x00
0.030997660,31,0x96,0x00
0.030999660,31,0x80,0x20
0.031987760,32,0x80,0x03
0.031989760,32,0x85,0x88
0.031991760,32,0x86,0x00
0.031993760,32,0x87,0x00
0.031995760,32,0x88,0x00
0.031997760,32,0x96,0x00
0.031999760,32,0x80,0x20
0.032987880,33,0x80,0x03
0.032989880,33,0x85,0x88
0.032991880,33,0x86,0x00
0.032993880,33,0x87,0x00
0.032995880,33,0x88,0x00
0.032997880,33,0x96,0x00
0.032999880,33,0x80,0x20
0.033987980,34,0x80,0x03
0.033989980,34,0x85,0x88
0.033991980,34,0x86,0x00
0.033993980,34,0x87,0x00
0.033995980,34,0x88,0x00
0.033997980,34,0x96,0x00
0.033999980,34,0x80,0x20
0.034988100,35,0x80,0x03
0.034990100,35,0x85,0x88
0.034992100,35,0x86,0x00
0.034994100,35,0x87,0x00
0.034996100,35,0x88,0x00
0.034998100,35,0x96,0x00
0.035000100,35,0x80,0x20
0.035988200,36,0x80,0x03
0.035990200,36,0x85,0x88
0.035992200,36,0x86,0x00
0.035994200,36,0x87,0x00
0.035996200,36,0x88,0x00
0.035998220,36,0x96,0x00
0.036000220,36,0x80,0x20
0.036988320,37,0x80,0x03
0.036990320,37,0x85,0x88
0.036992320,37,0x86,0x00
0.036994320,37,0x87,0x00
0.036996320,37,0x88,0x00
0.036998320,37,0x96,0x00
0.037000320,37,0x80,0x20
0.037988420,38,0x80,0x03
0.037990420,38,0x85,0x88
0.037992440,38,0x86,0x00
0.037994440,38,0x87,0x00
0.037996440,38,0x88,0x00
0.037998440,38,0x96,0x00
0.038000440,38,0x80,0x20
0.038988540,39,0x80,0x03
0.038990540,39,0x85,0x88
0.038992540,39,0x86,0x00
0.038994540,39,0x87,0x00
0.038996540,39,0x88,0x00
0.038998540,39,0x96,0x00
0.039000540,39,0x80,0x20
0.039988660,40,0x80,0x03
0.039990660,40,0x85,0x88
0.039992660,40,0x86,0x00
0.039994660,40,0x87,0x00
0.039996660,40,0x88,0x00
0.039998660,40,0x96,0x00
0.040000660,40,0x80,0x20
0.040988760,41,0x80,0x03
0.040990760,41,0x85,0x88
0.040992760,41,0x86,0x00
0.040994760,41,0x87,0x00
0.040996760,41,0x88,0x00
0.040998760,41,0x96,0x00
0.041000760,41,0x80,0x20
0.041988880,42,0x80,0x03
0.041990880,42,0x85,0x88
0.041992880,42,0x86,0x00
0.041994880,42,0x87,0x00
0.041996880,42,0x88,0x00
0.041998880,42,0x96,0x00
0.042000880,42,0x80,0x20
0.042988980,43,0x80,0x03
0.042990980,43,0x85,0x88
0.042992980,43,0x86,0x00
0.042994980,43,0x87,0x00
0.042996980,43,0x88,0x00
0.042998980,43,0x96,0x00
0.043000980,43,0x80,0x20
0.043989100,44,0x80,0x03
0.043991100,44,0x85,0x88
0.043993100,44,0x86,0x00
0.043995100,44,0x87,0x00
0.043997100,44,0x88,0x00
0.043999100,44,0x96,0x00
0.044001100,44,0x80,0x20
0.044989200,45,0x80,0x03
0.044991200,45,0x85,0x88
0.044993200,45,0x86,0x00
0.044995200,45,0x87,0x00
0.044997200,45,0x88,0x00
0.044999200,45,0x96,0x00
0.045001200,45,0x80,0x20
0.045989320,46,0x80,0x03
0.045991320,46,0x85,0x88
0.045993320,46,0x86,0x00
0.045995320,46,0x87,0x00
0.045997320,46,0x88,0x00
0.045999320,46,0x96,0x00
0.046001320,46,0x80,0x20
0.046989420,47,0x80,0x03
0.046991420,47,0x85,0x88
0.046993420,47,0x86,0x00
0.046995420,47,0x87,0x00
0.046997420,47,0x88,0x00
0.046999420,47,0x96,0x00
0.047001420,47,0x80,0x20
0.047989540,48,0x80,0x03
0.047991540,48,0x85,0x88
0.047993540,48,0x86,0x00
0.047995540,48,0x87,0x00
0.047997540,48,0x88,0x00
0.047999540,48,0x96,0x00
0.048001540,48,0x80,0x20
0.048989640,49,0x80,0x03
0.048991640,49,0x85,0x88
0.048993640,49,0x86,0x00
0.048995640,49,0x87,0x00
0.048997640,49,0x88,0x00
0.048999640,49,0x96,0x00
0.049001640,49,0x80,0x20
0.049989760,50,0x80,0x02
0.049991760,50,0x85,0x88
0.049993760,50,0x86,0x00
0.049995760,50,0x87,0x00
0.049997760,50,0x88,0x00
0.049999760,50,0x96,0x00
0.050001760,50,0x80,0x20
0.050989860,51,0x80,0x03
0.050991860,51,0x85,0x88
0.050993860,51,0x86,0x00
0.050995860,51,0x87,0x00
0.050997860,51,0x88,0x00
0.050999860,51,0x96,0x00
0.051001860,51,0x80,0x20
0.051989980,52,0x80,0x03
0.051991980,52,0x85,0x88
0.051993980,52,0x86,0x00
0.051995980,52,0x87,0x00
0.051997980,52,0x88,0x00
0.051999980,52,0x96,0x00
0.052001980,52,0x80,0x20
0.052990080,53,0x80,0x03
0.052992080,53,0x85,0x88
0.052994080,53,0x86,0x00
0.052996080,53,0x87,0x00
0.052998080,53,0x88,0x00
0.053000080,53,0x96,0x00
0.053002080,53,0x80,0x20
0.053990200,54,0x80,0x03
0.053992200,54,0x85,0x88
0.053994200,54,0x86,0x00
0.053996200,54,0x87,0x00
0.053998200,54,0x88,0x00
0.054000200,54,0x96,0x00
0.054002200,54,0x80,0x20
0.054990300,55,0x80,0x03
0.054992300,55,0x85,0x88
0.054994300,55,0x86,0x00
0.054996300,55,0x87,0x00
0.054998300,55,0x88,0x00
0.055000300,55,0x96,0x00
0.055002300,55,0x80,0x20
0.055990420,56,0x80,0x03
0.055992420,56,0x85,0x88
0.055994420,56,0x86,0x00
0.055996420,56,0x87,0x00
0.055998420,56,0x88,0x00
0.056000420,56,0x96,0x00
0.056002420,56,0x80,0x20
0.056990520,57,0x80,0x03
0.056992520,57,0x85,0x88
0.056994520,57,0x86,0x00
0.056996520,57,0x87,0x00
0.056998520,57,0x88,0x00
0.057000520,57,0x96,0x00
0.057002520,57,0x80,0x20
0.057990640,58,0x80,0x03
0.057992640,58,0x85,0x88
0.057994640,58,0x86,0x00
0.057996640,58,0x87,0x00
0.057998640,58,0x88,0x00
0.058000640,58,0x96,0x00
0.058002640,58,0x80,0x20
0.058990740,59,0x80,0x03
0.058992740,59,0x85,0x88
0.058994740,59,0x86,0x00
0.058996740,59,0x87,0x00
0.058998760,59,0x88,0x00
0.059000760,59,0x96,0x00
0.059002760,59,0x80,0x20
0.059990860,60,0x80,0x03
0.059992860,60,0x85,0x88
0.059994860,60,0x86,0x00
0.059996860,60,0x87,0x00
0.059998860,60,0x88,0x00
0.060000860,60,0x96,0x00
0.060002860,60,0x80,0x20
0.060990960,61,0x80,0x03
0.060992980,61,0x85,0x88
0.060994980,61,0x86,0x00
0.060996980,61,0x87,0x00
0.060998980,61,0x88,0x00
0.061000980,61,0x96,0x00
0.061002980,61,0x80,0x20
0.061991080,62,0x80,0x03
0.061993080,62,0x85,0x88
0.061995080,62,0x86,0x00
0.061997080,62,0x87,0x00
0.061999080,62,0x88,0x00
0.062001080,62,0x96,0x00
0.062003080,62,0x80,0x20
0.062991200,63,0x80,0x03
0.062993200,63,0x85,0x88
0.062995200,63,0x86,0x00
0.062997200,63,0x87,0x00
0.062999200,63,0x88,0x00
0.063001200,63,0x96,0x00
0.063003200,63,0x80,0x20
0.063991360,64,0x80,0x03
0.063993360,64,0x85,0x88
0.063995360,64,0x86,0x00
0.063997360,64,0x87,0x00
0.063999360,64,0x88,0x00
0.064001360,64,0x96,0x00
0.064003360,64,0x80,0x20
0.064991420,65,0x80,0x03
0.064993420,65,0x85,0x88
0.064995420,65,0x86,0x00
0.064997420,65,0x87,0x00
0.064999420,65,0x88,0x00
0.065001420,65,0x96,0x00
0.065003420,65,0x80,0x20
0.065991520,66,0x80,0x03
0.065993520,66,0x85,0x88
0.065995520,66,0x86,0x00
0.065997520,66,0x87,0x00
0.065999520,66,0x88,0x00
0.066001520,66,0x96,0x00
0.066003520,66,0x80,0x20
0.066991640,67,0x80,0x03
0.066993640,67,0x85,0x88
0.066995640,67,0x86,0x00
0.066997640,67,0x87,0x00
0.066999640,67,0x88,0x00
0.067001640,67,0x96,0x00
0.067003640,67,0x80,0x20
0.067991740,68,0x80,0x03
0.067993740,68,0x85,0x88
0.067995740,68,0x86,0x00
0.067997740,68,0x87,0x00
0.067999740,68,0x88,0x00
0.068001740,68,0x96,0x00
0.068003740,68,0x80,0x20
0.068991860,69,0x80,0x03
0.068993860,69,0x85,0x88
0.068995860,69,0x86,0x00
0.068997860,69,0x87,0x00
0.068999860,69,0x88,0x00
0.069001860,69,0x96,0x00
0.069003860,69,0x80,0x20
0.069991960,70,0x80,0x03
0.069993960,70,0x85,0x88
0.069995960,70,0x86,0x00
0.069997960,70,0x87,0x00
0.069999960,70,0x88,0x00
0.070001960,70,0x96,0x00
0.070003960,70,0x80,0x20
0.070992080,71,0x80,0x03
0.070994080,71,0x85,0x88
0.070996080,71,0x86,0x00
0.070998080,71,0x87,0x00
0.071000080,71,0x88,0x00
0.071002080,71,0x96,0x00
0.071004080,71,0x80,0x20
0.071992180,72,0x80,0x03
0.071994180,72,0x85,0x88
0.071996180,72,0x86,0x00
0.071998180,72,0x87,0x00
0.072000180,72,0x88,0x00
0.072002180,72,0x96,0x00
0.072004180,72,0x80,0x20
0.072992300,73,0x80,0x03
0.072994300,73,0x85,0x88
0.072996300,73,0x86,0x00
0.072998300,73,0x87,0x00
0.073000300,73,0x88,0x00
0.073002300,73,0x96,0x00
0.073004300,73,0x80,0x20
0.073992400,74,0x80,0x03
0.073994400,74,0x85,0x88
0.073996400,74,0x86,0x00
0.073998400,74,0x87,0x00
0.074000400,74,0x88,0x00
0.074002400,74,0x96,0x00
0.074004400,74,0x80,0x20
0.074992520,75,0x80,0x03
0.074994520,75,0x85,0x88
0.074996520,75,0x86,0x00
0.074998520,75,0x87,0x00
0.075000520,75,0x88,0x00
0.075002520,75,0x96,0x00
0.075004520,75,0x80,0x20
0.075992620,76,0x80,0x03
0.075994620,76,0x85,0x88
0.075996620,76,0x86,0x00
0.075998620,76,0x87,0x00
0.076000620,76,0x88,0x00
0.076002620,76,0x96,0x00
0.076004620,76,0x80,0x20
0.076992740,77,0x80,0x03
0.076994740,77,0x85,0x88
0.076996740,77,0x86,0x00
0.076998740,77,0x87,0x00
0.077000740,77,0x88,0x00
0.077002740,77,0x96,0x00
0.077004740,77,0x80,0x20
0.077992840,78,0x80,0x03
0.077994840,78,0x85,0x88
0.077996840,78,0x86,0x00
0.077998840,78,0x87,0x00
0.078000840,78,0x88,0x00
0.078002840,78,0x96,0x00
0.078004840,78,0x80,0x20
0.078992960,79,0x80,0x03
0.078994960,79,0x85,0x88
0.078996960,79,0x86,0x00
0.078998960,79,0x87,0x00
0.079000960,79,0x88,0x00
0.079002960,79,0x96,0x00
0.079004960,79,0x80,0x20
0.079993060,80,0x80,0x03
0.079995060,80,0x85,0x88
0.079997060,80,0x86,0x00
0.079999060,80,0x87,0x00
0.080001060,80,0x88,0x00
0.080003060,80,0x96,0x00
0.080005060,80,0x80,0x20
0.080993180,81,0x80,0x03
0.080995180,81,0x85,0x88
0.080997180,81,0x86,0x00
0.080999180,81,0x87,0x00
0.081001180,81,0x88,0x00
0.081003180,81,0x96,0x00
0.081005180,81,0x80,0x20
0.081993280,82,0x80,0x03
0.081995280,82,0x85,0x88
0.081997280,82,0x86,0x00
0.081999280,82,0x87,0x00
0.082001280,82,0x88,0x00
0.082003300,82,0x96,0x00
0.082005300,82,0x80,0x20
0.082993400,83,0x80,0x03
0.082995400,83,0x85,0x88
0.082997400,83,0x86,0x00
0.082999400,83,0x87,0x00
0.083001400,83,0x88,0x00
0.083003400,83,0x96,0x00
0.083005400,83,0x80,0x20
0.083993500,84,0x80,0x03
0.083995520,84,0x85,0x88
0.083997520,84,0x86,0x00
0.083999520,84,0x87,0x00
0.084001520,84,0x88,0x00
0.084003520,84,0x96,0x00
0.084005520,84,0x80,0x20
0.084993620,85,0x80,0x03
0.084995620,85,0x85,0x88
0.084997620,85,0x86,0x00
0.084999620,85,0x87,0x00
0.085001620,85,0x88,0x00
0.085003620,85,0x96,0x00
0.085005620,85,0x80,0x20
0.085993740,86,0x80,0x03
0.085995740,86,0x85,0x88
0.085997740,86,0x86,0x00
0.085999740,86,0x87,0x00
0.086001740,86,0x88,0x00
0.086003740,86,0x96,0x00
0.086005740,86,0x80,0x20
0.086993840,87,0x80,0x03
0.086995840,87,0x85,0x88
0.086997840,87,0x86,0x00
0.086999840,87,0x87,0x00
0.087001840,87,0x88,0x00
0.087003840,87,0x96,0x00
0.087005840,87,0x80,0x20
0.087993960,88,0x80,0x03
0.087995960,88,0x85,0x88
0.087997960,88,0x86,0x00
0.087999960,88,0x87,0x00
0.088001960,88,0x88,0x00
0.088003960,88,0x96,0x00
0.088005960,88,0x80,0x20
0.088994060,89,0x80,0x03
0.088996060,89,0x85,0x88
0.088998060,89,0x86,0x00
0.089000060,89,0x87,0x00
0.089002060,89,0x88,0x00
0.089004060,89,0x96,0x00
0.089006060,89,0x80,0x20
0.089994180,90,0x80,0x03
0.089996180,90,0x85,0x88
0.089998180,90,0x86,0x00
0.090000180,90,0x87,0x00
0.090002180,90,0x88,0x00
0.090004180,90,0x96,0x00
0.090006180,90,0x80,0x20
0.090994280,91,0x80,0x03
0.090996280,91,0x85,0x88
0.090998280,91,0x86,0x00
0.091000280,91,0x87,0x00
0.091002280,91,0x88,0x00
0.091004280,91,0x96,0x00
0.091006280,91,0x80,0x20
0.091994400,92,0x80,0x03
0.091996400,92,0x85,0x88
0.091998400,92,0x86,0x00
0.092000400,92,0x87,0x00
0.092002400,92,0x88,0x00
0.092004400,92,0x96,0x00
0.092006400,92,0x80,0x20
0.092994500,93,0x80,0x03
0.092996500,93,0x85,0x88
0.092998500,93,0x86,0x00
0.093000500,93,0x87,0x00
0.093002500,93,0x88,0x00
0.093004500,93,0x96,0x00
0.093006500,93,0x80,0x20
0.093994620,94,0x80,0x03
0.093996620,94,0x85,0x88
0.093998620,94,0x86,0x00
0.094000620,94,0x87,0x00
0.094002620,94,0x88,0x00
0.094004620,94,0x96,0x00
0.094006620,94,0x80,0x20
0.094994720,95,0x80,0x03
0.094996720,95,0x85,0x88
0.094998720,95,0x86,0x00
0.095000720,95,0x87,0x00
0.095002720,95,0x88,0x00
0.095004720,95,0x96,0x00
0.095006720,95,0x80,0x20
0.095994840,96,0x80,0x03
0.095996840,96,0x85,0x88
0.095998840,96,0x86,0x00
0.096000840,96,0x87,0x00
0.096002840,96,0x88,0x00
0.096004840,96,0x96,0x00
0.096006840,96,0x80,0x20
0.096994940,97,0x80,0x03
0.096996940,97,0x85,0x88
0.096998940,97,0x86,0x00
0.097000940,97,0x87,0x00
0.097002940,97,0x88,0x00
0.097004940,97,0x96,0x00
0.097006940,97,0x80,0x20
0.097995060,98,0x80,0x03
0.097997060,98,0x85,0x88
0.097999060,98,0x86,0x00
0.098001060,98,0x87,0x00
0.098003060,98,0x88,0x00
0.098005060,98,0x96,0x00
0.098007060,98,0x80,0x20
0.098995160,99,0x80,0x03
0.098997160,99,0x85,0x88
0.098999160,99,0x86,0x00
0.099001160,99,0x87,0x00
0.099003160,99,0x88,0x00
0.099005160,99,0x96,0x00
0.099007160,99,0x80,0x20
0.099995280,100,0x80,0x03
0.099997280,100,0x85,0x88
0.099999280,100,0x86,0x00
0.100001280,100,0x87,0x00
0.100003280,100,0x88,0x00
0.100005280,100,0x96,0x00
0.100007280,100,0x80,0x20
0.100995380,101,0x80,0x03
0.100997380,101,0x85,0x88
0.100999380,101,0x86,0x00
0.101001380,101,0x87,0x00
0.101003380,101,0x88,0x00
0.101005380,101,0x96,0x00
0.101007380,101,0x80,0x20
0.101995500,102,0x80,0x03
0.101997500,102,0x85,0x88
0.101999500,102,0x86,0x00
0.102001500,102,0x87,0x00
0.102003500,102,0x88,0x00
0.102005500,102,0x96,0x00
0.102007500,102,0x80,0x20
0.102995600,103,0x80,0x03
0.102997600,103,0x85,0x88
0.102999600,103,0x86,0x00
0.103001600,103,0x87,0x00
0.103003600,103,0x88,0x00
0.103005600,103,0x96,0x00
0.103007600,103,0x80,0x20
0.103995720,104,0x80,0x03
0.103997720,104,0x85,0x88
0.103999720,104,0x86,0x00
0.104001720,104,0x87,0x00
0.104003720,104,0x88,0x00
0.104005720,104,0x96,0x00
0.104007720,104,0x80,0x20
0.104995820,105,0x80,0x03
0.104997820,105,0x85,0x88
0.104999820,105,0x86,0x00
0.105001820,105,0x87,0x00
0.105003840,105,0x88,0x00
0.105005840,105,0x96,0x00
0.105007840,105,0x80,0x20
0.105995940,106,0x80,0x03
0.105997940,106,0x85,0x88
0.105999940,106,0x86,0x00
0.106001940,106,0x87,0x00
0.106003940,106,0x88,0x00
0.106005940,106,0x96,0x00
0.106007940,106,0x80,0x20
0.106996040,107,0x80,0x03
0.106998060,107,0x85,0x88
0.107000060,107,0x86,0x00
0.107002060,107,0x87,0x00
0.107004060,107,0x88,0x00
0.107006060,107,0x96,0x00
0.107008060,107,0x80,0x20
0.107996160,108,0x80,0x03
0.107998160,108,0x85,0x88
0.108000160,108,0x86,0x00
0.108002160,108,0x87,0x00
0.108004160,108,0x88,0x00
0.108006160,108,0x96,0x00
0.108008160,108,0x80,0x20
0.108996280,109,0x80,0x03
0.108998280,109,0x85,0x88
0.109000280,109,0x86,0x00
0.109002280,109,0x87,0x00
