Time [s],Packet ID,MOSI,MISO
0.000124438,0,0x80,0x03
0.000126438,0,0x85,0x88
0.000128438,0,0x86,0x00
0.000130437,0,0x87,0x00
0.000132438,0,0x88,0x00
0.000134438,0,0x96,0x00
0.000136438,0,0x80,0x20
0.001124563,1,0x80,0x03
0.001126563,1,0x85,0x88
0.001128563,1,0x86,0x00
0.001130563,1,0x87,0x00
0.001132563,1,0x88,0x00
0.001134563,1,0x96,0x00
0.001136563,1,0x80,0x20
0.002124688,2,0x80,0x03
0.002126688,2,0x85,0x88
0.002128688,2,0x86,0x00
0.002130688,2,0x87,0x00
0.002132688,2,0x88,0x00
0.002134688,2,0x96,0x00
0.002136688,2,0x80,0x20
0.003124813,3,0x80,0x03
0.003126813,3,0x85,0x88
0.003128813,3,0x86,0x00
0.003130813,3,0x87,0x00
0.003132813,3,0x88,0x00
0.003134813,3,0x96,0x00
0.003136813,3,0x80,0x20
0.004124875,4,0x80,0x03
0.004126875,4,0x85,0x88
0.004128875,4,0x86,0x00
0.004130875,4,0x87,0x00
0.004132875,4,0x88,0x00
0.004134875,4,0x96,0x00
0.004136875,4,0x80,0x20
0.005125000,5,0x80,0x03
0.005127000,5,0x85,0x88
0.005129000,5,0x86,0x00
0.005131000,5,0x87,0x00
0.005133000,5,0x88,0x00
0.005135000,5,0x96,0x00
0.005137000,5,0x80,0x20
0.006125125,6,0x80,0x03
0.006127125,6,0x85,0x88
0.006129125,6,0x86,0x00
0.006131125,6,0x87,0x00
0.006133125,6,0x88,0x00
0.006135125,6,0x96,0x00
0.006137125,6,0x80,0x20
0.007125250,7,0x80,0x03
0.007127250,7,0x85,0x88
0.007129250,7,0x86,0x00
0.007131250,7,0x87,0x00
0.007133250,7,0x88,0x00
0.007135250,7,0x96,0x00
0.007137250,7,0x80,0x20
0.008125375,8,0x80,0x03
0.008127375,8,0x85,0x88
0.008129375,8,0x86,0x00
0.008131375,8,0x87,0x00
0.008133375,8,0x88,0x00
0.008135375,8,0x96,0x00
0.008137375,8,0x80,0x20
0.009125438,9,0x80,0x03
0.009127438,9,0x85,0x88
0.009129438,9,0x86,0x00
0.009131438,9,0x87,0x00
0.009133438,9,0x88,0x00
0.009135438,9,0x96,0x00
0.009137438,9,0x80,0x20
0.010125563,10,0x80,0x03
0.010127563,10,0x85,0x88
0.010129563,10,0x86,0x00
0.010131563,10,0x87,0x00
0.010133563,10,0x88,0x00
0.010135563,10,0x96,0x00
0.010137563,10,0x80,0x20
0.011125750,11,0x80,0x03
0.011127750,11,0x85,0x88
0.011129750,11,0x86,0x00
0.011131750,11,0x87,0x00
0.011133750,11,0x88,0x00
0.011135750,11,0x96,0x00
0.011137750,11,0x80,0x20
0.012125813,12,0x80,0x03
0.012127813,12,0x85,0x88
0.012129813,12,0x86,0x00
0.012131813,12,0x87,0x00
0.012133813,12,0x88,0x00
0.012135813,12,0x96,0x00
0.012137813,12,0x80,0x20
0.013125875,13,0x80,0x03
0.013127875,13,0x85,0x88
0.013129875,13,0x86,0x00
0.013131875,13,0x87,0x00
0.013133875,13,0x88,0x00
0.013135875,13,0x96,0x00
0.013137875,13,0x80,0x20
0.014126000,14,0x80,0x03
0.014128000,14,0x85,0x88
0.014130000,14,0x86,0x00
0.014132000,14,0x87,0x00
0.014134000,14,0x88,0x00
0.014136000,14,0x96,0x00
0.014138000,14,0x80,0x20
0.015126125,15,0x80,0x03
0.015128125,15,0x85,0x88
0.015130125,15,0x86,0x00
0.015132125,15,0x87,0x00
0.015134125,15,0x88,0x00
0.015136125,15,0x96,0x00
0.015138125,15,0x80,0x20
0.016126250,16,0x80,0x03
0.016128250,16,0x85,0x88
0.016130250,16,0x86,0x00
0.016132250,16,0x87,0x00
0.016134250,16,0x88,0x00
0.016136250,16,0x96,0x00
0.016138250,16,0x80,0x20
0.017126313,17,0x80,0x03
0.017128313,17,0x85,0x88
0.017130313,17,0x86,0x00
0.017132313,17,0x87,0x00
0.017134313,17,0x88,0x00
0.017136313,17,0x96,0x00
0.017138313,17,0x80,0x20
0.018126438,18,0x80,0x03
0.018128438,18,0x85,0x88
0.018130438,18,0x86,0x00
0.018132438,18,0x87,0x00
0.018134438,18,0x88,0x00
0.018136438,18,0x96,0x00
0.018138438,18,0x80,0x20
0.019126563,19,0x80,0x03
0.019128563,19,0x85,0x88
0.019130563,19,0x86,0x00
0.019132563,19,0x87,0x00
0.019134563,19,0x88,0x00
0.019136563,19,0x96,0x00
0.019138563,19,0x80,0x20
0.020126688,20,0x80,0x03
0.020128688,20,0x85,0x88
0.020130688,20,0x86,0x00
0.020132688,20,0x87,0x00
0.020134688,20,0x88,0x00
0.020136688,20,0x96,0x00
0.020138688,20,0x80,0x20
0.021126813,21,0x80,0x03
0.021128813,21,0x85,0x88
0.021130813,21,0x86,0x00
0.021132813,21,0x87,0x00
0.021134813,21,0x88,0x00
0.021136813,21,0x96,0x00
0.021138813,21,0x80,0x20
0.022126875,22,0x80,0x03
0.022128875,22,0x85,0x88
0.022130875,22,0x86,0x00
0.022132875,22,0x87,0x00
0.022134875,22,0x88,0x00
0.022136875,22,0x96,0x00
0.022138875,22,0x80,0x20
0.023127000,23,0x80,0x03
0.023129000,23,0x85,0x88
0.023131000,23,0x86,0x00
0.023133000,23,0x87,0x00
0.023135000,23,0x88,0x00
0.023137000,23,0x96,0x00
0.023139000,23,0x80,0x20
0.024127125,24,0x80,0x03
0.024129125,24,0x85,0x88
0.024131125,24,0x86,0x00
0.024133125,24,0x87,0x00
0.024135125,24,0x88,0x00
0.024137125,24,0x96,0x00
0.024139125,24,0x80,0x20
0.025127250,25,0x80,0x03
0.025129250,25,0x85,0x88
0.025131250,25,0x86,0x00
0.025133250,25,0x87,0x00
0.025135250,25,0x88,0x00
0.025137250,25,0x96,0x00
0.025139250,25,0x80,0x20
0.026127313,26,0x80,0x03
0.026129313,26,0x85,0x88
0.026131313,26,0x86,0x00
0.026133313,26,0x87,0x00
0.026135313,26,0x88,0x00
0.026137313,26,0x96,0x00
0.026139313,26,0x80,0x20
0.027127438,27,0x80,0x03
0.027129438,27,0x85,0x88
0.027131438,27,0x86,0x00
0.027133438,27,0x87,0x00
0.027135438,27,0x88,0x00
0.027137438,27,0x96,0x00
0.027139438,27,0x80,0x20
0.028127563,28,0x80,0x03
0.028129563,28,0x85,0x88
0.028131563,28,0x86,0x00
0.028133563,28,0x87,0x00
0.028135563,28,0x88,0x00
0.028137563,28,0x96,0x00
0.028139563,28,0x80,0x20
0.029127688,29,0x80,0x03
0.029129688,29,0x85,0x88
0.029131688,29,0x86,0x00
0.029133688,29,0x87,0x00
0.029135688,29,0x88,0x00
0.029137688,29,0x96,0x00
0.029139688,29,0x80,0x20
0.030127750,30,0x80,0x03
0.030129750,30,0x85,0x88
0.030131750,30,0x86,0x00
0.030133750,30,0x87,0x00
0.030135750,30,0x88,0x00
0.030137750,30,0x96,0x00
0.030139750,30,0x80,0x20
0.031127875,31,0x80,0x03
0.031129875,31,0x85,0x88
0.031131875,31,0x86,0x00
0.031133875,31,0x87,0x00
0.031135875,31,0x88,0x00
0.031137875,31,0x96,0x00
0.031139875,31,0x80,0x20
0.032128000,32,0x80,0x03
0.032130000,32,0x85,0x88
0.032132000,32,0x86,0x00
0.032134000,32,0x87,0x00
0.032136000,32,0x88,0x00
0.032138000,32,0x96,0x00
0.032140000,32,0x80,0x20
0.033128125,33,0x80,0x03
0.033130125,33,0x85,0x88
0.033132125,33,0x86,0x00
0.033134125,33,0x87,0x00
0.033136125,33,0x88,0x00
0.033138125,33,0x96,0x00
0.033140125,33,0x80,0x20
0.034128188,34,0x80,0x03
0.034130188,34,0x85,0x88
0.034132188,34,0x86,0x00
0.034134188,34,0x87,0x00
0.034136250,34,0x88,0x00
0.034138250,34,0x96,0x00
0.034140250,34,0x80,0x20
0.035128313,35,0x80,0x03
0.035130313,35,0x85,0x88
0.035132313,35,0x86,0x00
0.035134313,35,0x87,0x00
0.035136313,35,0x88,0x00
0.035138313,35,0x96,0x00
0.035140313,35,0x80,0x20
0.036128438,36,0x80,0x03
0.036130438,36,0x85,0x88
0.036132438,36,0x86,0x00
0.036134438,36,0x87,0x00
0.036136438,36,0x88,0x00
0.036138438,36,0x96,0x00
0.036140438,36,0x80,0x20
0.037128563,37,0x80,0x03
0.037130563,37,0x85,0x88
0.037132563,37,0x86,0x00
0.037134563,37,0x87,0x00
0.037136563,37,0x88,0x00
0.037138563,37,0x96,0x00
0.037140563,37,0x80,0x20
0.038128688,38,0x80,0x03
0.038130688,38,0x85,0x88
0.038132688,38,0x86,0x00
0.038134688,38,0x87,0x00
0.038136688,38,0x88,0x00
0.038138688,38,0x96,0x00
0.038140688,38,0x80,0x20
0.039128750,39,0x80,0x03
0.039130750,39,0x85,0x88
0.039132750,39,0x86,0x00
0.039134750,39,0x87,0x00
0.039136750,39,0x88,0x00
0.039138750,39,0x96,0x00
0.039140750,39,0x80,0x20
0.040128875,40,0x80,0x03
0.040130875,40,0x85,0x88
0.040132875,40,0x86,0x00
0.040134875,40,0x87,0x00
0.040136875,40,0x88,0x00
0.040138875,40,0x96,0x00
0.040140875,40,0x80,0x20
0.041129000,41,0x80,0x03
0.041131000,41,0x85,0x88
0.041133000,41,0x86,0x00
0.041135000,41,0x87,0x00
0.041137000,41,0x88,0x00
0.041139000,41,0x96,0x00
0.041141000,41,0x80,0x20
0.042129125,42,0x80,0x03
0.042131125,42,0x85,0x88
0.042133125,42,0x86,0x00
0.042135125,42,0x87,0x00
0.042137125,42,0x88,0x00
0.042139125,42,0x96,0x00
0.042141125,42,0x80,0x20
0.043129188,43,0x80,0x03
0.043131188,43,0x85,0x88
0.043133188,43,0x86,0x00
0.043135188,43,0x87,0x00
0.043137188,43,0x88,0x00
0.043139188,43,0x96,0x00
0.043141188,43,0x80,0x20
0.044129313,44,0x80,0x03
0.044131313,44,0x85,0x88
0.044133313,44,0x86,0x00
0.044135313,44,0x87,0x00
0.044137313,44,0x88,0x00
0.044139313,44,0x96,0x00
0.044141313,44,0x80,0x20
0.045129438,45,0x80,0x03
0.045131438,45,0x85,0x88
0.045133438,45,0x86,0x00
0.045135438,45,0x87,0x00
0.045137438,45,0x88,0x00
0.045139438,45,0x96,0x00
0.045141438,45,0x80,0x20
0.046129563,46,0x80,0x03
0.046131563,46,0x85,0x88
0.046133563,46,0x86,0x00
0.046135563,46,0x87,0x00
0.046137563,46,0x88,0x00
0.046139563,46,0x96,0x00
0.046141563,46,0x80,0x20
0.047129625,47,0x80,0x03
0.047131625,47,0x85,0x88
0.047133625,47,0x86,0x00
0.047135625,47,0x87,0x00
0.047137625,47,0x88,0x00
0.047139625,47,0x96,0x00
0.047141625,47,0x80,0x20
0.048129750,48,0x80,0x03
0.048131750,48,0x85,0x88
0.048133750,48,0x86,0x00
0.048135750,48,0x87,0x00
0.048137750,48,0x88,0x00
0.048139750,48,0x96,0x00
0.048141750,48,0x80,0x20
0.049129875,49,0x80,0x03
0.049131875,49,0x85,0x88
0.049133875,49,0x86,0x00
0.049135875,49,0x87,0x00
0.049137875,49,0x88,0x00
0.049139875,49,0x96,0x00
0.049141875,49,0x80,0x20
0.050130000,50,0x80,0x03
0.050132000,50,0x85,0x88
0.050134000,50,0x86,0x00
0.050136000,50,0x87,0x00
0.050138000,50,0x88,0x00
0.050140000,50,0x96,0x00
0.050142000,50,0x80,0x20
0.051130125,51,0x80,0x03
0.051132125,51,0x85,0x88
0.051134125,51,0x86,0x00
0.051136125,51,0x87,0x00
0.051138125,51,0x88,0x00
0.051140125,51,0x96,0x00
0.051142125,51,0x80,0x20
0.052130188,52,0x80,0x03
0.052132188,52,0x85,0x88
0.052134188,52,0x86,0x00
0.052136188,52,0x87,0x00
0.052138188,52,0x88,0x00
0.052140188,52,0x96,0x00
0.052142188,52,0x80,0x20
0.053130313,53,0x80,0x03
0.053132313,53,0x85,0x88
0.053134313,53,0x86,0x00
0.053136313,53,0x87,0x00
0.053138313,53,0x88,0x00
0.053140313,53,0x96,0x00
0.053142313,53,0x80,0x20
0.054130438,54,0x80,0x03
0.054132438,54,0x85,0x88
0.054134438,54,0x86,0x00
0.054136438,54,0x87,0x00
0.054138438,54,0x88,0x00
0.054140438,54,0x96,0x00
0.054142438,54,0x80,0x20
0.055130563,55,0x80,0x03
0.055132563,55,0x85,0x88
0.055134563,55,0x86,0x00
0.055136563,55,0x87,0x00
0.055138563,55,0x88,0x00
0.055140563,55,0x96,0x00
0.055142563,55,0x80,0x20
0.056130625,56,0x80,0x03
0.056132625,56,0x85,0x88
0.056134625,56,0x86,0x00
0.056136625,56,0x87,0x00
0.056138625,56,0x88,0x00
0.056140625,56,0x96,0x00
0.056142625,56,0x80,0x20
0.057130750,57,0x80,0x03
0.057132750,57,0x85,0x88
0.057134750,57,0x86,0x00
0.057136750,57,0x87,0x00
0.057138750,57,0x88,0x00
0.057140750,57,0x96,0x00
0.057142750,57,0x80,0x20
0.058130875,58,0x80,0x03
0.058132875,58,0x85,0x88
0.058134875,58,0x86,0x00
0.058136875,58,0x87,0x00
0.058138875,58,0x88,0x00
0.058140875,58,0x96,0x00
0.058142875,58,0x80,0x20
0.059131000,59,0x80,0x03
0.059133000,59,0x85,0x88
0.059135000,59,0x86,0x00
0.059137000,59,0x87,0x00
0.059139000,59,0x88,0x00
0.059141000,59,0x96,0x00
0.059143000,59,0x80,0x20
0.060131063,60,0x80,0x03
0.060133063,60,0x85,0x88
0.060135063,60,0x86,0x00
0.060137063,60,0x87,0x00
0.060139063,60,0x88,0x00
0.060141063,60,0x96,0x00
0.060143063,60,0x80,0x20
0.061131188,61,0x80,0x03
0.061133188,61,0x85,0x88
0.061135188,61,0x86,0x00
0.061137188,61,0x87,0x00
0.061139188,61,0x88,0x00
0.061141188,61,0x96,0x00
0.061143188,61,0x80,0x20
0.062131313,62,0x80,0x03
0.062133313,62,0x85,0x88
0.062135313,62,0x86,0x00
0.062137313,62,0x87,0x00
0.062139313,62,0x88,0x00
0.062141313,62,0x96,0x00
0.062143313,62,0x80,0x20
0.063131438,63,0x80,0x03
0.063133438,63,0x85,0x88
0.063135438,63,0x86,0x00
0.063137438,63,0x87,0x00
0.063139438,63,0x88,0x00
0.063141437,63,0x96,0x00
0.063143438,63,0x80,0x20
0.064131563,64,0x80,0x03
0.064133563,64,0x85,0x88
0.064135563,64,0x86,0x00
0.064137562,64,0x87,0x00
0.064139563,64,0x88,0x00
0.064141563,64,0x96,0x00
0.064143563,64,0x80,0x20
0.065131625,65,0x80,0x03
0.065133625,65,0x85,0x88
0.065135625,65,0x86,0x00
0.065137625,65,0x87,0x00
0.065139625,65,0x88,0x00
0.065141625,65,0x96,0x00
0.065143625,65,0x80,0x20
0.066131750,66,0x80,0x03
0.066133750,66,0x85,0x88
0.066135750,66,0x86,0x00
0.066137750,66,0x87,0x00
0.066139750,66,0x88,0x00
0.066141750,66,0x96,0x00
0.066143750,66,0x80,0x20
0.067131875,67,0x80,0x03
0.067133875,67,0x85,0x88
0.067135875,67,0x86,0x00
0.067137875,67,0x87,0x00
0.067139875,67,0x88,0x00
0.067141875,67,0x96,0x00
0.067143875,67,0x80,0x20
0.068132000,68,0x80,0x03
0.068134000,68,0x85,0x88
0.068136000,68,0x86,0x00
0.068138000,68,0x87,0x00
0.068140000,68,0x88,0x00
0.068142000,68,0x96,0x00
0.068144000,68,0x80,0x20
0.069132063,69,0x80,0x03
0.069134063,69,0x85,0x88
0.069136063,69,0x86,0x00
0.069138063,69,0x87,0x00
0.069140063,69,0x88,0x00
0.069142063,69,0x96,0x00
0.069144063,69,0x80,0x20
0.070132188,70,0x80,0x03
0.070134188,70,0x85,0x88
0.070136188,70,0x86,0x00
0.070138188,70,0x87,0x00
0.070140188,70,0x88,0x00
0.070142188,70,0x96,0x00
0.070144188,70,0x80,0x20
0.071132313,71,0x80,0x03
0.071134313,71,0x85,0x88
0.071136313,71,0x86,0x00
0.071138313,71,0x87,0x00
0.071140313,71,0x88,0x00
0.071142313,71,0x96,0x00
0.071144313,71,0x80,0x20
0.072132438,72,0x80,0x03
0.072134438,72,0x85,0x88
0.072136438,72,0x86,0x00
0.072138438,72,0x87,0x00
0.072140438,72,0x88,0x00
0.072142438,72,0x96,0x00
0.072144438,72,0x80,0x20
0.073132500,73,0x80,0x03
0.073134500,73,0x85,0x88
0.073136500,73,0x86,0x00
0.073138500,73,0x87,0x00
0.073140500,73,0x88,0x00
0.073142500,73,0x96,0x00
0.073144500,73,0x80,0x20
0.074132625,74,0x80,0x03
0.074134625,74,0x85,0x88
0.074136625,74,0x86,0x00
0.074138625,74,0x87,0x00
0.074140625,74,0x88,0x00
0.074142625,74,0x96,0x00
0.074144625,74,0x80,0x20
0.075132750,75,0x80,0x03
0.075134750,75,0x85,0x88
0.075136750,75,0x86,0x00
0.075138750,75,0x87,0x00
0.075140750,75,0x88,0x00
0.075142750,75,0x96,0x00
0.075144750,75,0x80,0x20
0.076132875,76,0x80,0x03
0.076134875,76,0x85,0x88
0.076136875,76,0x86,0x00
0.076138875,76,0x87,0x00
0.076140875,76,0x88,0x00
0.076142875,76,0x96,0x00
0.076144875,76,0x80,0x20
0.077132938,77,0x80,0x03
0.077135000,77,0x85,0x88
0.077137000,77,0x86,0x00
0.077139000,77,0x87,0x00
0.077141000,77,0x88,0x00
0.077143000,77,0x96,0x00
0.077145000,77,0x80,0x20
0.078133063,78,0x80,0x03
0.078135063,78,0x85,0x88
0.078137063,78,0x86,0x00
0.078139063,78,0x87,0x00
0.078141063,78,0x88,0x00
0.078143063,78,0x96,0x00
0.078145063,78,0x80,0x20
0.079133188,79,0x80,0x02
0.079135188,79,0x85,0x88
0.079137188,79,0x86,0x00
0.079139188,79,0x87,0x00
0.079141188,79,0x88,0x00
0.079143188,79,0x96,0x00
0.079145188,79,0x80,0x20
0.080133313,80,0x80,0x03
0.080135313,80,0x85,0x88
0.080137313,80,0x86,0x00
0.080139313,80,0x87,0x00
0.080141313,80,0x88,0x00
0.080143313,80,0x96,0x00
0.080145313,80,0x80,0x20
0.081133438,81,0x80,0x03
0.081135438,81,0x85,0x88
0.081137438,81,0x86,0x00
0.081139438,81,0x87,0x00
0.081141438,81,0x88,0x00
0.081143438,81,0x96,0x00
0.081145438,81,0x80,0x20
0.082133500,82,0x80,0x03
0.082135500,82,0x85,0x88
0.082137500,82,0x86,0x00
0.082139500,82,0x87,0x00
0.082141500,82,0x88,0x00
0.082143500,82,0x96,0x00
0.082145500,82,0x80,0x20
0.083133625,83,0x80,0x03
0.083135625,83,0x85,0x88
0.083137625,83,0x86,0x00
0.083139625,83,0x87,0x00
0.083141625,83,0x88,0x00
0.083143625,83,0x96,0x00
0.083145625,83,0x80,0x20
0.084133750,84,0x80,0x03
0.084135750,84,0x85,0x88
0.084137750,84,0x86,0x00
0.084139750,84,0x87,0x00
0.084141750,84,0x88,0x00
0.084143750,84,0x96,0x00
0.084145750,84,0x80,0x20
0.085133875,85,0x80,0x03
0.085135875,85,0x85,0x88
0.085137875,85,0x86,0x00
0.085139875,85,0x87,0x00
0.085141875,85,0x88,0x00
0.085143875,85,0x96,0x00
0.085145875,85,0x80,0x20
0.086133938,86,0x80,0x03
0.086135938,86,0x85,0x88
0.086137938,86,0x86,0x00
0.086139938,86,0x87,0x00
0.086141938,86,0x88,0x00
0.086143938,86,0x96,0x00
0.086145938,86,0x80,0x20
0.087134063,87,0x80,0x03
0.087136063,87,0x85,0x88
0.087138063,87,0x86,0x00
0.087140063,87,0x87,0x00
0.087142063,87,0x88,0x00
0.087144063,87,0x96,0x00
0.087146063,87,0x80,0x20
0.088134188,88,0x80,0x03
0.088136188,88,0x85,0x88
0.088138188,88,0x86,0x00
0.088140188,88,0x87,0x00
0.088142188,88,0x88,0x00
0.088144188,88,0x96,0x00
0.088146188,88,0x80,0x20
0.089134313,89,0x80,0x03
0.089136313,89,0x85,0x88
0.089138313,89,0x86,0x00
0.089140313,89,0x87,0x00
0.089142313,89,0x88,0x00
0.089144313,89,0x96,0x00
0.089146313,89,0x80,0x20
0.090134375,90,0x80,0x03
0.090136375,90,0x85,0x88
0.090138375,90,0x86,0x00
0.090140375,90,0x87,0x00
0.090142375,90,0x88,0x00
0.090144375,90,0x96,0x00
0.090146438,90,0x80,0x20
0.091134563,91,0x80,0x03
0.091136563,91,0x85,0x88
0.091138563,91,0x86,0x00
0.091140563,91,0x87,0x00
0.091142563,91,0x88,0x00
0.091144563,91,0x96,0x00
0.091146563,91,0x80,0x20
0.092134625,92,0x80,0x03
0.092136625,92,0x85,0x88
0.092138625,92,0x86,0x00
0.092140625,92,0x87,0x00
0.092142625,92,0x88,0x00
0.092144625,92,0x96,0x00
0.092146625,92,0x80,0x20
0.093134750,93,0x80,0x03
0.093136750,93,0x85,0x88
0.093138750,93,0x86,0x00
0.093140750,93,0x87,0x00
0.093142750,93,0x88,0x00
0.093144750,93,0x96,0x00
0.093146750,93,0x80,0x20
0.094134875,94,0x80,0x03
0.094136875,94,0x85,0x88
0.094138875,94,0x86,0x00
0.094140875,94,0x87,0x00
0.094142875,94,0x88,0x00
0.094144875,94,0x96,0x00
0.094146875,94,0x80,0x20
0.095134938,95,0x80,0x03
0.095136938,95,0x85,0x88
0.095138938,95,0x86,0x00
0.095140938,95,0x87,0x00
0.095142938,95,0x88,0x00
0.095144938,95,0x96,0x00
0.095146938,95,0x80,0x20
0.096135063,96,0x80,0x03
0.096137063,96,0x85,0x88
0.096139063,96,0x86,0x00
0.096141063,96,0x87,0x00
0.096143063,96,0x88,0x00
0.096145063,96,0x96,0x00
0.096147063,96,0x80,0x20
0.097135188,97,0x80,0x03
0.097137188,97,0x85,0x88
0.097139188,97,0x86,0x00
0.097141188,97,0x87,0x00
0.097143188,97,0x88,0x00
0.097145188,97,0x96,0x00
0.097147188,97,0x80,0x20
0.098135313,98,0x80,0x03
0.098137313,98,0x85,0x88
0.098139313,98,0x86,0x00
0.098141313,98,0x87,0x00
0.098143313,98,0x88,0x00
0.098145313,98,0x96,0x00
0.098147313,98,0x80,0x20
0.099135375,99,0x80,0x03
0.099137375,99,0x85,0x88
0.099139375,99,0x86,0x00
0.099141375,99,0x87,0x00
0.099143375,99,0x88,0x00
0.099145375,99,0x96,0x00
0.099147375,99,0x80,0x20
0.100135500,100,0x80,0x03
0.100137500,100,0x85,0x88
0.100139500,100,0x86,0x00
0.100141500,100,0x87,0x00
0.100143500,100,0x88,0x00
0.100145500,100,0x96,0x00
0.100147500,100,0x80,0x20
0.101135625,101,0x80,0x03
0.101137625,101,0x85,0x88
0.101139625,101,0x86,0x00
0.101141625,101,0x87,0x00
0.101143625,101,0x88,0x00
0.101145625,101,0x96,0x00
0.101147625,101,0x80,0x20
0.102135750,102,0x80,0x03
0.102137750,102,0x85,0x88
0.102139750,102,0x86,0x00
0.102141750,102,0x87,0x00
0.102143750,102,0x88,0x00
0.102145750,102,0x96,0x00
0.102147750,102,0x80,0x20
0.103135813,103,0x80,0x03
0.103137813,103,0x85,0x88
0.103139813,103,0x86,0x00
0.103141813,103,0x87,0x00
0.103143813,103,0x88,0x00
0.103145813,103,0x96,0x00
0.103147813,103,0x80,0x20
0.104135938,104,0x80,0x03
0.104137938,104,0x85,0x88
0.104139938,104,0x86,0x00
0.104141938,104,0x87,0x00
0.104143938,104,0x88,0x00
0.104145938,104,0x96,0x00
0.104147938,104,0x80,0x20
0.105136063,105,0x80,0x03
0.105138063,105,0x85,0x88
0.105140063,105,0x86,0x00
0.105142063,105,0x87,0x00
0.105144063,105,0x88,0x00
0.105146063,105,0x96,0x00
0.105148063,105,0x80,0x20
0.106136188,106,0x80,0x03
0.106138188,106,0x85,0x88
0.106140188,106,0x86,0x00
0.106142188,106,0x87,0x00
0.106144188,106,0x88,0x00
0.106146188,106,0x96,0x00
0.106148188,106,0x80,0x20
0.107136313,107,0x80,0x03
0.107138313,107,0x85,0x88
0.107140313,107,0x86,0x00
0.107142313,107,0x87,0x00
0.107144313,107,0x88,0x00
0.107146313,107,0x96,0x00
0.107148313,107,0x80,0x20
0.108136375,108,0x80,0x03
0.108138375,108,0x85,0x88
0.108140375,108,0x86,0x00
0.108142375,108,0x87,0x00
0.108144375,108,0x88,0x00
0.108146375,108,0x96,0x00
0.108148375,108,0x80,0x20
0.109136500,109,0x80,0x03
0.109138500,109,0x85,0x88
0.109140500,109,0x86,0x00
0.109142500,109,0x87,0x00
0.109144500,109,0x88,0x00
