Time[s], Channel 0, Channel 1, Channel 2, Channel 3
-0.00018324, 1, 0, 0, 1
-0.00001836, 1, 0, 0, 0
-0.00001576, 0, 0, 0, 0
-0.00001574, 0, 0, 1, 0
-0.00001564, 1, 0, 1, 0
-0.00001552, 0, 0, 1, 0
-0.00001550, 0, 0, 0, 0
-0.00001540, 1, 0, 0, 0
-0.00001526, 0, 0, 0, 0
-0.00001514, 1, 0, 0, 0
-0.00001502, 0, 0, 0, 0
-0.00001490, 1, 0, 0, 0
-0.00001476, 0, 0, 0, 0
-0.00001464, 1, 0, 0, 0
-0.00001452, 0, 0, 0, 0
-0.00001440, 1, 0, 0, 0
-0.00001426, 0, 1, 0, 0
-0.00001414, 1, 1, 0, 0
-0.00001402, 0, 1, 0, 0
-0.00001390, 1, 1, 0, 0
-0.00001376, 0, 1, 0, 0
-0.00001374, 0, 1, 1, 0
-0.00001364, 1, 1, 1, 0
-0.00001352, 0, 1, 1, 0
-0.00001350, 0, 0, 0, 0
-0.00001340, 1, 0, 0, 0
-0.00001326, 0, 0, 0, 0
-0.00001314, 1, 0, 0, 0
-0.00001302, 0, 0, 0, 0
-0.00001290, 1, 0, 0, 0
-0.00001276, 0, 1, 0, 0
-0.00001264, 1, 1, 0, 0
-0.00001252, 0, 1, 0, 0
-0.00001250, 0, 0, 1, 0
-0.00001240, 1, 0, 1, 0
-0.00001226, 0, 0, 1, 0
-0.00001224, 0, 0, 0, 0
-0.00001214, 1, 0, 0, 0
-0.00001202, 0, 0, 0, 0
-0.00001200, 0, 0, 1, 0
-0.00001190, 1, 0, 1, 0
-0.00001176, 0, 0, 1, 0
-0.00001164, 1, 0, 1, 0
-0.00001152, 0, 0, 1, 0
-0.00001150, 0, 0, 0, 0
-0.00001140, 1, 0, 0, 0
-0.00001126, 0, 0, 0, 0
-0.00001114, 1, 0, 0, 0
-0.00001102, 0, 0, 0, 0
-0.00001090, 1, 0, 0, 0
-0.00001076, 0, 0, 0, 0
-0.00001064, 1, 0, 0, 0
-0.00001052, 0, 0, 0, 0
-0.00001050, 0, 0, 1, 0
-0.00001040, 1, 0, 1, 0
-0.00001026, 0, 0, 1, 0
-0.00001014, 1, 0, 1, 0
-0.00001002, 0, 0, 1, 0
-0.00001000, 0, 0, 0, 0
-0.00000990, 1, 0, 0, 0
-0.00000976, 0, 0, 0, 0
-0.00000974, 0, 0, 1, 0
-0.00000964, 1, 0, 1, 0
-0.00000952, 0, 0, 1, 0
-0.00000950, 0, 0, 0, 0
-0.00000940, 1, 0, 0, 0
-0.00000926, 0, 0, 0, 0
-0.00000914, 1, 0, 0, 0
-0.00000902, 0, 0, 0, 0
-0.00000890, 1, 0, 0, 0
-0.00000876, 0, 0, 0, 0
-0.00000864, 1, 0, 0, 0
-0.00000852, 0, 0, 0, 0
-0.00000850, 0, 0, 1, 0
-0.00000840, 1, 0, 1, 0
-0.00000826, 0, 0, 1, 0
-0.00000814, 1, 0, 1, 0
-0.00000802, 0, 0, 1, 0
-0.00000790, 1, 0, 1, 0
-0.00000776, 0, 0, 1, 0
-0.00000764, 1, 0, 1, 0
-0.00000752, 0, 0, 1, 0
-0.00000750, 0, 0, 0, 0
-0.00000740, 1, 0, 0, 0
-0.00000726, 0, 0, 0, 0
-0.00000714, 1, 0, 0, 0
-0.00000702, 0, 0, 0, 0
-0.00000690, 1, 0, 0, 0
-0.00000676, 0, 0, 0, 0
-0.00000674, 0, 0, 1, 0
-0.00000664, 1, 0, 1, 0
-0.00000652, 0, 0, 1, 0
-0.00000650, 0, 0, 0, 0
-0.00000640, 1, 0, 0, 0
-0.00000626, 0, 0, 0, 0
-0.00000614, 1, 0, 0, 0
-0.00000602, 0, 0, 0, 0
-0.00000590, 1, 0, 0, 0
-0.00000576, 0, 0, 0, 0
-0.00000574, 0, 0, 1, 0
-0.00000564, 1, 0, 1, 0
-0.00000552, 0, 0, 1, 0
-0.00000550, 0, 0, 0, 0
-0.00000540, 1, 0, 0, 0
-0.00000526, 0, 0, 0, 0
-0.00000514, 1, 0, 0, 0
-0.00000502, 0, 0, 0, 0
-0.00000500, 0, 0, 1, 0
-0.00000490, 1, 0, 1, 0
-0.00000476, 0, 0, 1, 0
-0.00000474, 0, 0, 0, 0
-0.00000464, 1, 0, 0, 0
-0.00000452, 0, 0, 0, 0
-0.00000450, 0, 0, 1, 0
-0.00000440, 1, 0, 1, 0
-0.00000426, 0, 0, 1, 0
-0.00000414, 1, 0, 1, 0
-0.00000402, 0, 0, 1, 0
-0.00000400, 0, 0, 0, 0
-0.00000390, 1, 0, 0, 0
-0.00000376, 0, 0, 0, 0
-0.00000374, 0, 0, 1, 0
-0.00000364, 1, 0, 1, 0
-0.00000352, 0, 0, 1, 0
-0.00000350, 0, 0, 0, 0
-0.00000340, 1, 0, 0, 0
-0.00000326, 0, 1, 0, 0
-0.00000314, 1, 1, 0, 0
-0.00000302, 0, 1, 0, 0
-0.00000300, 0, 0, 0, 0
-0.00000290, 1, 0, 0, 0
-0.00000276, 0, 0, 0, 0
-0.00000264, 1, 0, 0, 0
-0.00000252, 0, 0, 0, 0
-0.00000240, 1, 0, 0, 0
-0.00000226, 0, 0, 0, 0
-0.00000214, 1, 0, 0, 0
-0.00000202, 0, 0, 0, 0
-0.00000190, 1, 0, 0, 0
0.00000000, 1, 0, 0, 1
0.00098174, 1, 0, 0, 0
0.00098434, 0, 0, 0, 0
0.00098436, 0, 0, 1, 0
0.00098446, 1, 0, 1, 0
0.00098460, 0, 0, 1, 0
0.00098462, 0, 0, 0, 0
0.00098472, 1, 0, 0, 0
0.00098484, 0, 0, 0, 0
0.00098496, 1, 0, 0, 0
0.00098510, 0, 0, 0, 0
0.00098522, 1, 0, 0, 0
0.00098534, 0, 0, 0, 0
0.00098546, 1, 0, 0, 0
0.00098560, 0, 0, 0, 0
0.00098572, 1, 0, 0, 0
0.00098584, 0, 0, 0, 0
0.00098586, 0, 1, 0, 0
0.00098596, 1, 1, 0, 0
0.00098610, 0, 1, 0, 0
0.00098622, 1, 1, 0, 0
0.00098634, 0, 1, 0, 0
0.00098636, 0, 1, 1, 0
0.00098646, 1, 1, 1, 0
0.00098660, 0, 0, 1, 0
0.00098662, 0, 0, 0, 0
0.00098672, 1, 0, 0, 0
0.00098684, 0, 0, 0, 0
0.00098696, 1, 0, 0, 0
0.00098710, 0, 0, 0, 0
0.00098722, 1, 0, 0, 0
0.00098734, 0, 0, 0, 0
0.00098736, 0, 1, 0, 0
0.00098746, 1, 1, 0, 0
0.00098760, 0, 0, 0, 0
0.00098762, 0, 0, 1, 0
0.00098772, 1, 0, 1, 0
0.00098784, 0, 0, 1, 0
0.00098786, 0, 0, 0, 0
0.00098796, 1, 0, 0, 0
0.00098810, 0, 0, 0, 0
0.00098812, 0, 0, 1, 0
0.00098822, 1, 0, 1, 0
0.00098834, 0, 0, 1, 0
0.00098846, 1, 0, 1, 0
0.00098860, 0, 0, 1, 0
0.00098862, 0, 0, 0, 0
0.00098872, 1, 0, 0, 0
0.00098884, 0, 0, 0, 0
0.00098896, 1, 0, 0, 0
0.00098910, 0, 0, 0, 0
0.00098922, 1, 0, 0, 0
0.00098934, 0, 0, 0, 0
0.00098946, 1, 0, 0, 0
0.00098960, 0, 0, 0, 0
0.00098962, 0, 0, 1, 0
0.00098972, 1, 0, 1, 0
0.00098984, 0, 0, 1, 0
0.00098996, 1, 0, 1, 0
0.00099010, 0, 0, 1, 0
0.00099012, 0, 0, 0, 0
0.00099022, 1, 0, 0, 0
0.00099034, 0, 0, 0, 0
0.00099036, 0, 0, 1, 0
0.00099046, 1, 0, 1, 0
0.00099060, 0, 0, 1, 0
0.00099062, 0, 0, 0, 0
0.00099072, 1, 0, 0, 0
0.00099084, 0, 0, 0, 0
0.00099096, 1, 0, 0, 0
0.00099110, 0, 0, 0, 0
0.00099122, 1, 0, 0, 0
0.00099134, 0, 0, 0, 0
0.00099146, 1, 0, 0, 0
0.00099160, 0, 0, 0, 0
0.00099162, 0, 0, 1, 0
0.00099172, 1, 0, 1, 0
0.00099184, 0, 0, 1, 0
0.00099196, 1, 0, 1, 0
0.00099210, 0, 0, 1, 0
0.00099222, 1, 0, 1, 0
0.00099234, 0, 0, 1, 0
0.00099246, 1, 0, 1, 0
0.00099260, 0, 0, 1, 0
0.00099262, 0, 0, 0, 0
0.00099272, 1, 0, 0, 0
0.00099284, 0, 0, 0, 0
0.00099296, 1, 0, 0, 0
0.00099310, 0, 0, 0, 0
0.00099322, 1, 0, 0, 0
0.00099334, 0, 0, 0, 0
0.00099336, 0, 0, 1, 0
0.00099346, 1, 0, 1, 0
0.00099360, 0, 0, 1, 0
0.00099362, 0, 0, 0, 0
0.00099372, 1, 0, 0, 0
0.00099384, 0, 0, 0, 0
0.00099396, 1, 0, 0, 0
0.00099410, 0, 0, 0, 0
0.00099422, 1, 0, 0, 0
0.00099434, 0, 0, 0, 0
0.00099438, 0, 0, 1, 0
0.00099446, 1, 0, 1, 0
0.00099460, 0, 0, 1, 0
0.00099462, 0, 0, 0, 0
0.00099472, 1, 0, 0, 0
0.00099484, 0, 0, 0, 0
0.00099496, 1, 0, 0, 0
0.00099510, 0, 0, 0, 0
0.00099512, 0, 0, 1, 0
0.00099522, 1, 0, 1, 0
0.00099534, 0, 0, 1, 0
0.00099536, 0, 0, 0, 0
0.00099546, 1, 0, 0, 0
0.00099560, 0, 0, 0, 0
0.00099562, 0, 0, 1, 0
0.00099572, 1, 0, 1, 0
0.00099584, 0, 0, 1, 0
0.00099596, 1, 0, 1, 0
0.00099610, 0, 0, 1, 0
0.00099612, 0, 0, 0, 0
0.00099622, 1, 0, 0, 0
0.00099634, 0, 0, 0, 0
0.00099638, 0, 0, 1, 0
0.00099646, 1, 0, 1, 0
0.00099660, 0, 0, 1, 0
0.00099662, 0, 0, 0, 0
0.00099672, 1, 0, 0, 0
0.00099684, 0, 0, 0, 0
0.00099686, 0, 1, 0, 0
0.00099696, 1, 1, 0, 0
0.00099710, 0, 0, 0, 0
0.00099722, 1, 0, 0, 0
0.00099734, 0, 0, 0, 0
0.00099748, 1, 0, 0, 0
0.00099760, 0, 0, 0, 0
0.00099772, 1, 0, 0, 0
0.00099784, 0, 0, 0, 0
0.00099798, 1, 0, 0, 0
0.00099810, 0, 0, 0, 0
0.00099822, 1, 0, 0, 0
0.00100010, 1, 0, 0, 1
0.00198186, 1, 0, 0, 0
0.00198446, 0, 0, 0, 0
0.00198448, 0, 0, 1, 0
0.00198458, 1, 0, 1, 0
0.00198470, 0, 0, 1, 0
0.00198472, 0, 0, 0, 0
0.00198482, 1, 0, 0, 0
0.00198496, 0, 0, 0, 0
0.00198508, 1, 0, 0, 0
0.00198520, 0, 0, 0, 0
0.00198532, 1, 0, 0, 0
0.00198546, 0, 0, 0, 0
0.00198558, 1, 0, 0, 0
0.00198570, 0, 0, 0, 0
0.00198582, 1, 0, 0, 0
0.00198596, 0, 1, 0, 0
0.00198608, 1, 1, 0, 0
0.00198620, 0, 1, 0, 0
0.00198632, 1, 1, 0, 0
0.00198646, 0, 1, 0, 0
0.00198648, 0, 1, 1, 0
0.00198658, 1, 1, 1, 0
0.00198670, 0, 1, 1, 0
0.00198672, 0, 0, 0, 0
0.00198682, 1, 0, 0, 0
0.00198696, 0, 0, 0, 0
0.00198708, 1, 0, 0, 0
0.00198720, 0, 0, 0, 0
0.00198732, 1, 0, 0, 0
0.00198746, 0, 1, 0, 0
0.00198758, 1, 1, 0, 0
0.00198770, 0, 1, 0, 0
0.00198772, 0, 0, 1, 0
0.00198782, 1, 0, 1, 0
0.00198796, 0, 0, 1, 0
0.00198798, 0, 0, 0, 0
0.00198808, 1, 0, 0, 0
0.00198820, 0, 0, 0, 0
0.00198822, 0, 0, 1, 0
0.00198832, 1, 0, 1, 0
0.00198846, 0, 0, 1, 0
0.00198858, 1, 0, 1, 0
0.00198870, 0, 0, 1, 0
0.00198872, 0, 0, 0, 0
0.00198882, 1, 0, 0, 0
0.00198896, 0, 0, 0, 0
0.00198908, 1, 0, 0, 0
0.00198920, 0, 0, 0, 0
0.00198932, 1, 0, 0, 0
0.00198946, 0, 0, 0, 0
0.00198958, 1, 0, 0, 0
0.00198970, 0, 0, 0, 0
0.00198972, 0, 0, 1, 0
0.00198982, 1, 0, 1, 0
0.00198996, 0, 0, 1, 0
0.00199008, 1, 0, 1, 0
0.00199020, 0, 0, 1, 0
0.00199022, 0, 0, 0, 0
0.00199032, 1, 0, 0, 0
0.00199046, 0, 0, 0, 0
0.00199048, 0, 0, 1, 0
0.00199058, 1, 0, 1, 0
0.00199070, 0, 0, 1, 0
0.00199074, 0, 0, 0, 0
0.00199082, 1, 0, 0, 0
0.00199096, 0, 0, 0, 0
0.00199108, 1, 0, 0, 0
0.00199120, 0, 0, 0, 0
0.00199132, 1, 0, 0, 0
0.00199146, 0, 0, 0, 0
0.00199158, 1, 0, 0, 0
0.00199170, 0, 0, 0, 0
0.00199174, 0, 0, 1, 0
0.00199182, 1, 0, 1, 0
0.00199196, 0, 0, 1, 0
0.00199208, 1, 0, 1, 0
0.00199220, 0, 0, 1, 0
0.00199232, 1, 0, 1, 0
0.00199246, 0, 0, 1, 0
0.00199258, 1, 0, 1, 0
0.00199270, 0, 0, 1, 0
0.00199272, 0, 0, 0, 0
0.00199282, 1, 0, 0, 0
0.00199296, 0, 0, 0, 0
0.00199308, 1, 0, 0, 0
0.00199320, 0, 0, 0, 0
0.00199332, 1, 0, 0, 0
0.00199346, 0, 0, 0, 0
0.00199348, 0, 0, 1, 0
0.00199358, 1, 0, 1, 0
0.00199370, 0, 0, 1, 0
0.00199374, 0, 0, 0, 0
0.00199382, 1, 0, 0, 0
0.00199396, 0, 0, 0, 0
0.00199408, 1, 0, 0, 0
0.00199420, 0, 0, 0, 0
0.00199434, 1, 0, 0, 0
0.00199446, 0, 0, 0, 0
0.00199448, 0, 0, 1, 0
0.00199458, 1, 0, 1, 0
0.00199470, 0, 0, 1, 0
0.00199474, 0, 0, 0, 0
0.00199484, 1, 0, 0, 0
0.00199496, 0, 0, 0, 0
0.00199508, 1, 0, 0, 0
0.00199520, 0, 0, 0, 0
0.00199524, 0, 0, 1, 0
0.00199534, 1, 0, 1, 0
0.00199546, 0, 0, 1, 0
0.00199548, 0, 0, 0, 0
0.00199558, 1, 0, 0, 0
0.00199570, 0, 0, 0, 0
0.00199574, 0, 0, 1, 0
0.00199584, 1, 0, 1, 0
0.00199596, 0, 0, 1, 0
0.00199608, 1, 0, 1, 0
0.00199620, 0, 0, 1, 0
0.00199624, 0, 0, 0, 0
0.00199634, 1, 0, 0, 0
0.00199646, 0, 0, 0, 0
0.00199648, 0, 0, 1, 0
0.00199658, 1, 0, 1, 0
0.00199670, 0, 0, 1, 0
0.00199674, 0, 0, 0, 0
0.00199684, 1, 0, 0, 0
0.00199696, 0, 0, 0, 0
0.00199698, 0, 1, 0, 0
0.00199708, 1, 1, 0, 0
0.00199720, 0, 1, 0, 0
0.00199722, 0, 0, 0, 0
0.00199734, 1, 0, 0, 0
0.00199746, 0, 0, 0, 0
0.00199758, 1, 0, 0, 0
0.00199770, 0, 0, 0, 0
0.00199784, 1, 0, 0, 0
0.00199796, 0, 0, 0, 0
0.00199808, 1, 0, 0, 0
0.00199820, 0, 0, 0, 0
0.00199834, 1, 0, 0, 0
0.00200022, 1, 0, 0, 1
0.00298196, 1, 0, 0, 0
0.00298456, 0, 0, 0, 0
0.00298458, 0, 0, 1, 0
0.00298468, 1, 0, 1, 0
0.00298482, 0, 0, 1, 0
0.00298484, 0, 0, 0, 0
0.00298494, 1, 0, 0, 0
0.00298506, 0, 0, 0, 0
0.00298518, 1, 0, 0, 0
0.00298532, 0, 0, 0, 0
0.00298544, 1, 0, 0, 0
0.00298556, 0, 0, 0, 0
0.00298568, 1, 0, 0, 0
0.00298582, 0, 0, 0, 0
0.00298594, 1, 0, 0, 0
0.00298606, 0, 0, 0, 0
0.00298608, 0, 1, 0, 0
0.00298618, 1, 1, 0, 0
0.00298632, 0, 1, 0, 0
0.00298644, 1, 1, 0, 0
0.00298656, 0, 1, 0, 0
0.00298658, 0, 1, 1, 0
0.00298668, 1, 1, 1, 0
0.00298682, 0, 0, 1, 0
0.00298684, 0, 0, 0, 0
0.00298694, 1, 0, 0, 0
0.00298706, 0, 0, 0, 0
0.00298718, 1, 0, 0, 0
0.00298732, 0, 0, 0, 0
0.00298744, 1, 0, 0, 0
0.00298756, 0, 0, 0, 0
0.00298758, 0, 1, 0, 0
0.00298768, 1, 1, 0, 0
0.00298782, 0, 0, 0, 0
0.00298784, 0, 0, 1, 0
0.00298794, 1, 0, 1, 0
0.00298806, 0, 0, 1, 0
0.00298810, 0, 0, 0, 0
0.00298818, 1, 0, 0, 0
0.00298832, 0, 0, 0, 0
0.00298834, 0, 0, 1, 0
0.00298844, 1, 0, 1, 0
0.00298856, 0, 0, 1, 0
0.00298868, 1, 0, 1, 0
0.00298882, 0, 0, 1, 0
0.00298884, 0, 0, 0, 0
0.00298894, 1, 0, 0, 0
0.00298906, 0, 0, 0, 0
0.00298918, 1, 0, 0, 0
0.00298932, 0, 0, 0, 0
0.00298944, 1, 0, 0, 0
0.00298956, 0, 0, 0, 0
0.00298968, 1, 0, 0, 0
0.00298982, 0, 0, 0, 0
0.00298984, 0, 0, 1, 0
0.00298994, 1, 0, 1, 0
0.00299006, 0, 0, 1, 0
0.00299018, 1, 0, 1, 0
0.00299032, 0, 0, 1, 0
0.00299034, 0, 0, 0, 0
0.00299044, 1, 0, 0, 0
0.00299056, 0, 0, 0, 0
0.00299060, 0, 0, 1, 0
0.00299070, 1, 0, 1, 0
0.00299082, 0, 0, 1, 0
0.00299084, 0, 0, 0, 0
0.00299094, 1, 0, 0, 0
0.00299106, 0, 0, 0, 0
0.00299118, 1, 0, 0, 0
0.00299132, 0, 0, 0, 0
0.00299144, 1, 0, 0, 0
0.00299156, 0, 0, 0, 0
0.00299168, 1, 0, 0, 0
0.00299182, 0, 0, 0, 0
0.00299184, 0, 0, 1, 0
0.00299194, 1, 0, 1, 0
0.00299206, 0, 0, 1, 0
0.00299220, 1, 0, 1, 0
0.00299232, 0, 0, 1, 0
0.00299244, 1, 0, 1, 0
0.00299256, 0, 0, 1, 0
0.00299270, 1, 0, 1, 0
0.00299282, 0, 0, 1, 0
0.00299284, 0, 0, 0, 0
0.00299294, 1, 0, 0, 0
0.00299306, 0, 0, 0, 0
0.00299320, 1, 0, 0, 0
0.00299332, 0, 0, 0, 0
0.00299344, 1, 0, 0, 0
0.00299356, 0, 0, 0, 0
0.00299360, 0, 0, 1, 0
0.00299370, 1, 0, 1, 0
0.00299382, 0, 0, 1, 0
0.00299384, 0, 0, 0, 0
0.00299394, 1, 0, 0, 0
0.00299406, 0, 0, 0, 0
0.00299420, 1, 0, 0, 0
0.00299432, 0, 0, 0, 0
0.00299444, 1, 0, 0, 0
0.00299456, 0, 0, 0, 0
0.00299460, 0, 0, 1, 0
0.00299470, 1, 0, 1, 0
0.00299482, 0, 0, 1, 0
0.00299484, 0, 0, 0, 0
0.00299494, 1, 0, 0, 0
0.00299506, 0, 0, 0, 0
0.00299520, 1, 0, 0, 0
0.00299532, 0, 0, 0, 0
0.00299534, 0, 0, 1, 0
0.00299544, 1, 0, 1, 0
0.00299556, 0, 0, 1, 0
0.00299560, 0, 0, 0, 0
0.00299570, 1, 0, 0, 0
0.00299582, 0, 0, 0, 0
0.00299584, 0, 0, 1, 0
0.00299594, 1, 0, 1, 0
0.00299606, 0, 0, 1, 0
0.00299620, 1, 0, 1, 0
0.00299632, 0, 0, 1, 0
0.00299634, 0, 0, 0, 0
0.00299644, 1, 0, 0, 0
0.00299656, 0, 0, 0, 0
0.00299660, 0, 0, 1, 0
0.00299670, 1, 0, 1, 0
0.00299682, 0, 0, 1, 0
0.00299684, 0, 0, 0, 0
0.00299694, 1, 0, 0, 0
0.00299706, 0, 0, 0, 0
0.00299708, 0, 1, 0, 0
0.00299720, 1, 1, 0, 0
0.00299732, 0, 0, 0, 0
0.00299744, 1, 0, 0, 0
0.00299756, 0, 0, 0, 0
0.00299770, 1, 0, 0, 0
0.00299782, 0, 0, 0, 0
0.00299794, 1, 0, 0, 0
0.00299806, 0, 0, 0, 0
0.00299820, 1, 0, 0, 0
0.00299832, 0, 0, 0, 0
0.00299844, 1, 0, 0, 0
0.00300032, 1, 0, 0, 1
0.00398208, 1, 0, 0, 0
0.00398468, 0, 0, 0, 0
0.00398470, 0, 0, 1, 0
0.00398480, 1, 0, 1, 0
0.00398492, 0, 0, 1, 0
0.00398496, 0, 0, 0, 0
0.00398504, 1, 0, 0, 0
0.00398518, 0, 0, 0, 0
0.00398530, 1, 0, 0, 0
0.00398542, 0, 0, 0, 0
0.00398554, 1, 0, 0, 0
0.00398568, 0, 0, 0, 0
0.00398580, 1, 0, 0, 0
0.00398592, 0, 0, 0, 0
0.00398604, 1, 0, 0, 0
0.00398618, 0, 1, 0, 0
0.00398630, 1, 1, 0, 0
0.00398642, 0, 1, 0, 0
0.00398654, 1, 1, 0, 0
0.00398668, 0, 1, 0, 0
0.00398670, 0, 1, 1, 0
0.00398680, 1, 1, 1, 0
0.00398692, 0, 1, 1, 0
0.00398694, 0, 0, 0, 0
0.00398704, 1, 0, 0, 0
0.00398718, 0, 0, 0, 0
0.00398730, 1, 0, 0, 0
0.00398742, 0, 0, 0, 0
0.00398756, 1, 0, 0, 0
0.00398768, 0, 0, 0, 0
0.00398770, 0, 1, 0, 0
0.00398780, 1, 1, 0, 0
0.00398792, 0, 1, 0, 0
0.00398794, 0, 0, 0, 0
0.00398796, 0, 0, 1, 0
0.00398806, 1, 0, 1, 0
0.00398818, 0, 0, 1, 0
0.00398820, 0, 0, 0, 0
0.00398830, 1, 0, 0, 0
0.00398842, 0, 0, 0, 0
0.00398844, 0, 0, 1, 0
0.00398854, 1, 0, 1, 0
0.00398868, 0, 0, 1, 0
0.00398880, 1, 0, 1, 0
0.00398892, 0, 0, 1, 0
0.00398896, 0, 0, 0, 0
0.00398906, 1, 0, 0, 0
0.00398918, 0, 0, 0, 0
0.00398930, 1, 0, 0, 0
0.00398942, 0, 0, 0, 0
0.00398956, 1, 0, 0, 0
0.00398968, 0, 0, 0, 0
0.00398980, 1, 0, 0, 0
0.00398992, 0, 0, 0, 0
0.00398996, 0, 0, 1, 0
0.00399006, 1, 0, 1, 0
0.00399018, 0, 0, 1, 0
0.00399030, 1, 0, 1, 0
0.00399042, 0, 0, 1, 0
0.00399046, 0, 0, 0, 0
0.00399056, 1, 0, 0, 0
0.00399068, 0, 0, 0, 0
0.00399070, 0, 0, 1, 0
0.00399080, 1, 0, 1, 0
0.00399092, 0, 0, 1, 0
0.00399096, 0, 0, 0, 0
0.00399106, 1, 0, 0, 0
0.00399118, 0, 0, 0, 0
0.00399130, 1, 0, 0, 0
0.00399142, 0, 0, 0, 0
0.00399156, 1, 0, 0, 0
0.00399168, 0, 0, 0, 0
0.00399180, 1, 0, 0, 0
0.00399192, 0, 0, 0, 0
0.00399196, 0, 0, 1, 0
0.00399206, 1, 0, 1, 0
0.00399218, 0, 0, 1, 0
0.00399230, 1, 0, 1, 0
0.00399242, 0, 0, 1, 0
0.00399256, 1, 0, 1, 0
0.00399268, 0, 0, 1, 0
0.00399280, 1, 0, 1, 0
0.00399292, 0, 0, 1, 0
0.00399296, 0, 0, 0, 0
0.00399306, 1, 0, 0, 0
0.00399318, 0, 0, 0, 0
0.00399330, 1, 0, 0, 0
0.00399342, 0, 0, 0, 0
0.00399356, 1, 0, 0, 0
0.00399368, 0, 0, 0, 0
0.00399370, 0, 0, 1, 0
0.00399380, 1, 0, 1, 0
0.00399392, 0, 0, 1, 0
0.00399396, 0, 0, 0, 0
0.00399406, 1, 0, 0, 0
0.00399418, 0, 0, 0, 0
0.00399430, 1, 0, 0, 0
0.00399442, 0, 0, 0, 0
0.00399456, 1, 0, 0, 0
0.00399468, 0, 0, 0, 0
0.00399470, 0, 0, 1, 0
0.00399480, 1, 0, 1, 0
0.00399492, 0, 0, 1, 0
0.00399496, 0, 0, 0, 0
0.00399506, 1, 0, 0, 0
0.00399518, 0, 0, 0, 0
0.00399530, 1, 0, 0, 0
0.00399542, 0, 0, 0, 0
0.00399546, 0, 0, 1, 0
0.00399556, 1, 0, 1, 0
0.00399568, 0, 0, 1, 0
0.00399570, 0, 0, 0, 0
0.00399580, 1, 0, 0, 0
0.00399592, 0, 0, 0, 0
0.00399596, 0, 0, 1, 0
0.00399606, 1, 0, 1, 0
0.00399618, 0, 0, 1, 0
0.00399630, 1, 0, 1, 0
0.00399642, 0, 0, 1, 0
0.00399646, 0, 0, 0, 0
0.00399656, 1, 0, 0, 0
0.00399668, 0, 0, 0, 0
0.00399670, 0, 0, 1, 0
0.00399680, 1, 0, 1, 0
0.00399692, 0, 0, 1, 0
0.00399696, 0, 0, 0, 0
0.00399706, 1, 0, 0, 0
0.00399718, 0, 0, 0, 0
0.00399720, 0, 1, 0, 0
0.00399730, 1, 1, 0, 0
0.00399742, 0, 1, 0, 0
0.00399744, 0, 0, 0, 0
0.00399756, 1, 0, 0, 0
0.00399768, 0, 0, 0, 0
0.00399780, 1, 0, 0, 0
0.00399792, 0, 0, 0, 0
0.00399806, 1, 0, 0, 0
0.00399818, 0, 0, 0, 0
0.00399830, 1, 0, 0, 0
0.00399842, 0, 0, 0, 0
0.00399856, 1, 0, 0, 0
0.00400044, 1, 0, 0, 1
0.00498218, 1, 0, 0, 0
0.00498478, 0, 0, 0, 0
0.00498482, 0, 0, 1, 0
0.00498492, 1, 0, 1, 0
0.00498504, 0, 0, 1, 0
0.00498506, 0, 0, 0, 0
0.00498516, 1, 0, 0, 0
0.00498528, 0, 0, 0, 0
0.00498542, 1, 0, 0, 0
0.00498554, 0, 0, 0, 0
0.00498566, 1, 0, 0, 0
0.00498578, 0, 0, 0, 0
0.00498592, 1, 0, 0, 0
0.00498604, 0, 0, 0, 0
0.00498616, 1, 0, 0, 0
0.00498628, 0, 0, 0, 0
0.00498630, 0, 1, 0, 0
0.00498642, 1, 1, 0, 0
0.00498654, 0, 1, 0, 0
0.00498666, 1, 1, 0, 0
0.00498678, 0, 1, 0, 0
0.00498682, 0, 1, 1, 0
0.00498692, 1, 1, 1, 0
0.00498704, 0, 0, 1, 0
0.00498706, 0, 0, 0, 0
0.00498716, 1, 0, 0, 0
0.00498728, 0, 0, 0, 0
0.00498742, 1, 0, 0, 0
0.00498754, 0, 0, 0, 0
0.00498766, 1, 0, 0, 0
0.00498778, 0, 0, 0, 0
0.00498780, 0, 1, 0, 0
0.00498792, 1, 1, 0, 0
0.00498804, 0, 0, 0, 0
0.00498806, 0, 0, 1, 0
0.00498816, 1, 0, 1, 0
0.00498828, 0, 0, 1, 0
0.00498832, 0, 0, 0, 0
0.00498842, 1, 0, 0, 0
0.00498854, 0, 0, 0, 0
0.00498856, 0, 0, 1, 0
0.00498866, 1, 0, 1, 0
0.00498878, 0, 0, 1, 0
0.00498892, 1, 0, 1, 0
0.00498904, 0, 0, 1, 0
0.00498906, 0, 0, 0, 0
0.00498916, 1, 0, 0, 0
0.00498928, 0, 0, 0, 0
0.00498942, 1, 0, 0, 0
0.00498954, 0, 0, 0, 0
0.00498966, 1, 0, 0, 0
0.00498978, 0, 0, 0, 0
0.00498992, 1, 0, 0, 0
0.00499004, 0, 0, 0, 0
0.00499006, 0, 0, 1, 0
0.00499016, 1, 0, 1, 0
0.00499028, 0, 0, 1, 0
0.00499042, 1, 0, 1, 0
0.00499054, 0, 0, 1, 0
0.00499056, 0, 0, 0, 0
0.00499066, 1, 0, 0, 0
0.00499078, 0, 0, 0, 0
0.00499082, 0, 0, 1, 0
0.00499092, 1, 0, 1, 0
0.00499104, 0, 0, 1, 0
0.00499106, 0, 0, 0, 0
0.00499116, 1, 0, 0, 0
0.00499128, 0, 0, 0, 0
0.00499142, 1, 0, 0, 0
0.00499154, 0, 0, 0, 0
0.00499166, 1, 0, 0, 0
0.00499178, 0, 0, 0, 0
0.00499192, 1, 0, 0, 0
0.00499204, 0, 0, 0, 0
0.00499206, 0, 0, 1, 0
0.00499216, 1, 0, 1, 0
0.00499228, 0, 0, 1, 0
0.00499242, 1, 0, 1, 0
0.00499254, 0, 0, 1, 0
0.00499266, 1, 0, 1, 0
0.00499278, 0, 0, 1, 0
0.00499292, 1, 0, 1, 0
0.00499304, 0, 0, 1, 0
0.00499306, 0, 0, 0, 0
0.00499316, 1, 0, 0, 0
0.00499328, 0, 0, 0, 0
0.00499342, 1, 0, 0, 0
0.00499354, 0, 0, 0, 0
0.00499366, 1, 0, 0, 0
0.00499378, 0, 0, 0, 0
0.00499382, 0, 0, 1, 0
0.00499392, 1, 0, 1, 0
0.00499404, 0, 0, 1, 0
0.00499406, 0, 0, 0, 0
0.00499416, 1, 0, 0, 0
0.00499428, 0, 0, 0, 0
0.00499442, 1, 0, 0, 0
0.00499454, 0, 0, 0, 0
0.00499466, 1, 0, 0, 0
0.00499478, 0, 0, 0, 0
0.00499482, 0, 0, 1, 0
0.00499492, 1, 0, 1, 0
0.00499504, 0, 0, 1, 0
0.00499506, 0, 0, 0, 0
0.00499516, 1, 0, 0, 0
0.00499528, 0, 0, 0, 0
0.00499542, 1, 0, 0, 0
0.00499554, 0, 0, 0, 0
0.00499556, 0, 0, 1, 0
0.00499566, 1, 0, 1, 0
0.00499578, 0, 0, 1, 0
0.00499582, 0, 0, 0, 0
0.00499592, 1, 0, 0, 0
0.00499604, 0, 0, 0, 0
0.00499606, 0, 0, 1, 0
0.00499616, 1, 0, 1, 0
0.00499628, 0, 0, 1, 0
0.00499642, 1, 0, 1, 0
0.00499654, 0, 0, 1, 0
0.00499656, 0, 0, 0, 0
0.00499666, 1, 0, 0, 0
