Time[s], Channel 0, Channel 1, Channel 2, Channel 3
0.00000000, 1, 0, 0, 0
0.27282770, 1, 0, 0, 1
0.27282774, 1, 0, 0, 0
0.27283014, 0, 0, 0, 0
0.27283016, 0, 0, 1, 0
0.27283026, 1, 0, 1, 0
0.27283038, 0, 0, 1, 0
0.27283040, 0, 0, 0, 0
0.27283050, 1, 0, 0, 0
0.27283062, 0, 0, 0, 0
0.27283076, 1, 0, 0, 0
0.27283088, 0, 0, 0, 0
0.27283100, 1, 0, 0, 0
0.27283112, 0, 0, 0, 0
0.27283124, 1, 0, 0, 0
0.27283136, 0, 0, 0, 0
0.27283138, 0, 1, 0, 0
0.27283150, 1, 1, 0, 0
0.27283162, 0, 0, 0, 0
0.27283164, 0, 0, 1, 0
0.27283174, 1, 0, 1, 0
0.27283186, 0, 0, 1, 0
0.27283188, 0, 1, 1, 0
0.27283198, 1, 1, 1, 0
0.27283260, 1, 1, 0, 0
0.27283542, 0, 1, 0, 0
0.27283544, 0, 0, 0, 0
0.27283546, 0, 0, 1, 0
0.27283556, 1, 0, 1, 0
0.27283568, 0, 0, 1, 0
0.27283570, 0, 0, 0, 0
0.27283580, 1, 0, 0, 0
0.27283592, 0, 0, 0, 0
0.27283594, 0, 1, 0, 0
0.27283604, 1, 1, 0, 0
0.27283616, 0, 1, 0, 0
0.27283628, 1, 1, 0, 0
0.27283642, 0, 0, 0, 0
0.27283654, 1, 0, 0, 0
0.27283666, 0, 0, 0, 0
0.27283678, 1, 0, 0, 0
0.27283690, 0, 0, 0, 0
0.27283702, 1, 0, 0, 0
0.27283716, 0, 0, 0, 0
0.27283728, 1, 0, 0, 0
0.27283868, 1, 0, 0, 1
0.27283886, 1, 0, 0, 0
0.27284128, 0, 0, 0, 0
0.27284140, 1, 0, 0, 0
0.27284152, 0, 0, 0, 0
0.27284164, 1, 0, 0, 0
0.27284176, 0, 0, 0, 0
0.27284188, 1, 0, 0, 0
0.27284200, 0, 0, 0, 0
0.27284214, 1, 0, 0, 0
0.27284226, 0, 0, 0, 0
0.27284238, 1, 0, 0, 0
0.27284250, 0, 0, 0, 0
0.27284252, 0, 1, 0, 0
0.27284262, 1, 1, 0, 0
0.27284274, 0, 1, 0, 0
0.27284276, 0, 0, 0, 0
0.27284278, 0, 0, 1, 0
0.27284288, 1, 0, 1, 0
0.27284300, 0, 1, 1, 0
0.27284312, 1, 1, 1, 0
0.27284374, 1, 1, 0, 0
0.27284656, 0, 1, 0, 0
0.27284658, 0, 0, 0, 0
0.27284668, 1, 0, 0, 0
0.27284680, 0, 0, 0, 0
0.27284694, 1, 0, 0, 0
0.27284706, 0, 1, 0, 0
0.27284708, 0, 1, 1, 0
0.27284718, 1, 1, 1, 0
0.27284730, 0, 1, 1, 0
0.27284732, 0, 1, 0, 0
0.27284742, 1, 1, 0, 0
0.27284754, 0, 1, 0, 0
0.27284756, 0, 0, 0, 0
0.27284768, 1, 0, 0, 0
0.27284780, 0, 0, 0, 0
0.27284792, 1, 0, 0, 0
0.27284804, 0, 0, 0, 0
0.27284816, 1, 0, 0, 0
0.27284828, 0, 0, 0, 0
0.27284840, 1, 0, 0, 0
0.27284986, 1, 0, 0, 1
0.27285608, 1, 0, 0, 0
0.27285864, 0, 0, 0, 0
0.27285866, 0, 0, 1, 0
0.27285876, 1, 0, 1, 0
0.27285888, 0, 0, 1, 0
0.27285890, 0, 0, 0, 0
0.27285900, 1, 0, 0, 0
0.27285912, 0, 0, 0, 0
0.27285924, 1, 0, 0, 0
0.27285936, 0, 0, 0, 0
0.27285950, 1, 0, 0, 0
0.27285962, 0, 0, 0, 0
0.27285974, 1, 0, 0, 0
0.27285986, 0, 0, 0, 0
0.27285988, 0, 1, 0, 0
0.27285998, 1, 1, 0, 0
0.27286010, 0, 1, 0, 0
0.27286012, 0, 0, 0, 0
0.27286022, 1, 0, 0, 0
0.27286036, 0, 1, 0, 0
0.27286048, 1, 1, 0, 0
0.27286060, 0, 1, 0, 0
0.27286062, 0, 1, 1, 0
0.27286072, 1, 1, 1, 0
0.27286084, 0, 1, 1, 0
0.27286086, 0, 0, 0, 0
0.27286096, 1, 0, 0, 0
0.27286108, 0, 0, 0, 0
0.27286122, 1, 0, 0, 0
0.27286134, 0, 0, 0, 0
0.27286146, 1, 0, 0, 0
0.27286158, 0, 0, 0, 0
0.27286160, 0, 1, 0, 0
0.27286170, 1, 1, 0, 0
0.27286182, 0, 1, 0, 0
0.27286184, 0, 0, 0, 0
0.27286186, 0, 0, 1, 0
0.27286194, 1, 0, 1, 0
0.27286208, 0, 0, 1, 0
0.27286210, 0, 0, 0, 0
0.27286220, 1, 0, 0, 0
0.27286232, 0, 0, 0, 0
0.27286234, 0, 0, 1, 0
0.27286244, 1, 0, 1, 0
0.27286256, 0, 0, 1, 0
0.27286268, 1, 0, 1, 0
0.27286282, 0, 0, 1, 0
0.27286284, 0, 0, 0, 0
0.27286294, 1, 0, 0, 0
0.27286306, 0, 0, 0, 0
0.27286318, 1, 0, 0, 0
0.27286330, 0, 0, 0, 0
0.27286342, 1, 0, 0, 0
0.27286354, 0, 0, 0, 0
0.27286368, 1, 0, 0, 0
0.27286380, 0, 0, 0, 0
0.27286382, 0, 0, 1, 0
0.27286392, 1, 0, 1, 0
0.27286404, 0, 0, 1, 0
0.27286416, 1, 0, 1, 0
0.27286428, 0, 0, 1, 0
0.27286432, 0, 0, 0, 0
0.27286442, 1, 0, 0, 0
0.27286454, 0, 0, 0, 0
0.27286456, 0, 0, 1, 0
0.27286466, 1, 0, 1, 0
0.27286478, 0, 0, 1, 0
0.27286480, 0, 0, 0, 0
0.27286490, 1, 0, 0, 0
0.27286502, 0, 0, 0, 0
0.27286514, 1, 0, 0, 0
0.27286528, 0, 0, 0, 0
0.27286540, 1, 0, 0, 0
0.27286552, 0, 0, 0, 0
0.27286564, 1, 0, 0, 0
0.27286576, 0, 0, 0, 0
0.27286578, 0, 0, 1, 0
0.27286588, 1, 0, 1, 0
0.27286600, 0, 0, 1, 0
0.27286614, 1, 0, 1, 0
0.27286626, 0, 0, 1, 0
0.27286638, 1, 0, 1, 0
0.27286650, 0, 0, 1, 0
0.27286662, 1, 0, 1, 0
0.27286674, 0, 0, 1, 0
0.27286678, 0, 0, 0, 0
0.27286688, 1, 0, 0, 0
0.27286700, 0, 0, 0, 0
0.27286712, 1, 0, 0, 0
0.27286724, 0, 0, 0, 0
0.27286736, 1, 0, 0, 0
0.27286748, 0, 0, 0, 0
0.27286752, 0, 0, 1, 0
0.27286760, 1, 0, 1, 0
0.27286774, 0, 0, 1, 0
0.27286776, 0, 0, 0, 0
0.27286786, 1, 0, 0, 0
0.27286798, 0, 0, 0, 0
0.27286810, 1, 0, 0, 0
0.27286822, 0, 0, 0, 0
0.27286834, 1, 0, 0, 0
0.27286848, 0, 0, 0, 0
0.27286850, 0, 0, 1, 0
0.27286860, 1, 0, 1, 0
0.27286872, 0, 0, 1, 0
0.27286874, 0, 0, 0, 0
0.27286884, 1, 0, 0, 0
0.27286896, 0, 0, 0, 0
0.27286908, 1, 0, 0, 0
0.27286920, 0, 0, 0, 0
0.27286924, 0, 0, 1, 0
0.27286934, 1, 0, 1, 0
0.27286946, 0, 0, 1, 0
0.27286948, 0, 0, 0, 0
0.27286958, 1, 0, 0, 0
0.27286970, 0, 0, 0, 0
0.27286972, 0, 0, 1, 0
0.27286982, 1, 0, 1, 0
0.27286994, 0, 0, 1, 0
0.27287006, 1, 0, 1, 0
0.27287020, 0, 0, 1, 0
0.27287022, 0, 0, 0, 0
0.27287032, 1, 0, 0, 0
0.27287044, 0, 0, 0, 0
0.27287046, 0, 0, 1, 0
0.27287056, 1, 0, 1, 0
0.27287068, 0, 0, 1, 0
0.27287072, 0, 0, 0, 0
0.27287080, 1, 0, 0, 0
0.27287094, 0, 1, 0, 0
0.27287106, 1, 1, 0, 0
0.27287118, 0, 1, 0, 0
0.27287120, 0, 0, 0, 0
0.27287130, 1, 0, 0, 0
0.27287142, 0, 0, 0, 0
0.27287154, 1, 0, 0, 0
0.27287168, 0, 0, 0, 0
0.27287180, 1, 0, 0, 0
0.27287192, 0, 0, 0, 0
0.27287204, 1, 0, 0, 0
0.27287216, 0, 0, 0, 0
0.27287228, 1, 0, 0, 0
0.27287414, 1, 0, 0, 1
0.27389280, 1, 0, 0, 0
0.27389540, 0, 0, 0, 0
0.27389542, 0, 0, 1, 0
0.27389552, 1, 0, 1, 0
0.27389564, 0, 0, 1, 0
0.27389566, 0, 0, 0, 0
0.27389576, 1, 0, 0, 0
0.27389590, 0, 0, 0, 0
0.27389602, 1, 0, 0, 0
0.27389614, 0, 0, 0, 0
0.27389626, 1, 0, 0, 0
0.27389640, 0, 0, 0, 0
0.27389652, 1, 0, 0, 0
0.27389664, 0, 0, 0, 0
0.27389666, 0, 1, 0, 0
0.27389676, 1, 1, 0, 0
0.27389690, 0, 0, 0, 0
0.27389702, 1, 0, 0, 0
0.27389714, 0, 0, 0, 0
0.27389726, 1, 0, 0, 0
0.27389740, 0, 1, 0, 0
0.27389742, 0, 1, 1, 0
0.27389752, 1, 1, 1, 0
0.27389764, 0, 1, 1, 0
0.27389766, 0, 0, 0, 0
0.27389776, 1, 0, 0, 0
0.27389790, 0, 0, 0, 0
0.27389802, 1, 0, 0, 0
0.27389814, 0, 0, 0, 0
0.27389826, 1, 0, 0, 0
0.27389840, 0, 1, 0, 0
0.27389852, 1, 1, 0, 0
0.27389864, 0, 1, 0, 0
0.27389866, 0, 0, 1, 0
0.27389876, 1, 0, 1, 0
0.27389890, 0, 0, 1, 0
0.27389892, 0, 0, 0, 0
0.27389902, 1, 0, 0, 0
0.27389914, 0, 0, 0, 0
0.27389916, 0, 0, 1, 0
0.27389926, 1, 0, 1, 0
0.27389940, 0, 0, 1, 0
0.27389952, 1, 0, 1, 0
0.27389964, 0, 0, 1, 0
0.27389966, 0, 0, 0, 0
0.27389976, 1, 0, 0, 0
0.27389990, 0, 0, 0, 0
0.27390002, 1, 0, 0, 0
0.27390014, 0, 0, 0, 0
0.27390026, 1, 0, 0, 0
0.27390040, 0, 0, 0, 0
0.27390052, 1, 0, 0, 0
0.27390064, 0, 0, 0, 0
0.27390066, 0, 0, 1, 0
0.27390076, 1, 0, 1, 0
0.27390090, 0, 0, 1, 0
0.27390102, 1, 0, 1, 0
0.27390114, 0, 0, 1, 0
0.27390116, 0, 0, 0, 0
0.27390126, 1, 0, 0, 0
0.27390140, 0, 0, 0, 0
0.27390142, 0, 0, 1, 0
0.27390152, 1, 0, 1, 0
0.27390164, 0, 0, 1, 0
0.27390166, 0, 0, 0, 0
0.27390176, 1, 0, 0, 0
0.27390190, 0, 0, 0, 0
0.27390202, 1, 0, 0, 0
0.27390214, 0, 0, 0, 0
0.27390226, 1, 0, 0, 0
0.27390240, 0, 0, 0, 0
0.27390252, 1, 0, 0, 0
0.27390264, 0, 0, 0, 0
0.27390266, 0, 0, 1, 0
0.27390276, 1, 0, 1, 0
0.27390290, 0, 0, 1, 0
0.27390302, 1, 0, 1, 0
0.27390314, 0, 0, 1, 0
0.27390326, 1, 0, 1, 0
0.27390340, 0, 0, 1, 0
0.27390352, 1, 0, 1, 0
0.27390364, 0, 0, 1, 0
0.27390366, 0, 0, 0, 0
0.27390376, 1, 0, 0, 0
0.27390390, 0, 0, 0, 0
0.27390402, 1, 0, 0, 0
0.27390414, 0, 0, 0, 0
0.27390426, 1, 0, 0, 0
0.27390440, 0, 0, 0, 0
0.27390442, 0, 0, 1, 0
0.27390452, 1, 0, 1, 0
0.27390464, 0, 0, 1, 0
0.27390466, 0, 0, 0, 0
0.27390476, 1, 0, 0, 0
0.27390490, 0, 0, 0, 0
0.27390502, 1, 0, 0, 0
0.27390514, 0, 0, 0, 0
0.27390526, 1, 0, 0, 0
0.27390540, 0, 0, 0, 0
0.27390542, 0, 0, 1, 0
0.27390552, 1, 0, 1, 0
0.27390564, 0, 0, 1, 0
0.27390566, 0, 0, 0, 0
0.27390576, 1, 0, 0, 0
0.27390590, 0, 0, 0, 0
0.27390602, 1, 0, 0, 0
0.27390614, 0, 0, 0, 0
0.27390616, 0, 0, 1, 0
0.27390626, 1, 0, 1, 0
0.27390640, 0, 0, 1, 0
0.27390642, 0, 0, 0, 0
0.27390652, 1, 0, 0, 0
0.27390664, 0, 0, 0, 0
0.27390666, 0, 0, 1, 0
0.27390676, 1, 0, 1, 0
0.27390690, 0, 0, 1, 0
0.27390702, 1, 0, 1, 0
0.27390714, 0, 0, 1, 0
0.27390716, 0, 0, 0, 0
0.27390726, 1, 0, 0, 0
0.27390740, 0, 0, 0, 0
0.27390742, 0, 0, 1, 0
0.27390752, 1, 0, 1, 0
0.27390764, 0, 0, 1, 0
0.27390766, 0, 0, 0, 0
0.27390776, 1, 0, 0, 0
0.27390790, 0, 1, 0, 0
0.27390802, 1, 1, 0, 0
0.27390814, 0, 1, 0, 0
0.27390816, 0, 0, 0, 0
0.27390826, 1, 0, 0, 0
0.27390840, 0, 0, 0, 0
0.27390852, 1, 0, 0, 0
0.27390864, 0, 0, 0, 0
0.27390876, 1, 0, 0, 0
0.27390890, 0, 0, 0, 0
0.27390902, 1, 0, 0, 0
0.27390914, 0, 0, 0, 0
0.27390926, 1, 0, 0, 0
0.27391116, 1, 0, 0, 1
0.27447534, 1, 0, 0, 0
0.27447776, 0, 0, 0, 0
0.27447788, 1, 0, 0, 0
0.27447800, 0, 0, 0, 0
0.27447812, 1, 0, 0, 0
0.27447824, 0, 0, 0, 0
0.27447836, 1, 0, 0, 0
0.27447848, 0, 0, 0, 0
0.27447862, 1, 0, 0, 0
0.27447874, 0, 0, 0, 0
0.27447876, 0, 0, 1, 0
0.27447886, 1, 0, 1, 0
0.27447898, 0, 0, 1, 0
0.27447900, 0, 1, 0, 0
0.27447910, 1, 1, 0, 0
0.27447922, 0, 1, 0, 0
0.27447924, 0, 0, 1, 0
0.27447934, 1, 0, 1, 0
0.27447948, 0, 0, 1, 0
0.27447960, 1, 0, 1, 0
0.27448020, 1, 0, 0, 0
0.27448304, 0, 0, 0, 0
0.27448316, 1, 0, 0, 0
0.27448328, 0, 0, 0, 0
0.27448330, 0, 1, 1, 0
0.27448340, 1, 1, 1, 0
0.27448352, 0, 1, 1, 0
0.27448364, 1, 1, 1, 0
0.27448378, 0, 1, 1, 0
0.27448390, 1, 1, 1, 0
0.27448402, 0, 1, 1, 0
0.27448404, 0, 0, 0, 0
0.27448414, 1, 0, 0, 0
0.27448426, 0, 0, 0, 0
0.27448438, 1, 0, 0, 0
0.27448452, 0, 0, 0, 0
0.27448464, 1, 0, 0, 0
0.27448476, 0, 0, 0, 0
0.27448488, 1, 0, 0, 0
0.27448628, 1, 0, 0, 1
0.27448634, 1, 0, 0, 0
0.27448876, 0, 0, 0, 0
0.27448878, 0, 0, 1, 0
0.27448888, 1, 0, 1, 0
0.27448900, 0, 0, 1, 0
0.27448902, 0, 0, 0, 0
0.27448912, 1, 0, 0, 0
0.27448924, 0, 0, 0, 0
0.27448938, 1, 0, 0, 0
0.27448950, 0, 0, 0, 0
0.27448962, 1, 0, 0, 0
0.27448974, 0, 0, 0, 0
0.27448986, 1, 0, 0, 0
0.27448998, 0, 0, 0, 0
0.27449000, 0, 1, 0, 0
0.27449012, 1, 1, 0, 0
0.27449024, 0, 0, 0, 0
0.27449026, 0, 0, 1, 0
0.27449036, 1, 0, 1, 0
0.27449048, 0, 0, 1, 0
0.27449060, 1, 0, 1, 0
0.27449122, 1, 0, 0, 0
0.27449406, 0, 0, 0, 0
0.27449408, 0, 0, 1, 0
0.27449418, 1, 0, 1, 0
0.27449430, 0, 0, 1, 0
0.27449432, 0, 0, 0, 0
0.27449442, 1, 0, 0, 0
0.27449454, 0, 0, 0, 0
0.27449456, 0, 1, 0, 0
0.27449468, 1, 1, 0, 0
0.27449480, 0, 0, 0, 0
0.27449492, 1, 0, 0, 0
0.27449504, 0, 0, 0, 0
0.27449516, 1, 0, 0, 0
0.27449528, 0, 0, 0, 0
0.27449542, 1, 0, 0, 0
0.27449554, 0, 0, 0, 0
0.27449566, 1, 0, 0, 0
0.27449578, 0, 0, 0, 0
0.27449590, 1, 0, 0, 0
0.27449734, 1, 0, 0, 1
0.27449748, 1, 0, 0, 0
0.27449990, 0, 0, 0, 0
0.27450002, 1, 0, 0, 0
0.27450014, 0, 0, 0, 0
0.27450026, 1, 0, 0, 0
0.27450040, 0, 0, 0, 0
0.27450052, 1, 0, 0, 0
0.27450064, 0, 0, 0, 0
0.27450076, 1, 0, 0, 0
0.27450088, 0, 0, 0, 0
0.27450100, 1, 0, 0, 0
0.27450114, 0, 1, 0, 0
0.27450126, 1, 1, 0, 0
0.27450138, 0, 0, 0, 0
0.27450140, 0, 0, 1, 0
0.27450150, 1, 0, 1, 0
0.27450162, 0, 0, 1, 0
0.27450174, 1, 0, 1, 0
0.27450236, 1, 0, 0, 0
0.27450518, 0, 0, 0, 0
0.27450532, 1, 0, 0, 0
0.27450544, 0, 0, 0, 0
0.27450556, 1, 0, 0, 0
0.27450568, 0, 0, 0, 0
0.27450570, 0, 1, 1, 0
0.27450580, 1, 1, 1, 0
0.27450592, 0, 1, 1, 0
0.27450594, 0, 0, 1, 0
0.27450604, 1, 0, 1, 0
0.27450618, 0, 0, 1, 0
0.27450620, 0, 0, 0, 0
0.27450630, 1, 0, 0, 0
0.27450642, 0, 0, 0, 0
0.27450654, 1, 0, 0, 0
0.27450666, 0, 0, 0, 0
0.27450678, 1, 0, 0, 0
0.27450692, 0, 0, 0, 0
0.27450704, 1, 0, 0, 0
0.27450848, 1, 0, 0, 1
0.27450852, 1, 0, 0, 0
0.76282368, 1, 0, 0, 1
0.76282372, 1, 0, 0, 0
0.76282612, 0, 0, 0, 0
0.76282616, 0, 0, 1, 0
0.76282626, 1, 0, 1, 0
0.76282638, 0, 0, 1, 0
0.76282640, 0, 0, 0, 0
0.76282650, 1, 0, 0, 0
0.76282662, 0, 0, 0, 0
0.76282674, 1, 0, 0, 0
0.76282686, 0, 0, 0, 0
0.76282698, 1, 0, 0, 0
0.76282712, 0, 0, 0, 0
0.76282724, 1, 0, 0, 0
0.76282736, 0, 0, 0, 0
0.76282738, 0, 1, 0, 0
0.76282748, 1, 1, 0, 0
0.76282760, 0, 1, 0, 0
0.76282762, 0, 0, 0, 0
0.76282764, 0, 0, 1, 0
0.76282772, 1, 0, 1, 0
0.76282786, 0, 1, 1, 0
0.76282798, 1, 1, 1, 0
0.76282860, 1, 1, 0, 0
0.76283142, 0, 1, 0, 0
0.76283144, 0, 0, 1, 0
0.76283154, 1, 0, 1, 0
0.76283166, 0, 0, 1, 0
0.76283170, 0, 0, 0, 0
0.76283180, 1, 0, 0, 0
0.76283192, 0, 0, 0, 0
0.76283194, 0, 1, 0, 0
0.76283204, 1, 1, 0, 0
0.76283216, 0, 1, 0, 0
0.76283228, 1, 1, 0, 0
0.76283240, 0, 1, 0, 0
0.76283242, 0, 0, 0, 0
0.76283254, 1, 0, 0, 0
0.76283266, 0, 0, 0, 0
0.76283278, 1, 0, 0, 0
0.76283290, 0, 0, 0, 0
0.76283302, 1, 0, 0, 0
0.76283314, 0, 0, 0, 0
0.76283326, 1, 0, 0, 0
0.76283468, 1, 0, 0, 1
0.76283486, 1, 0, 0, 0
0.76283726, 0, 0, 0, 0
0.76283740, 1, 0, 0, 0
0.76283752, 0, 0, 0, 0
0.76283764, 1, 0, 0, 0
0.76283776, 0, 0, 0, 0
0.76283788, 1, 0, 0, 0
0.76283800, 0, 0, 0, 0
0.76283812, 1, 0, 0, 0
0.76283826, 0, 0, 0, 0
0.76283838, 1, 0, 0, 0
0.76283850, 0, 0, 0, 0
0.76283852, 0, 1, 0, 0
0.76283862, 1, 1, 0, 0
0.76283874, 0, 1, 0, 0
0.76283876, 0, 0, 0, 0
0.76283878, 0, 0, 1, 0
0.76283886, 1, 0, 1, 0
0.76283900, 0, 1, 1, 0
0.76283912, 1, 1, 1, 0
0.76283974, 1, 1, 0, 0
0.76284256, 0, 1, 0, 0
0.76284258, 0, 0, 0, 0
0.76284268, 1, 0, 0, 0
0.76284280, 0, 0, 0, 0
0.76284294, 1, 0, 0, 0
0.76284306, 0, 1, 0, 0
0.76284308, 0, 1, 1, 0
0.76284318, 1, 1, 1, 0
0.76284330, 0, 1, 1, 0
0.76284332, 0, 1, 0, 0
0.76284342, 1, 1, 0, 0
0.76284354, 0, 1, 0, 0
0.76284356, 0, 0, 0, 0
0.76284368, 1, 0, 0, 0
0.76284380, 0, 0, 0, 0
0.76284392, 1, 0, 0, 0
0.76284404, 0, 0, 0, 0
0.76284416, 1, 0, 0, 0
0.76284428, 0, 0, 0, 0
0.76284440, 1, 0, 0, 0
0.76284586, 1, 0, 0, 1
0.76285208, 1, 0, 0, 0
0.76285464, 0, 0, 0, 0
0.76285466, 0, 0, 1, 0
0.76285476, 1, 0, 1, 0
0.76285488, 0, 0, 1, 0
0.76285490, 0, 0, 0, 0
0.76285500, 1, 0, 0, 0
0.76285512, 0, 0, 0, 0
0.76285526, 1, 0, 0, 0
0.76285538, 0, 0, 0, 0
0.76285550, 1, 0, 0, 0
0.76285562, 0, 0, 0, 0
0.76285574, 1, 0, 0, 0
0.76285586, 0, 0, 0, 0
0.76285588, 0, 1, 0, 0
0.76285598, 1, 1, 0, 0
0.76285612, 0, 0, 0, 0
0.76285624, 1, 0, 0, 0
0.76285636, 0, 0, 0, 0
0.76285638, 0, 1, 0, 0
0.76285648, 1, 1, 0, 0
0.76285660, 0, 1, 0, 0
0.76285662, 0, 1, 1, 0
0.76285672, 1, 1, 1, 0
0.76285686, 0, 0, 1, 0
0.76285688, 0, 0, 0, 0
0.76285698, 1, 0, 0, 0
0.76285710, 0, 0, 0, 0
0.76285722, 1, 0, 0, 0
0.76285734, 0, 0, 0, 0
0.76285746, 1, 0, 0, 0
0.76285758, 0, 0, 0, 0
0.76285760, 0, 1, 0, 0
0.76285772, 1, 1, 0, 0
0.76285784, 0, 0, 0, 0
0.76285786, 0, 0, 1, 0
0.76285796, 1, 0, 1, 0
0.76285808, 0, 0, 1, 0
0.76285810, 0, 0, 0, 0
0.76285820, 1, 0, 0, 0
0.76285832, 0, 0, 0, 0
0.76285836, 0, 0, 1, 0
0.76285844, 1, 0, 1, 0
0.76285858, 0, 0, 1, 0
0.76285870, 1, 0, 1, 0
0.76285882, 0, 0, 1, 0
0.76285884, 0, 0, 0, 0
0.76285894, 1, 0, 0, 0
0.76285906, 0, 0, 0, 0
0.76285918, 1, 0, 0, 0
0.76285932, 0, 0, 0, 0
0.76285944, 1, 0, 0, 0
0.76285956, 0, 0, 0, 0
0.76285968, 1, 0, 0, 0
0.76285980, 0, 0, 0, 0
0.76285982, 0, 0, 1, 0
0.76285992, 1, 0, 1, 0
0.76286004, 0, 0, 1, 0
0.76286018, 1, 0, 1, 0
0.76286030, 0, 0, 1, 0
0.76286032, 0, 0, 0, 0
0.76286042, 1, 0, 0, 0
0.76286054, 0, 0, 0, 0
0.76286056, 0, 0, 1, 0
0.76286066, 1, 0, 1, 0
0.76286078, 0, 0, 1, 0
0.76286082, 0, 0, 0, 0
0.76286092, 1, 0, 0, 0
0.76286104, 0, 0, 0, 0
0.76286116, 1, 0, 0, 0
0.76286128, 0, 0, 0, 0
0.76286140, 1, 0, 0, 0
0.76286152, 0, 0, 0, 0
0.76286166, 1, 0, 0, 0
0.76286178, 0, 0, 0, 0
0.76286180, 0, 0, 1, 0
0.76286190, 1, 0, 1, 0
0.76286202, 0, 0, 1, 0
0.76286214, 1, 0, 1, 0
0.76286226, 0, 0, 1, 0
0.76286238, 1, 0, 1, 0
0.76286252, 0, 0, 1, 0
0.76286264, 1, 0, 1, 0
0.76286276, 0, 0, 1, 0
0.76286278, 0, 0, 0, 0
0.76286288, 1, 0, 0, 0
0.76286300, 0, 0, 0, 0
0.76286312, 1, 0, 0, 0
0.76286326, 0, 0, 0, 0
0.76286338, 1, 0, 0, 0
0.76286350, 0, 0, 0, 0
0.76286352, 0, 0, 1, 0
0.76286362, 1, 0, 1, 0
0.76286374, 0, 0, 1, 0
0.76286376, 0, 0, 0, 0
0.76286386, 1, 0, 0, 0
0.76286400, 0, 0, 0, 0
0.76286412, 1, 0, 0, 0
0.76286424, 0, 0, 0, 0
0.76286436, 1, 0, 0, 0
0.76286448, 0, 0, 0, 0
0.76286450, 0, 0, 1, 0
0.76286460, 1, 0, 1, 0
0.76286474, 0, 0, 1, 0
0.76286476, 0, 0, 0, 0
0.76286486, 1, 0, 0, 0
0.76286498, 0, 0, 0, 0
0.76286510, 1, 0, 0, 0
0.76286522, 0, 0, 0, 0
0.76286524, 0, 0, 1, 0
0.76286534, 1, 0, 1, 0
0.76286546, 0, 0, 1, 0
0.76286550, 0, 0, 0, 0
0.76286560, 1, 0, 0, 0
0.76286572, 0, 0, 0, 0
0.76286574, 0, 0, 1, 0
0.76286584, 1, 0, 1, 0
0.76286596, 0, 0, 1, 0
0.76286608, 1, 0, 1, 0
0.76286620, 0, 0, 1, 0
0.76286624, 0, 0, 0, 0
0.76286634, 1, 0, 0, 0
0.76286646, 0, 0, 0, 0
0.76286648, 0, 0, 1, 0
0.76286658, 1, 0, 1, 0
0.76286670, 0, 0, 1, 0
0.76286672, 0, 0, 0, 0
0.76286682, 1, 0, 0, 0
0.76286694, 0, 0, 0, 0
0.76286696, 0, 1, 0, 0
0.76286708, 1, 1, 0, 0
0.76286720, 0, 0, 0, 0
0.76286732, 1, 0, 0, 0
0.76286744, 0, 0, 0, 0
0.76286756, 1, 0, 0, 0
0.76286768, 0, 0, 0, 0
0.76286782, 1, 0, 0, 0
0.76286794, 0, 0, 0, 0
0.76286806, 1, 0, 0, 0
0.76286818, 0, 0, 0, 0
0.76286830, 1, 0, 0, 0
0.76287016, 1, 0, 0, 1
0.76346984, 1, 0, 0, 0
0.76347226, 0, 0, 0, 0
0.76347238, 1, 0, 0, 0
0.76347250, 0, 0, 0, 0
0.76347262, 1, 0, 0, 0
0.76347274, 0, 0, 0, 0
0.76347288, 1, 0, 0, 0
0.76347300, 0, 0, 0, 0
0.76347312, 1, 0, 0, 0
0.76347324, 0, 0, 0, 0
0.76347326, 0, 0, 1, 0
0.76347336, 1, 0, 1, 0
0.76347348, 0, 0, 1, 0
0.76347350, 0, 1, 1, 0
0.76347352, 0, 1, 0, 0
0.76347360, 1, 1, 0, 0
0.76347374, 0, 0, 0, 0
0.76347376, 0, 0, 1, 0
0.76347386, 1, 0, 1, 0
0.76347398, 0, 0, 1, 0
0.76347410, 1, 0, 1, 0
0.76347472, 1, 0, 0, 0
0.76347754, 0, 0, 0, 0
0.76347766, 1, 0, 0, 0
0.76347780, 0, 1, 0, 0
0.76347782, 0, 1, 1, 0
0.76347792, 1, 1, 1, 0
0.76347804, 0, 1, 1, 0
0.76347816, 1, 1, 1, 0
0.76347828, 0, 1, 1, 0
0.76347840, 1, 1, 1, 0
0.76347852, 0, 1, 1, 0
0.76347854, 0, 0, 1, 0
0.76347856, 0, 0, 0, 0
0.76347866, 1, 0, 0, 0
0.76347878, 0, 0, 0, 0
0.76347890, 1, 0, 0, 0
0.76347902, 0, 0, 0, 0
0.76347914, 1, 0, 0, 0
0.76347926, 0, 0, 0, 0
0.76347940, 1, 0, 0, 0
0.76348078, 1, 0, 0, 1
0.76348086, 1, 0, 0, 0
0.76348326, 0, 0, 0, 0
0.76348330, 0, 0, 1, 0
0.76348338, 1, 0, 1, 0
0.76348352, 0, 0, 1, 0
0.76348354, 0, 0, 0, 0
0.76348364, 1, 0, 0, 0
0.76348376, 0, 0, 0, 0
0.76348388, 1, 0, 0, 0
0.76348400, 0, 0, 0, 0
0.76348412, 1, 0, 0, 0
0.76348426, 0, 0, 0, 0
0.76348438, 1, 0, 0, 0
0.76348450, 0, 0, 0, 0
0.76348452, 0, 1, 0, 0
0.76348462, 1, 1, 0, 0
0.76348474, 0, 1, 0, 0
0.76348476, 0, 0, 1, 0
0.76348486, 1, 0, 1, 0
0.76348498, 0, 0, 1, 0
0.76348512, 1, 0, 1, 0
0.76348572, 1, 0, 0, 0
0.76348856, 0, 0, 0, 0
0.76348858, 0, 0, 1, 0
0.76348868, 1, 0, 1, 0
0.76348880, 0, 0, 1, 0
0.76348884, 0, 0, 0, 0
0.76348892, 1, 0, 0, 0
0.76348906, 0, 1, 0, 0
0.76348918, 1, 1, 0, 0
0.76348930, 0, 0, 0, 0
0.76348942, 1, 0, 0, 0
0.76348954, 0, 0, 0, 0
0.76348966, 1, 0, 0, 0
0.76348978, 0, 0, 0, 0
0.76348992, 1, 0, 0, 0
0.76349004, 0, 0, 0, 0
0.76349016, 1, 0, 0, 0
0.76349028, 0, 0, 0, 0
0.76349040, 1, 0, 0, 0
0.76349184, 1, 0, 0, 1
0.76349198, 1, 0, 0, 0
0.76349440, 0, 0, 0, 0
0.76349454, 1, 0, 0, 0
0.76349466, 0, 0, 0, 0
0.76349478, 1, 0, 0, 0
0.76349490, 0, 0, 0, 0
0.76349502, 1, 0, 0, 0
0.76349514, 0, 0, 0, 0
0.76349526, 1, 0, 0, 0
0.76349540, 0, 0, 0, 0
0.76349552, 1, 0, 0, 0
0.76349564, 0, 0, 0, 0
0.76349566, 0, 1, 0, 0
0.76349576, 1, 1, 0, 0
0.76349588, 0, 1, 0, 0
0.76349590, 0, 0, 0, 0
0.76349592, 0, 0, 1, 0
0.76349600, 1, 0, 1, 0
0.76349614, 0, 0, 1, 0
0.76349626, 1, 0, 1, 0
0.76349688, 1, 0, 0, 0
0.76349970, 0, 0, 0, 0
0.76349982, 1, 0, 0, 0
0.76349994, 0, 0, 0, 0
0.76350006, 1, 0, 0, 0
0.76350020, 0, 1, 0, 0
