Time[s], Channel 0, Channel 1, Channel 2, Channel 3, button 5 (dpi)
-0.00500006, 1, 0, 0, 1, 1
-0.00439164, 1, 0, 0, 0, 1
-0.00438904, 0, 0, 0, 0, 1
-0.00438902, 0, 0, 1, 0, 1
-0.00438892, 1, 0, 1, 0, 1
-0.00438880, 0, 0, 1, 0, 1
-0.00438876, 0, 0, 0, 0, 1
-0.00438866, 1, 0, 0, 0, 1
-0.00438854, 0, 0, 0, 0, 1
-0.00438842, 1, 0, 0, 0, 1
-0.00438830, 0, 0, 0, 0, 1
-0.00438816, 1, 0, 0, 0, 1
-0.00438804, 0, 0, 0, 0, 1
-0.00438792, 1, 0, 0, 0, 1
-0.00438780, 0, 0, 0, 0, 1
-0.00438766, 1, 0, 0, 0, 1
-0.00438754, 0, 0, 0, 0, 1
-0.00438752, 0, 1, 0, 0, 1
-0.00438742, 1, 1, 0, 0, 1
-0.00438730, 0, 1, 0, 0, 1
-0.00438716, 1, 1, 0, 0, 1
-0.00438704, 0, 1, 0, 0, 1
-0.00438702, 0, 1, 1, 0, 1
-0.00438692, 1, 1, 1, 0, 1
-0.00438680, 0, 1, 1, 0, 1
-0.00438678, 0, 0, 1, 0, 1
-0.00438676, 0, 0, 0, 0, 1
-0.00438666, 1, 0, 0, 0, 1
-0.00438654, 0, 0, 0, 0, 1
-0.00438642, 1, 0, 0, 0, 1
-0.00438630, 0, 0, 0, 0, 1
-0.00438616, 1, 0, 0, 0, 1
-0.00438604, 0, 0, 0, 0, 1
-0.00438602, 0, 1, 0, 0, 1
-0.00438592, 1, 1, 0, 0, 1
-0.00438580, 0, 1, 0, 0, 1
-0.00438578, 0, 0, 0, 0, 1
-0.00438576, 0, 0, 1, 0, 1
-0.00438566, 1, 0, 1, 0, 1
-0.00438554, 0, 0, 1, 0, 1
-0.00438552, 0, 0, 0, 0, 1
-0.00438542, 1, 0, 0, 0, 1
-0.00438530, 0, 0, 0, 0, 1
-0.00438526, 0, 0, 1, 0, 1
-0.00438516, 1, 0, 1, 0, 1
-0.00438504, 0, 0, 1, 0, 1
-0.00438492, 1, 0, 1, 0, 1
-0.00438480, 0, 0, 1, 0, 1
-0.00438476, 0, 0, 0, 0, 1
-0.00438466, 1, 0, 0, 0, 1
-0.00438454, 0, 0, 0, 0, 1
-0.00438442, 1, 0, 0, 0, 1
-0.00438430, 0, 0, 0, 0, 1
-0.00438416, 1, 0, 0, 0, 1
-0.00438404, 0, 0, 0, 0, 1
-0.00438392, 1, 0, 0, 0, 1
-0.00438380, 0, 0, 0, 0, 1
-0.00438376, 0, 0, 1, 0, 1
-0.00438366, 1, 0, 1, 0, 1
-0.00438354, 0, 0, 1, 0, 1
-0.00438342, 1, 0, 1, 0, 1
-0.00438330, 0, 0, 1, 0, 1
-0.00438326, 0, 0, 0, 0, 1
-0.00438316, 1, 0, 0, 0, 1
-0.00438304, 0, 0, 0, 0, 1
-0.00438302, 0, 0, 1, 0, 1
-0.00438292, 1, 0, 1, 0, 1
-0.00438280, 0, 0, 1, 0, 1
-0.00438276, 0, 0, 0, 0, 1
-0.00438266, 1, 0, 0, 0, 1
-0.00438254, 0, 0, 0, 0, 1
-0.00438242, 1, 0, 0, 0, 1
-0.00438230, 0, 0, 0, 0, 1
-0.00438216, 1, 0, 0, 0, 1
-0.00438204, 0, 0, 0, 0, 1
-0.00438192, 1, 0, 0, 0, 1
-0.00438180, 0, 0, 0, 0, 1
-0.00438176, 0, 0, 1, 0, 1
-0.00438166, 1, 0, 1, 0, 1
-0.00438154, 0, 0, 1, 0, 1
-0.00438142, 1, 0, 1, 0, 1
-0.00438130, 0, 0, 1, 0, 1
-0.00438116, 1, 0, 1, 0, 1
-0.00438104, 0, 0, 1, 0, 1
-0.00438092, 1, 0, 1, 0, 1
-0.00438080, 0, 0, 1, 0, 1
-0.00438076, 0, 0, 0, 0, 1
-0.00438066, 1, 0, 0, 0, 1
-0.00438054, 0, 0, 0, 0, 1
-0.00438042, 1, 0, 0, 0, 1
-0.00438030, 0, 0, 0, 0, 1
-0.00438016, 1, 0, 0, 0, 1
-0.00438004, 0, 0, 0, 0, 1
-0.00438002, 0, 0, 1, 0, 1
-0.00437992, 1, 0, 1, 0, 1
-0.00437980, 0, 0, 1, 0, 1
-0.00437976, 0, 0, 0, 0, 1
-0.00437966, 1, 0, 0, 0, 1
-0.00437954, 0, 0, 0, 0, 1
-0.00437942, 1, 0, 0, 0, 1
-0.00437930, 0, 0, 0, 0, 1
-0.00437916, 1, 0, 0, 0, 1
-0.00437904, 0, 0, 0, 0, 1
-0.00437902, 0, 0, 1, 0, 1
-0.00437892, 1, 0, 1, 0, 1
-0.00437880, 0, 0, 1, 0, 1
-0.00437876, 0, 0, 0, 0, 1
-0.00437866, 1, 0, 0, 0, 1
-0.00437854, 0, 0, 0, 0, 1
-0.00437842, 1, 0, 0, 0, 1
-0.00437830, 0, 0, 0, 0, 1
-0.00437826, 0, 0, 1, 0, 1
-0.00437816, 1, 0, 1, 0, 1
-0.00437804, 0, 0, 1, 0, 1
-0.00437802, 0, 0, 0, 0, 1
-0.00437792, 1, 0, 0, 0, 1
-0.00437780, 0, 0, 0, 0, 1
-0.00437776, 0, 0, 1, 0, 1
-0.00437766, 1, 0, 1, 0, 1
-0.00437754, 0, 0, 1, 0, 1
-0.00437742, 1, 0, 1, 0, 1
-0.00437730, 0, 0, 1, 0, 1
-0.00437726, 0, 0, 0, 0, 1
-0.00437716, 1, 0, 0, 0, 1
-0.00437704, 0, 0, 0, 0, 1
-0.00437702, 0, 0, 1, 0, 1
-0.00437692, 1, 0, 1, 0, 1
-0.00437680, 0, 0, 1, 0, 1
-0.00437676, 0, 0, 0, 0, 1
-0.00437666, 1, 0, 0, 0, 1
-0.00437654, 0, 0, 0, 0, 1
-0.00437652, 0, 1, 0, 0, 1
-0.00437642, 1, 1, 0, 0, 1
-0.00437630, 0, 1, 0, 0, 1
-0.00437628, 0, 0, 0, 0, 1
-0.00437616, 1, 0, 0, 0, 1
-0.00437604, 0, 0, 0, 0, 1
-0.00437592, 1, 0, 0, 0, 1
-0.00437580, 0, 0, 0, 0, 1
-0.00437566, 1, 0, 0, 0, 1
-0.00437554, 0, 0, 0, 0, 1
-0.00437542, 1, 0, 0, 0, 1
-0.00437530, 0, 0, 0, 0, 1
-0.00437516, 1, 0, 0, 0, 1
-0.00437328, 1, 0, 0, 1, 1
-0.00339160, 1, 0, 0, 0, 1
-0.00338900, 0, 0, 0, 0, 1
-0.00338896, 0, 0, 1, 0, 1
-0.00338886, 1, 0, 1, 0, 1
-0.00338874, 0, 0, 1, 0, 1
-0.00338872, 0, 0, 0, 0, 1
-0.00338862, 1, 0, 0, 0, 1
-0.00338850, 0, 0, 0, 0, 1
-0.00338836, 1, 0, 0, 0, 1
-0.00338824, 0, 0, 0, 0, 1
-0.00338812, 1, 0, 0, 0, 1
-0.00338800, 0, 0, 0, 0, 1
-0.00338786, 1, 0, 0, 0, 1
-0.00338774, 0, 0, 0, 0, 1
-0.00338762, 1, 0, 0, 0, 1
-0.00338750, 0, 0, 0, 0, 1
-0.00338748, 0, 1, 0, 0, 1
-0.00338736, 1, 1, 0, 0, 1
-0.00338724, 0, 1, 0, 0, 1
-0.00338712, 1, 1, 0, 0, 1
-0.00338700, 0, 1, 0, 0, 1
-0.00338696, 0, 1, 1, 0, 1
-0.00338686, 1, 1, 1, 0, 1
-0.00338674, 0, 0, 1, 0, 1
-0.00338672, 0, 0, 0, 0, 1
-0.00338662, 1, 0, 0, 0, 1
-0.00338650, 0, 0, 0, 0, 1
-0.00338636, 1, 0, 0, 0, 1
-0.00338624, 0, 0, 0, 0, 1
-0.00338612, 1, 0, 0, 0, 1
-0.00338600, 0, 0, 0, 0, 1
-0.00338598, 0, 1, 0, 0, 1
-0.00338586, 1, 1, 0, 0, 1
-0.00338574, 0, 0, 0, 0, 1
-0.00338572, 0, 0, 1, 0, 1
-0.00338562, 1, 0, 1, 0, 1
-0.00338550, 0, 0, 1, 0, 1
-0.00338546, 0, 0, 0, 0, 1
-0.00338536, 1, 0, 0, 0, 1
-0.00338524, 0, 0, 0, 0, 1
-0.00338522, 0, 0, 1, 0, 1
-0.00338512, 1, 0, 1, 0, 1
-0.00338500, 0, 0, 1, 0, 1
-0.00338486, 1, 0, 1, 0, 1
-0.00338474, 0, 0, 1, 0, 1
-0.00338472, 0, 0, 0, 0, 1
-0.00338462, 1, 0, 0, 0, 1
-0.00338450, 0, 0, 0, 0, 1
-0.00338436, 1, 0, 0, 0, 1
-0.00338424, 0, 0, 0, 0, 1
-0.00338412, 1, 0, 0, 0, 1
-0.00338400, 0, 0, 0, 0, 1
-0.00338386, 1, 0, 0, 0, 1
-0.00338374, 0, 0, 0, 0, 1
-0.00338372, 0, 0, 1, 0, 1
-0.00338362, 1, 0, 1, 0, 1
-0.00338350, 0, 0, 1, 0, 1
-0.00338336, 1, 0, 1, 0, 1
-0.00338324, 0, 0, 1, 0, 1
-0.00338322, 0, 0, 0, 0, 1
-0.00338312, 1, 0, 0, 0, 1
-0.00338300, 0, 0, 0, 0, 1
-0.00338296, 0, 0, 1, 0, 1
-0.00338286, 1, 0, 1, 0, 1
-0.00338274, 0, 0, 1, 0, 1
-0.00338272, 0, 0, 0, 0, 1
-0.00338262, 1, 0, 0, 0, 1
-0.00338250, 0, 0, 0, 0, 1
-0.00338236, 1, 0, 0, 0, 1
-0.00338224, 0, 0, 0, 0, 1
-0.00338212, 1, 0, 0, 0, 1
-0.00338200, 0, 0, 0, 0, 1
-0.00338186, 1, 0, 0, 0, 1
-0.00338174, 0, 0, 0, 0, 1
-0.00338172, 0, 0, 1, 0, 1
-0.00338162, 1, 0, 1, 0, 1
-0.00338150, 0, 0, 1, 0, 1
-0.00338136, 1, 0, 1, 0, 1
-0.00338124, 0, 0, 1, 0, 1
-0.00338112, 1, 0, 1, 0, 1
-0.00338100, 0, 0, 1, 0, 1
-0.00338086, 1, 0, 1, 0, 1
-0.00338074, 0, 0, 1, 0, 1
-0.00338072, 0, 0, 0, 0, 1
-0.00338062, 1, 0, 0, 0, 1
-0.00338050, 0, 0, 0, 0, 1
-0.00338036, 1, 0, 0, 0, 1
-0.00338024, 0, 0, 0, 0, 1
-0.00338012, 1, 0, 0, 0, 1
-0.00338000, 0, 0, 0, 0, 1
-0.00337996, 0, 0, 1, 0, 1
-0.00337986, 1, 0, 1, 0, 1
-0.00337974, 0, 0, 1, 0, 1
-0.00337972, 0, 0, 0, 0, 1
-0.00337962, 1, 0, 0, 0, 1
-0.00337950, 0, 0, 0, 0, 1
-0.00337936, 1, 0, 0, 0, 1
-0.00337924, 0, 0, 0, 0, 1
-0.00337912, 1, 0, 0, 0, 1
-0.00337900, 0, 0, 0, 0, 1
-0.00337896, 0, 0, 1, 0, 1
-0.00337886, 1, 0, 1, 0, 1
-0.00337874, 0, 0, 1, 0, 1
-0.00337872, 0, 0, 0, 0, 1
-0.00337862, 1, 0, 0, 0, 1
-0.00337850, 0, 0, 0, 0, 1
-0.00337836, 1, 0, 0, 0, 1
-0.00337824, 0, 0, 0, 0, 1
-0.00337822, 0, 0, 1, 0, 1
-0.00337812, 1, 0, 1, 0, 1
-0.00337800, 0, 0, 1, 0, 1
-0.00337796, 0, 0, 0, 0, 1
-0.00337786, 1, 0, 0, 0, 1
-0.00337774, 0, 0, 0, 0, 1
-0.00337772, 0, 0, 1, 0, 1
-0.00337762, 1, 0, 1, 0, 1
-0.00337750, 0, 0, 1, 0, 1
-0.00337736, 1, 0, 1, 0, 1
-0.00337724, 0, 0, 1, 0, 1
-0.00337722, 0, 0, 0, 0, 1
-0.00337712, 1, 0, 0, 0, 1
-0.00337700, 0, 0, 0, 0, 1
-0.00337696, 0, 0, 1, 0, 1
-0.00337686, 1, 0, 1, 0, 1
-0.00337674, 0, 0, 1, 0, 1
-0.00337672, 0, 0, 0, 0, 1
-0.00337662, 1, 0, 0, 0, 1
-0.00337650, 0, 0, 0, 0, 1
-0.00337648, 0, 1, 0, 0, 1
-0.00337636, 1, 1, 0, 0, 1
-0.00337624, 0, 1, 0, 0, 1
-0.00337622, 0, 0, 0, 0, 1
-0.00337612, 1, 0, 0, 0, 1
-0.00337600, 0, 0, 0, 0, 1
-0.00337586, 1, 0, 0, 0, 1
-0.00337574, 0, 0, 0, 0, 1
-0.00337562, 1, 0, 0, 0, 1
-0.00337550, 0, 0, 0, 0, 1
-0.00337536, 1, 0, 0, 0, 1
-0.00337524, 0, 0, 0, 0, 1
-0.00337512, 1, 0, 0, 0, 1
-0.00337324, 1, 0, 0, 1, 1
-0.00239148, 1, 0, 0, 0, 1
-0.00239146, 1, 1, 0, 0, 1
-0.00238888, 0, 1, 0, 0, 1
-0.00238886, 0, 1, 1, 0, 1
-0.00238876, 1, 1, 1, 0, 1
-0.00238864, 0, 1, 1, 0, 1
-0.00238862, 0, 0, 1, 0, 1
-0.00238860, 0, 0, 0, 0, 1
-0.00238850, 1, 0, 0, 0, 1
-0.00238838, 0, 0, 0, 0, 1
-0.00238826, 1, 0, 0, 0, 1
-0.00238814, 0, 0, 0, 0, 1
-0.00238800, 1, 0, 0, 0, 1
-0.00238788, 0, 0, 0, 0, 1
-0.00238776, 1, 0, 0, 0, 1
-0.00238764, 0, 0, 0, 0, 1
-0.00238750, 1, 0, 0, 0, 1
-0.00238738, 0, 0, 0, 0, 1
-0.00238736, 0, 1, 0, 0, 1
-0.00238726, 1, 1, 0, 0, 1
-0.00238714, 0, 1, 0, 0, 1
-0.00238700, 1, 1, 0, 0, 1
-0.00238688, 0, 1, 0, 0, 1
-0.00238686, 0, 1, 1, 0, 1
-0.00238676, 1, 1, 1, 0, 1
-0.00238664, 0, 1, 1, 0, 1
-0.00238662, 0, 0, 1, 0, 1
-0.00238660, 0, 0, 0, 0, 1
-0.00238650, 1, 0, 0, 0, 1
-0.00238638, 0, 0, 0, 0, 1
-0.00238626, 1, 0, 0, 0, 1
-0.00238614, 0, 0, 0, 0, 1
-0.00238600, 1, 0, 0, 0, 1
-0.00238588, 0, 0, 0, 0, 1
-0.00238586, 0, 1, 0, 0, 1
-0.00238576, 1, 1, 0, 0, 1
-0.00238564, 0, 1, 0, 0, 1
-0.00238562, 0, 0, 0, 0, 1
-0.00238560, 0, 0, 1, 0, 1
-0.00238550, 1, 0, 1, 0, 1
-0.00238538, 0, 0, 1, 0, 1
-0.00238536, 0, 0, 0, 0, 1
-0.00238526, 1, 0, 0, 0, 1
-0.00238514, 0, 0, 0, 0, 1
-0.00238510, 0, 0, 1, 0, 1
-0.00238500, 1, 0, 1, 0, 1
-0.00238488, 0, 0, 1, 0, 1
-0.00238476, 1, 0, 1, 0, 1
-0.00238464, 0, 0, 1, 0, 1
-0.00238460, 0, 0, 0, 0, 1
-0.00238450, 1, 0, 0, 0, 1
-0.00238438, 0, 0, 0, 0, 1
-0.00238426, 1, 0, 0, 0, 1
-0.00238414, 0, 0, 0, 0, 1
-0.00238400, 1, 0, 0, 0, 1
-0.00238388, 0, 0, 0, 0, 1
-0.00238376, 1, 0, 0, 0, 1
-0.00238364, 0, 0, 0, 0, 1
-0.00238360, 0, 0, 1, 0, 1
-0.00238350, 1, 0, 1, 0, 1
-0.00238338, 0, 0, 1, 0, 1
-0.00238326, 1, 0, 1, 0, 1
-0.00238314, 0, 0, 1, 0, 1
-0.00238310, 0, 0, 0, 0, 1
-0.00238300, 1, 0, 0, 0, 1
-0.00238288, 0, 0, 0, 0, 1
-0.00238286, 0, 0, 1, 0, 1
-0.00238276, 1, 0, 1, 0, 1
-0.00238264, 0, 0, 1, 0, 1
-0.00238260, 0, 0, 0, 0, 1
-0.00238250, 1, 0, 0, 0, 1
-0.00238238, 0, 0, 0, 0, 1
-0.00238226, 1, 0, 0, 0, 1
-0.00238214, 0, 0, 0, 0, 1
-0.00238200, 1, 0, 0, 0, 1
-0.00238188, 0, 0, 0, 0, 1
-0.00238176, 1, 0, 0, 0, 1
-0.00238164, 0, 0, 0, 0, 1
-0.00238160, 0, 0, 1, 0, 1
-0.00238150, 1, 0, 1, 0, 1
-0.00238138, 0, 0, 1, 0, 1
-0.00238126, 1, 0, 1, 0, 1
-0.00238114, 0, 0, 1, 0, 1
-0.00238112, 0, 1, 1, 0, 1
-0.00238100, 1, 1, 1, 0, 1
-0.00238088, 0, 1, 1, 0, 1
-0.00238076, 1, 1, 1, 0, 1
-0.00238064, 0, 1, 1, 0, 1
-0.00238060, 0, 1, 0, 0, 1
-0.00238050, 1, 1, 0, 0, 1
-0.00238038, 0, 1, 0, 0, 1
-0.00238026, 1, 1, 0, 0, 1
-0.00238014, 0, 1, 0, 0, 1
-0.00238000, 1, 1, 0, 0, 1
-0.00237988, 0, 1, 0, 0, 1
-0.00237986, 0, 1, 1, 0, 1
-0.00237976, 1, 1, 1, 0, 1
-0.00237964, 0, 1, 1, 0, 1
-0.00237960, 0, 1, 0, 0, 1
-0.00237950, 1, 1, 0, 0, 1
-0.00237938, 0, 1, 0, 0, 1
-0.00237926, 1, 1, 0, 0, 1
-0.00237914, 0, 1, 0, 0, 1
-0.00237900, 1, 1, 0, 0, 1
-0.00237888, 0, 1, 0, 0, 1
-0.00237886, 0, 1, 1, 0, 1
-0.00237876, 1, 1, 1, 0, 1
-0.00237864, 0, 1, 1, 0, 1
-0.00237860, 0, 1, 0, 0, 1
-0.00237850, 1, 1, 0, 0, 1
-0.00237838, 0, 1, 0, 0, 1
-0.00237826, 1, 1, 0, 0, 1
-0.00237814, 0, 1, 0, 0, 1
-0.00237810, 0, 1, 1, 0, 1
-0.00237800, 1, 1, 1, 0, 1
-0.00237788, 0, 1, 1, 0, 1
-0.00237786, 0, 1, 0, 0, 1
-0.00237776, 1, 1, 0, 0, 1
-0.00237764, 0, 1, 0, 0, 1
-0.00237760, 0, 1, 1, 0, 1
-0.00237750, 1, 1, 1, 0, 1
-0.00237738, 0, 1, 1, 0, 1
-0.00237726, 1, 1, 1, 0, 1
-0.00237714, 0, 1, 1, 0, 1
-0.00237710, 0, 1, 0, 0, 1
-0.00237700, 1, 1, 0, 0, 1
-0.00237688, 0, 1, 0, 0, 1
-0.00237686, 0, 0, 1, 0, 1
-0.00237676, 1, 0, 1, 0, 1
-0.00237664, 0, 0, 1, 0, 1
-0.00237660, 0, 0, 0, 0, 1
-0.00237650, 1, 0, 0, 0, 1
-0.00237638, 0, 0, 0, 0, 1
-0.00237636, 0, 1, 0, 0, 1
-0.00237626, 1, 1, 0, 0, 1
-0.00237614, 0, 1, 0, 0, 1
-0.00237612, 0, 0, 0, 0, 1
-0.00237600, 1, 0, 0, 0, 1
-0.00237588, 0, 0, 0, 0, 1
-0.00237576, 1, 0, 0, 0, 1
-0.00237564, 0, 0, 0, 0, 1
-0.00237550, 1, 0, 0, 0, 1
-0.00237538, 0, 0, 0, 0, 1
-0.00237526, 1, 0, 0, 0, 1
-0.00237514, 0, 0, 0, 0, 1
-0.00237500, 1, 0, 0, 0, 1
-0.00237312, 1, 0, 0, 1, 1
-0.00139130, 1, 0, 0, 0, 1
-0.00138872, 0, 0, 0, 0, 1
-0.00138868, 0, 0, 1, 0, 1
-0.00138858, 1, 0, 1, 0, 1
-0.00138846, 0, 0, 1, 0, 1
-0.00138844, 0, 0, 0, 0, 1
-0.00138834, 1, 0, 0, 0, 1
-0.00138822, 0, 0, 0, 0, 1
-0.00138808, 1, 0, 0, 0, 1
-0.00138796, 0, 0, 0, 0, 1
-0.00138784, 1, 0, 0, 0, 1
-0.00138772, 0, 0, 0, 0, 1
-0.00138758, 1, 0, 0, 0, 1
-0.00138746, 0, 0, 0, 0, 1
-0.00138734, 1, 0, 0, 0, 1
-0.00138722, 0, 0, 0, 0, 1
-0.00138720, 0, 1, 0, 0, 1
-0.00138708, 1, 1, 0, 0, 1
-0.00138696, 0, 1, 0, 0, 1
-0.00138684, 1, 1, 0, 0, 1
-0.00138672, 0, 1, 0, 0, 1
-0.00138668, 0, 1, 1, 0, 1
-0.00138658, 1, 1, 1, 0, 1
-0.00138646, 0, 1, 1, 0, 1
-0.00138644, 0, 0, 0, 0, 1
-0.00138634, 1, 0, 0, 0, 1
-0.00138622, 0, 0, 0, 0, 1
-0.00138608, 1, 0, 0, 0, 1
-0.00138596, 0, 0, 0, 0, 1
-0.00138584, 1, 0, 0, 0, 1
-0.00138572, 0, 0, 0, 0, 1
-0.00138570, 0, 1, 0, 0, 1
-0.00138558, 1, 1, 0, 0, 1
-0.00138546, 0, 1, 0, 0, 1
-0.00138544, 0, 0, 1, 0, 1
-0.00138534, 1, 0, 1, 0, 1
-0.00138522, 0, 0, 1, 0, 1
-0.00138518, 0, 0, 0, 0, 1
-0.00138508, 1, 0, 0, 0, 1
-0.00138496, 0, 0, 0, 0, 1
-0.00138494, 0, 0, 1, 0, 1
-0.00138484, 1, 0, 1, 0, 1
-0.00138472, 0, 0, 1, 0, 1
-0.00138458, 1, 0, 1, 0, 1
-0.00138446, 0, 0, 1, 0, 1
-0.00138444, 0, 0, 0, 0, 1
-0.00138434, 1, 0, 0, 0, 1
-0.00138422, 0, 0, 0, 0, 1
-0.00138408, 1, 0, 0, 0, 1
-0.00138396, 0, 0, 0, 0, 1
-0.00138384, 1, 0, 0, 0, 1
-0.00138372, 0, 0, 0, 0, 1
-0.00138358, 1, 0, 0, 0, 1
-0.00138346, 0, 0, 0, 0, 1
-0.00138344, 0, 0, 1, 0, 1
-0.00138334, 1, 0, 1, 0, 1
-0.00138322, 0, 0, 1, 0, 1
-0.00138308, 1, 0, 1, 0, 1
-0.00138296, 0, 0, 1, 0, 1
-0.00138294, 0, 0, 0, 0, 1
-0.00138284, 1, 0, 0, 0, 1
-0.00138272, 0, 0, 0, 0, 1
-0.00138268, 0, 0, 1, 0, 1
-0.00138258, 1, 0, 1, 0, 1
-0.00138246, 0, 0, 1, 0, 1
-0.00138244, 0, 0, 0, 0, 1
-0.00138234, 1, 0, 0, 0, 1
-0.00138222, 0, 0, 0, 0, 1
-0.00138208, 1, 0, 0, 0, 1
-0.00138196, 0, 0, 0, 0, 1
-0.00138184, 1, 0, 0, 0, 1
-0.00138170, 0, 0, 0, 0, 1
-0.00138158, 1, 0, 0, 0, 1
-0.00138146, 0, 0, 0, 0, 1
-0.00138144, 0, 0, 1, 0, 1
-0.00138134, 1, 0, 1, 0, 1
-0.00138120, 0, 0, 1, 0, 1
-0.00138108, 1, 0, 1, 0, 1
-0.00138096, 0, 0, 1, 0, 1
-0.00138084, 1, 0, 1, 0, 1
-0.00138072, 0, 0, 1, 0, 1
-0.00138058, 1, 0, 1, 0, 1
-0.00138046, 0, 0, 1, 0, 1
-0.00138044, 0, 0, 0, 0, 1
-0.00138034, 1, 0, 0, 0, 1
-0.00138022, 0, 0, 0, 0, 1
-0.00138008, 1, 0, 0, 0, 1
-0.00137996, 0, 0, 0, 0, 1
-0.00137984, 1, 0, 0, 0, 1
-0.00137972, 0, 0, 0, 0, 1
-0.00137968, 0, 0, 1, 0, 1
-0.00137958, 1, 0, 1, 0, 1
-0.00137946, 0, 0, 1, 0, 1
-0.00137944, 0, 0, 0, 0, 1
-0.00137934, 1, 0, 0, 0, 1
-0.00137920, 0, 0, 0, 0, 1
-0.00137908, 1, 0, 0, 0, 1
-0.00137896, 0, 0, 0, 0, 1
-0.00137884, 1, 0, 0, 0, 1
-0.00137870, 0, 0, 0, 0, 1
-0.00137868, 0, 0, 1, 0, 1
-0.00137858, 1, 0, 1, 0, 1
-0.00137846, 0, 0, 1, 0, 1
-0.00137844, 0, 0, 0, 0, 1
-0.00137834, 1, 0, 0, 0, 1
-0.00137820, 0, 0, 0, 0, 1
-0.00137808, 1, 0, 0, 0, 1
-0.00137796, 0, 0, 0, 0, 1
-0.00137794, 0, 0, 1, 0, 1
-0.00137784, 1, 0, 1, 0, 1
-0.00137770, 0, 0, 1, 0, 1
-0.00137768, 0, 0, 0, 0, 1
-0.00137758, 1, 0, 0, 0, 1
-0.00137746, 0, 0, 0, 0, 1
-0.00137744, 0, 0, 1, 0, 1
-0.00137734, 1, 0, 1, 0, 1
-0.00137720, 0, 0, 1, 0, 1
-0.00137708, 1, 0, 1, 0, 1
-0.00137696, 0, 0, 1, 0, 1
-0.00137694, 0, 0, 0, 0, 1
-0.00137684, 1, 0, 0, 0, 1
-0.00137670, 0, 0, 0, 0, 1
-0.00137668, 0, 0, 1, 0, 1
-0.00137658, 1, 0, 1, 0, 1
-0.00137646, 0, 0, 1, 0, 1
-0.00137644, 0, 0, 0, 0, 1
-0.00137634, 1, 0, 0, 0, 1
-0.00137620, 0, 1, 0, 0, 1
-0.00137608, 1, 1, 0, 0, 1
-0.00137596, 0, 1, 0, 0, 1
-0.00137594, 0, 0, 0, 0, 1
-0.00137584, 1, 0, 0, 0, 1
-0.00137570, 0, 0, 0, 0, 1
-0.00137558, 1, 0, 0, 0, 1
-0.00137546, 0, 0, 0, 0, 1
-0.00137534, 1, 0, 0, 0, 1
-0.00137520, 0, 0, 0, 0, 1
-0.00137508, 1, 0, 0, 0, 1
-0.00137496, 0, 0, 0, 0, 1
-0.00137484, 1, 0, 0, 0, 1
-0.00137294, 1, 0, 0, 1, 1
-0.00039126, 1, 0, 0, 0, 1
-0.00038866, 0, 0, 0, 0, 1
-0.00038864, 0, 0, 1, 0, 1
-0.00038854, 1, 0, 1, 0, 1
-0.00038842, 0, 0, 1, 0, 1
-0.00038838, 0, 0, 0, 0, 1
-0.00038828, 1, 0, 0, 0, 1
-0.00038816, 0, 0, 0, 0, 1
-0.00038804, 1, 0, 0, 0, 1
-0.00038792, 0, 0, 0, 0, 1
-0.00038778, 1, 0, 0, 0, 1
-0.00038766, 0, 0, 0, 0, 1
-0.00038754, 1, 0, 0, 0, 1
-0.00038742, 0, 0, 0, 0, 1
-0.00038728, 1, 0, 0, 0, 1
-0.00038716, 0, 0, 0, 0, 1
-0.00038714, 0, 1, 0, 0, 1
-0.00038704, 1, 1, 0, 0, 1
-0.00038692, 0, 1, 0, 0, 1
-0.00038678, 1, 1, 0, 0, 1
-0.00038666, 0, 1, 0, 0, 1
-0.00038664, 0, 1, 1, 0, 1
-0.00038654, 1, 1, 1, 0, 1
-0.00038642, 0, 1, 1, 0, 1
-0.00038640, 0, 0, 1, 0, 1
-0.00038638, 0, 0, 0, 0, 1
-0.00038628, 1, 0, 0, 0, 1
-0.00038616, 0, 0, 0, 0, 1
-0.00038604, 1, 0, 0, 0, 1
-0.00038592, 0, 0, 0, 0, 1
-0.00038578, 1, 0, 0, 0, 1
-0.00038566, 0, 0, 0, 0, 1
-0.00038564, 0, 1, 0, 0, 1
-0.00038554, 1, 1, 0, 0, 1
-0.00038542, 0, 1, 0, 0, 1
-0.00038540, 0, 0, 0, 0, 1
-0.00038538, 0, 0, 1, 0, 1
-0.00038528, 1, 0, 1, 0, 1
-0.00038516, 0, 0, 1, 0, 1
-0.00038514, 0, 0, 0, 0, 1
-0.00038504, 1, 0, 0, 0, 1
-0.00038492, 0, 0, 0, 0, 1
-0.00038488, 0, 0, 1, 0, 1
-0.00038478, 1, 0, 1, 0, 1
-0.00038466, 0, 0, 1, 0, 1
-0.00038454, 1, 0, 1, 0, 1
-0.00038442, 0, 0, 1, 0, 1
-0.00038438, 0, 0, 0, 0, 1
-0.00038428, 1, 0, 0, 0, 1
-0.00038416, 0, 0, 0, 0, 1
-0.00038404, 1, 0, 0, 0, 1
-0.00038392, 0, 0, 0, 0, 1
-0.00038378, 1, 0, 0, 0, 1
-0.00038366, 0, 0, 0, 0, 1
-0.00038354, 1, 0, 0, 0, 1
-0.00038342, 0, 0, 0, 0, 1
-0.00038338, 0, 0, 1, 0, 1
-0.00038328, 1, 0, 1, 0, 1
-0.00038316, 0, 0, 1, 0, 1
-0.00038304, 1, 0, 1, 0, 1
-0.00038292, 0, 0, 1, 0, 1
-0.00038288, 0, 0, 0, 0, 1
-0.00038278, 1, 0, 0, 0, 1
-0.00038266, 0, 0, 0, 0, 1
-0.00038264, 0, 0, 1, 0, 1
-0.00038254, 1, 0, 1, 0, 1
-0.00038242, 0, 0, 1, 0, 1
-0.00038238, 0, 0, 0, 0, 1
-0.00038228, 1, 0, 0, 0, 1
-0.00038216, 0, 0, 0, 0, 1
-0.00038204, 1, 0, 0, 0, 1
-0.00038192, 0, 0, 0, 0, 1
-0.00038178, 1, 0, 0, 0, 1
-0.00038166, 0, 0, 0, 0, 1
-0.00038154, 1, 0, 0, 0, 1
-0.00038142, 0, 0, 0, 0, 1
-0.00038138, 0, 0, 1, 0, 1
-0.00038128, 1, 0, 1, 0, 1
-0.00038116, 0, 0, 1, 0, 1
-0.00038104, 1, 0, 1, 0, 1
-0.00038092, 0, 0, 1, 0, 1
-0.00038078, 1, 0, 1, 0, 1
-0.00038066, 0, 0, 1, 0, 1
-0.00038054, 1, 0, 1, 0, 1
-0.00038042, 0, 0, 1, 0, 1
-0.00038038, 0, 0, 0, 0, 1
-0.00038028, 1, 0, 0, 0, 1
-0.00038016, 0, 0, 0, 0, 1
-0.00038004, 1, 0, 0, 0, 1
-0.00037992, 0, 0, 0, 0, 1
-0.00037978, 1, 0, 0, 0, 1
-0.00037966, 0, 0, 0, 0, 1
-0.00037964, 0, 0, 1, 0, 1
-0.00037954, 1, 0, 1, 0, 1
-0.00037942, 0, 0, 1, 0, 1
-0.00037938, 0, 0, 0, 0, 1
-0.00037928, 1, 0, 0, 0, 1
-0.00037916, 0, 0, 0, 0, 1
-0.00037904, 1, 0, 0, 0, 1
-0.00037892, 0, 0, 0, 0, 1
-0.00037878, 1, 0, 0, 0, 1
-0.00037866, 0, 0, 0, 0, 1
-0.00037864, 0, 0, 1, 0, 1
-0.00037854, 1, 0, 1, 0, 1
-0.00037842, 0, 0, 1, 0, 1
-0.00037838, 0, 0, 0, 0, 1
-0.00037828, 1, 0, 0, 0, 1
-0.00037816, 0, 0, 0, 0, 1
-0.00037804, 1, 0, 0, 0, 1
-0.00037792, 0, 0, 0, 0, 1
-0.00037788, 0, 0, 1, 0, 1
-0.00037778, 1, 0, 1, 0, 1
-0.00037766, 0, 0, 1, 0, 1
-0.00037764, 0, 0, 0, 0, 1
-0.00037754, 1, 0, 0, 0, 1
-0.00037742, 0, 0, 0, 0, 1
-0.00037738, 0, 0, 1, 0, 1
-0.00037728, 1, 0, 1, 0, 1
-0.00037716, 0, 0, 1, 0, 1
-0.00037704, 1, 0, 1, 0, 1
-0.00037692, 0, 0, 1, 0, 1
-0.00037688, 0, 0, 0, 0, 1
-0.00037678, 1, 0, 0, 0, 1
-0.00037666, 0, 0, 0, 0, 1
-0.00037664, 0, 0, 1, 0, 1
-0.00037654, 1, 0, 1, 0, 1
-0.00037642, 0, 0, 1, 0, 1
-0.00037638, 0, 0, 0, 0, 1
-0.00037628, 1, 0, 0, 0, 1
-0.00037616, 0, 0, 0, 0, 1
-0.00037614, 0, 1, 0, 0, 1
-0.00037604, 1, 1, 0, 0, 1
-0.00037592, 0, 1, 0, 0, 1
-0.00037590, 0, 0, 0, 0, 1
-0.00037578, 1, 0, 0, 0, 1
-0.00037566, 0, 0, 0, 0, 1
