Time [s],Packet ID,MOSI,MISO
0.272830140,0,0x83,0x05
0.272835420,0,0x80,0x30
0.272841280,1,0x03,0x05
0.272846560,1,0x20,0x30
0.272858640,2,0x80,0x05
0.272860600,2,0x85,0x88
0.272862560,2,0x86,0x00
0.272864540,2,0x87,0x00
0.272866500,2,0x88,0x00
0.272868480,2,0x96,0x00
0.272870440,2,0x80,0x20
0.273895400,3,0x80,0x04
0.273897400,3,0x85,0x88
0.273899400,3,0x86,0x00
0.273901400,3,0x87,0x00
0.273903400,3,0x88,0x00
0.273905400,3,0x96,0x00
0.273907400,3,0x80,0x20
0.274477760,4,0x0B,0x04
0.274483040,4,0x70,0x70
0.274488760,5,0x83,0x04
0.274494060,5,0x80,0x20
0.274499900,6,0x03,0x04
0.274505180,6,0x30,0x20
0.762826120,8,0x83,0x05
0.762831420,8,0x80,0x30
0.762837260,9,0x03,0x05
0.762842560,9,0x20,0x30
0.762854640,10,0x80,0x05
0.762856600,10,0x85,0x88
0.762858580,10,0x86,0x00
0.762860540,10,0x87,0x00
0.762862520,10,0x88,0x00
0.762864480,10,0x96,0x00
0.762866460,10,0x80,0x20
0.763472260,11,0x0B,0x04
0.763477540,11,0x70,0x70
0.763483260,12,0x83,0x04
0.763488560,12,0x80,0x20
0.763494400,13,0x03,0x04
0.763499700,13,0x30,0x20
1.251848900,15,0x83,0x05
1.251854200,15,0x80,0x30
1.251860060,16,0x03,0x05
1.251865360,16,0x20,0x30
1.251877440,17,0x80,0x05
1.251879420,17,0x85,0x88
1.251881380,17,0x86,0x00
1.251883360,17,0x87,0x00
1.251885320,17,0x88,0x00
1.251887300,17,0x96,0x00
1.251889280,17,0x80,0x20
1.252914560,18,0x80,0x04
1.252916560,18,0x85,0x88
1.252918560,18,0x86,0x00
1.252920560,18,0x87,0x00
1.252922560,18,0x88,0x00
1.252924560,18,0x96,0x00
1.252926560,18,0x80,0x20
1.253498960,19,0x0B,0x04
1.253504260,19,0x70,0x70
1.253509980,20,0x83,0x04
1.253515280,20,0x80,0x20
1.253521140,21,0x03,0x04
1.253526440,21,0x30,0x20
1.741842120,23,0x83,0x05
1.741847420,23,0x80,0x30
1.741853260,24,0x03,0x05
1.741858560,24,0x20,0x30
1.741870640,25,0x80,0x05
1.741872600,25,0x85,0x88
1.741874580,25,0x86,0x00
1.741876540,25,0x87,0x00
1.741878500,25,0x88,0x00
1.741880480,25,0x96,0x00
1.741882440,25,0x80,0x20
1.742488560,26,0x0B,0x04
1.742493860,26,0x70,0x70
1.742499580,27,0x83,0x04
1.742504880,27,0x80,0x20
1.742510720,28,0x03,0x04
1.742516020,28,0x30,0x20
2.230864400,30,0x83,0x05
2.230869700,30,0x80,0x30
2.230875540,31,0x03,0x05
2.230880840,31,0x20,0x30
2.230892920,32,0x80,0x05
2.230894880,32,0x85,0x88
2.230896860,32,0x86,0x00
2.230898820,32,0x87,0x00
2.230900800,32,0x88,0x00
2.230902760,32,0x96,0x00
2.230904740,32,0x80,0x20
2.231929940,33,0x80,0x04
2.231931940,33,0x85,0x88
2.231933940,33,0x86,0x00
2.231935940,33,0x87,0x00
2.231937940,33,0x88,0x00
2.231939940,33,0x96,0x00
2.231941940,33,0x80,0x20
2.232513380,34,0x0B,0x04
2.232518680,34,0x70,0x70
2.232524400,35,0x83,0x04
2.232529700,35,0x80,0x20
2.232535560,36,0x03,0x04
2.232540840,36,0x30,0x20
2.720849640,38,0x83,0x05
2.720854940,38,0x80,0x30
2.720860780,39,0x03,0x05
2.720866080,39,0x20,0x30
2.720878160,40,0x80,0x05
2.720880120,40,0x85,0x88
2.720882100,40,0x86,0x00
2.720884060,40,0x87,0x00
2.720886040,40,0x88,0x00
2.720888000,40,0x96,0x00
2.720889980,40,0x80,0x20
2.721496360,41,0x0B,0x04
2.721501660,41,0x70,0x70
2.721507380,42,0x83,0x04
2.721512680,42,0x80,0x20
2.721518540,43,0x03,0x04
2.721523840,43,0x30,0x20
3.209857680,45,0x83,0x05
3.209862980,45,0x80,0x30
3.209868840,46,0x03,0x05
3.209874140,46,0x20,0x30
3.209886240,47,0x80,0x05
3.209888200,47,0x85,0x88
3.209890180,47,0x86,0x00
3.209892140,47,0x87,0x00
3.209894120,47,0x88,0x00
3.209896080,47,0x96,0x00
3.209898060,47,0x80,0x20
3.210923840,48,0x80,0x04
3.210925840,48,0x85,0x88
3.210927840,48,0x86,0x00
3.210929840,48,0x87,0x00
3.210931840,48,0x88,0x00
3.210933840,48,0x96,0x00
3.210935840,48,0x80,0x20
3.211507220,49,0x0B,0x04
3.211512520,49,0x70,0x70
3.211518240,50,0x83,0x04
3.211523540,50,0x80,0x20
3.211529400,51,0x03,0x04
3.211534680,51,0x30,0x20
3.699847980,53,0x83,0x05
3.699853280,53,0x80,0x30
3.699859140,54,0x03,0x05
3.699864440,54,0x20,0x30
3.699876520,55,0x80,0x05
3.699878500,55,0x85,0x88
3.699880460,55,0x86,0x00
3.699882440,55,0x87,0x00
3.699884420,55,0x88,0x00
3.699886380,55,0x96,0x00
3.699888360,55,0x80,0x20
3.700495020,56,0x0B,0x04
3.700500320,56,0x70,0x70
3.700506060,57,0x83,0x04
3.700511360,57,0x80,0x20
3.700517220,58,0x03,0x04
3.700522520,58,0x30,0x20
4.188859440,60,0x83,0x05
4.188864740,60,0x80,0x30
4.188870600,61,0x03,0x05
4.188875900,61,0x20,0x30
4.188887980,62,0x80,0x05
4.188889960,62,0x85,0x88
4.188891920,62,0x86,0x00
4.188893900,62,0x87,0x00
4.188895860,62,0x88,0x00
4.188897840,62,0x96,0x00
4.188899820,62,0x80,0x20
4.189925320,63,0x80,0x04
4.189927320,63,0x85,0x88
4.189929320,63,0x86,0x00
4.189931320,63,0x87,0x00
4.189933320,63,0x88,0x00
4.189935320,63,0x96,0x00
4.189937320,63,0x80,0x20
4.190508940,64,0x0B,0x04
4.190514240,64,0x70,0x70
4.190519980,65,0x83,0x04
4.190525300,65,0x80,0x20
4.190531140,66,0x03,0x04
4.190536440,66,0x30,0x20
4.678845920,68,0x83,0x05
4.678851200,68,0x80,0x30
4.678857060,69,0x03,0x05
4.678862340,69,0x20,0x30
4.678874420,70,0x80,0x05
4.678876400,70,0x85,0x88
4.678878360,70,0x86,0x00
4.678880340,70,0x87,0x00
4.678882300,70,0x88,0x00
4.678884280,70,0x96,0x00
4.678886240,70,0x80,0x20
4.679491840,71,0x0B,0x04
4.679497120,71,0x70,0x70
4.679502840,72,0x83,0x04
4.679508140,72,0x80,0x20
4.679513980,73,0x03,0x04
4.679519280,73,0x30,0x20
5.167871060,75,0x83,0x05
5.167876360,75,0x80,0x30
5.167882220,76,0x03,0x05
5.167887500,76,0x20,0x30
5.167899580,77,0x80,0x05
5.167901560,77,0x85,0x88
5.167903520,77,0x86,0x00
5.167905500,77,0x87,0x00
5.167907480,77,0x88,0x00
5.167909440,77,0x96,0x00
5.167911420,77,0x80,0x20
5.168936560,78,0x80,0x04
5.168938560,78,0x85,0x88
5.168940580,78,0x86,0x00
5.168942580,78,0x87,0x00
5.168944580,78,0x88,0x00
5.168946580,78,0x96,0x00
5.168948580,78,0x80,0x20
5.169519820,79,0x0B,0x04
5.169525100,79,0x70,0x70
5.169530840,80,0x83,0x04
5.169536140,80,0x80,0x20
5.169541980,81,0x03,0x04
5.169547260,81,0x30,0x20
5.657877340,83,0x83,0x05
5.657882640,83,0x80,0x30
5.657888480,84,0x03,0x05
5.657893780,84,0x20,0x30
5.657905880,85,0x80,0x05
5.657907860,85,0x85,0x88
5.657909820,85,0x86,0x00
5.657911800,85,0x87,0x00
5.657913780,85,0x88,0x00
5.657915740,85,0x96,0x00
5.657917720,85,0x80,0x20
5.658524420,86,0x0B,0x04
5.658529740,86,0x70,0x70
5.658535460,87,0x83,0x04
5.658540760,87,0x80,0x20
5.658546620,88,0x03,0x04
5.658551920,88,0x30,0x20
6.146912920,90,0x83,0x05
6.146918220,90,0x80,0x30
6.146924060,91,0x03,0x05
6.146929360,91,0x20,0x30
6.146941460,92,0x80,0x05
6.146943420,92,0x85,0x88
6.146945400,92,0x86,0x00
6.146947360,92,0x87,0x00
6.146949340,92,0x88,0x00
6.146951320,92,0x96,0x00
6.146953300,92,0x80,0x20
6.147979100,93,0x80,0x04
6.147981100,93,0x85,0x88
6.147983100,93,0x86,0x00
6.147985100,93,0x87,0x00
6.147987100,93,0x88,0x00
6.147989100,93,0x96,0x00
6.147991100,93,0x80,0x20
6.148562700,94,0x0B,0x04
6.148568000,94,0x70,0x70
6.148573720,95,0x83,0x04
6.148579040,95,0x80,0x20
6.148584880,96,0x03,0x04
6.148590180,96,0x30,0x20
6.636912520,98,0x83,0x05
6.636917820,98,0x80,0x30
6.636923660,99,0x03,0x05
6.636928960,99,0x20,0x30
6.636941060,100,0x80,0x05
6.636943020,100,0x85,0x88
6.636945000,100,0x86,0x00
6.636946960,100,0x87,0x00
6.636948940,100,0x88,0x00
6.636950900,100,0x96,0x00
6.636952880,100,0x80,0x20
6.637559520,101,0x0B,0x05
6.637564820,101,0x70,0x70
6.637570540,102,0x83,0x05
6.637575840,102,0x80,0x20
6.637581700,103,0x03,0x05
6.637587000,103,0x30,0x20
7.125942080,105,0x83,0x05
7.125947380,105,0x80,0x30
7.125953220,106,0x03,0x05
7.125958520,106,0x20,0x30
7.125970580,107,0x80,0x05
7.125972560,107,0x85,0x88
7.125974520,107,0x86,0x00
7.125976500,107,0x87,0x00
7.125978460,107,0x88,0x00
7.125980440,107,0x96,0x00
7.125982400,107,0x80,0x20
7.127008700,108,0x80,0x04
7.127010700,108,0x85,0x88
7.127012700,108,0x86,0x00
7.127014700,108,0x87,0x00
7.127016700,108,0x88,0x00
7.127018700,108,0x96,0x00
7.127020700,108,0x80,0x20
7.127591300,109,0x0B,0x04
7.127596580,109,0x70,0x70
7.127602320,110,0x83,0x04
7.127607620,110,0x80,0x20
7.127613480,111,0x03,0x04
7.127618760,111,0x30,0x20
7.615949960,113,0x83,0x05
7.615955260,113,0x80,0x30
7.615961120,114,0x03,0x05
7.615966420,114,0x20,0x30
7.615978500,115,0x80,0x05
7.615980480,115,0x85,0x88
7.615982440,115,0x86,0x00
7.615984420,115,0x87,0x00
7.615986400,115,0x88,0x00
7.615988360,115,0x96,0x00
7.615990340,115,0x80,0x20
7.616597380,116,0x0B,0x04
7.616602680,116,0x70,0x70
7.616608420,117,0x83,0x04
7.616613720,117,0x80,0x20
7.616619580,118,0x03,0x04
7.616624900,118,0x30,0x20
8.104982200,120,0x83,0x05
8.104987500,120,0x80,0x30
8.104993360,121,0x03,0x05
8.104998660,121,0x20,0x30
8.105010740,122,0x80,0x05
8.105012700,122,0x85,0x88
8.105014680,122,0x86,0x00
8.105016660,122,0x87,0x00
8.105018620,122,0x88,0x00
8.105020600,122,0x96,0x00
8.105022580,122,0x80,0x20
8.106049000,123,0x80,0x04
8.106051000,123,0x85,0x88
8.106053000,123,0x86,0x00
8.106055000,123,0x87,0x00
8.106057000,123,0x88,0x00
8.106059000,123,0x96,0x00
8.106061000,123,0x80,0x20
8.106632640,124,0x0B,0x04
8.106637940,124,0x70,0x70
8.106643660,125,0x83,0x04
8.106648980,125,0x80,0x20
8.106654820,126,0x03,0x04
8.106660120,126,0x30,0x20
8.594977620,128,0x83,0x05
8.594982920,128,0x80,0x30
8.594988760,129,0x03,0x05
8.594994080,129,0x20,0x30
8.595006160,130,0x80,0x05
8.595008120,130,0x85,0x88
8.595010100,130,0x86,0x00
8.595012060,130,0x87,0x00
8.595014040,130,0x88,0x00
8.595016020,130,0x96,0x00
8.595017980,130,0x80,0x20
8.595624920,131,0x0B,0x04
8.595630220,131,0x70,0x70
8.595635960,132,0x83,0x04
8.595641260,132,0x80,0x20
8.595647120,133,0x03,0x04
8.595652420,133,0x30,0x20
9.083996400,135,0x83,0x05
9.084001700,135,0x80,0x30
9.084007540,136,0x03,0x05
9.084012840,136,0x20,0x30
9.084024920,137,0x80,0x05
9.084026900,137,0x85,0x88
9.084028860,137,0x86,0x00
9.084030840,137,0x87,0x00
9.084032800,137,0x88,0x00
9.084034780,137,0x96,0x00
9.084036760,137,0x80,0x20
9.085062420,138,0x80,0x04
9.085064420,138,0x85,0x88
9.085066420,138,0x86,0x00
9.085068420,138,0x87,0x00
9.085070420,138,0x88,0x00
9.085072420,138,0x96,0x00
9.085074420,138,0x80,0x20
9.085645860,139,0x0B,0x04
9.085651160,139,0x70,0x70
9.085656880,140,0x83,0x04
9.085662180,140,0x80,0x20
9.085668040,141,0x03,0x04
9.085673340,141,0x30,0x20
9.573992680,143,0x83,0x05
9.573997980,143,0x80,0x30
9.574003820,144,0x03,0x05
9.574009120,144,0x20,0x30
9.574021200,145,0x80,0x05
9.574023180,145,0x85,0x88
9.574025140,145,0x86,0x00
9.574027120,145,0x87,0x00
9.574029080,145,0x88,0x00
9.574031060,145,0x96,0x00
9.574033040,145,0x80,0x20
9.574639340,146,0x0B,0x04
9.574644640,146,0x70,0x70
9.574650360,147,0x83,0x04
9.574655640,147,0x80,0x20
9.574661500,148,0x03,0x04
9.574666800,148,0x30,0x20
