Time [s],Packet ID,MOSI,MISO
0.001784600,0,0x0A,0xC1
0.001789880,0,0x40,0xAA
0.002782000,1,0x2A,0x10
0.002787300,1,0xCF,0x00
0.002823120,1,0x2B,0xCF
0.002828420,1,0x06,0x00
0.002864240,1,0x2C,0x06
0.002869540,1,0x08,0x00
0.002905360,1,0x2D,0x00
0.002910660,1,0x00,0x00
0.002946720,1,0x2E,0x00
0.002952020,1,0x1E,0x35
0.002957740,1,0x2F,0x35
0.002963020,1,0x6C,0x32
0.002968860,1,0x2E,0x32
0.002974160,1,0x81,0xF0
0.002979880,1,0x2F,0xF0
0.002985180,1,0xD7,0x00
0.002991080,1,0x2E,0x00
0.002996380,1,0xF0,0xF0
0.003002100,1,0x2F,0xF0
0.003007380,1,0x00,0x00
0.003013240,1,0x2E,0x00
0.003018520,1,0x82,0xF0
0.003024260,1,0x2F,0xF0
0.003029540,1,0xA9,0x00
0.003035380,1,0x2E,0x00
0.003040680,1,0xF0,0xF0
0.003046400,1,0x2F,0xF0
0.003051680,1,0x00,0x00
0.003057520,1,0x2E,0x00
0.003062820,1,0xF8,0xF0
0.003068540,1,0x2F,0xF0
0.003073840,1,0x03,0x00
0.003079740,1,0x2E,0x00
0.003085040,1,0x64,0xF0
0.003090760,1,0x2F,0xF0
0.003096060,1,0x41,0x00
0.003101900,1,0x2E,0x00
0.003107200,1,0xF8,0xF0
0.003112920,1,0x2F,0xF0
0.003118220,1,0x08,0x00
0.003124080,1,0x2E,0x00
0.003129360,1,0x60,0xF0
0.003135080,1,0x2F,0xF0
0.003140360,1,0xD0,0x00
0.003146220,1,0x2E,0x00
0.003151520,1,0x35,0xF0
0.003157240,1,0x2F,0xF0
0.003162540,1,0x81,0x00
0.003168460,1,0x2E,0x00
0.003173740,1,0x80,0xF0
0.003179460,1,0x2F,0xF0
0.003184760,1,0x90,0x00
0.003190600,1,0x2E,0x00
0.003195900,1,0x3F,0xF0
0.003201620,1,0x2F,0xF0
0.003206920,1,0x00,0x00
0.003212760,1,0x2E,0x00
0.003218060,1,0xE0,0xF0
0.003223780,1,0x2F,0xF0
0.003229060,1,0xF0,0x00
0.003234920,1,0x2E,0x00
0.003240200,1,0x81,0xF0
0.003245940,1,0x2F,0xF0
0.003251220,1,0xA1,0x00
0.003257120,1,0x2E,0x00
0.003262420,1,0x67,0xF0
0.003268160,1,0x2F,0xF0
0.003273440,1,0x6A,0x00
0.003279300,1,0x2E,0x00
0.003284580,1,0xC9,0xF0
0.003290320,1,0x2F,0xF0
0.003295600,1,0x00,0x00
0.003301460,1,0x2E,0x00
0.003306740,1,0x88,0xF0
0.003312480,1,0x2F,0xF0
0.003317780,1,0xC8,0x00
0.003323620,1,0x2E,0x00
0.003328920,1,0xF0,0xF0
0.003334660,1,0x2F,0xF0
0.003339960,1,0x00,0x00
0.003345860,1,0x2E,0x00
0.003351160,1,0xF8,0xF0
0.003356880,1,0x2F,0xF0
0.003362180,1,0x03,0x00
0.003368020,1,0x2E,0x00
0.003373320,1,0x80,0xF0
0.003379040,1,0x2F,0xF0
0.003384340,1,0x98,0x00
0.003390200,1,0x2E,0x00
0.003395480,1,0xF0,0xF0
0.003401200,1,0x2F,0xF0
0.003406500,1,0x00,0x00
0.003412360,1,0x2E,0x00
0.003417640,1,0x80,0xF0
0.003423360,1,0x2F,0xF0
0.003428660,1,0x98,0x00
0.003434580,1,0x2E,0x00
0.003439880,1,0x60,0xF0
0.003445600,1,0x2F,0xF0
0.003450880,1,0x60,0x00
0.003456740,1,0x2E,0x00
0.003462040,1,0xF8,0xF0
0.003467760,1,0x2F,0xF0
0.003473060,1,0x00,0x00
0.003478900,1,0x2E,0x00
0.003484200,1,0x80,0xF0
0.003489920,1,0x2F,0xF0
0.003495220,1,0xAB,0x00
0.003501060,1,0x2E,0x00
0.003506360,1,0xF0,0xF0
0.003512100,1,0x2F,0xF0
0.003517380,1,0x00,0x00
0.003523300,1,0x2E,0x00
0.003528600,1,0x80,0xF0
0.003534320,1,0x2F,0xF0
0.003539620,1,0xAF,0x00
0.003545460,1,0x2E,0x00
0.003550760,1,0xF0,0xF0
0.003556500,1,0x2F,0xF0
0.003561800,1,0x00,0x00
0.003567640,1,0x2E,0x00
0.003572940,1,0x88,0xF0
0.003578660,1,0x2F,0xF0
0.003583960,1,0x20,0x00
0.003589820,1,0x2E,0x00
0.003595100,1,0xF0,0xF0
0.003600840,1,0x2F,0xF0
0.003606140,1,0x00,0x00
0.003612040,1,0x2E,0x00
0.003617340,1,0xF8,0xF0
0.003623060,1,0x2F,0xF0
0.003628380,1,0x05,0x00
0.003634220,1,0x2E,0x00
0.003639520,1,0x80,0xF0
0.003645240,1,0x2F,0xF0
0.003650540,1,0x1B,0x00
0.003656400,1,0x2E,0x00
0.003661680,1,0xF0,0xF0
0.003667420,1,0x2F,0xF0
0.003672720,1,0x00,0x00
0.003678560,1,0x2E,0x00
0.003683860,1,0xF8,0xF0
0.003689580,1,0x2F,0xF0
0.003694880,1,0x02,0x00
0.003700800,1,0x2E,0x00
0.003706100,1,0x80,0xF0
0.003711820,1,0x2F,0xF0
0.003717100,1,0x66,0x00
0.003722960,1,0x2E,0x00
0.003728260,1,0xF0,0xF0
0.003733980,1,0x2F,0xF0
0.003739280,1,0x00,0x00
0.003745120,1,0x2E,0x00
0.003750420,1,0xC9,0xF0
0.003756140,1,0x2F,0xF0
0.003761440,1,0x00,0x00
0.003767280,1,0x2E,0x00
0.003772580,1,0x8C,0xF0
0.003778320,1,0x2F,0xF0
0.003783600,1,0x03,0x00
0.003789520,1,0x2E,0x00
0.003794800,1,0xF0,0xF0
0.003800540,1,0x2F,0xF0
0.003805820,1,0x00,0x00
0.003811660,1,0x2E,0x00
0.003816960,1,0x60,0xF0
0.003822680,1,0x2F,0xF0
0.003827980,1,0x01,0x00
0.003833820,1,0x2E,0x00
0.003839120,1,0x60,0xF0
0.003844840,1,0x2F,0xF0
0.003850140,1,0x02,0x00
0.003855980,1,0x2E,0x00
0.003861280,1,0xF8,0xF0
0.003867000,1,0x2F,0xF0
0.003872300,1,0x05,0x00
0.003878220,1,0x2E,0x00
0.003883500,1,0x80,0xF0
0.003889220,1,0x2F,0xF0
0.003894520,1,0x24,0x00
0.003900380,1,0x2E,0x00
0.003905660,1,0x64,0xF0
0.003911400,1,0x2F,0xF0
0.003916680,1,0x00,0x00
0.003922540,1,0x2E,0x00
0.003927820,1,0xF8,0xF0
0.003933560,1,0x2F,0xF0
0.003938840,1,0x01,0x00
0.003944700,1,0x2E,0x00
0.003950000,1,0x80,0xF0
0.003955720,1,0x2F,0xF0
0.003961020,1,0x79,0x00
0.003966920,1,0x2E,0x00
0.003972220,1,0x3A,0xF0
0.003977940,1,0x2F,0xF0
0.003983240,1,0x00,0x00
0.003989100,1,0x2E,0x00
0.003994400,1,0xF8,0xF0
0.004000100,1,0x2F,0xF0
0.004005400,1,0x04,0x00
0.004011260,1,0x2E,0x00
0.004016560,1,0x80,0xF0
0.004022280,1,0x2F,0xF0
0.004027560,1,0x00,0x00
0.004033420,1,0x2E,0x00
0.004038720,1,0xF0,0xF0
0.004044440,1,0x2F,0xF0
0.004049740,1,0x00,0x00
0.004055640,1,0x2E,0x00
0.004060940,1,0x39,0xF0
0.004066680,1,0x2F,0xF0
0.004071960,1,0x73,0x00
0.004077820,1,0x2E,0x00
0.004083100,1,0x60,0xF0
0.004088840,1,0x2F,0xF0
0.004094140,1,0x00,0x00
0.004099980,1,0x2E,0x00
0.004105260,1,0x3A,0xF0
0.004111000,1,0x2F,0xF0
0.004116300,1,0x10,0x00
0.004122140,1,0x2E,0x00
0.004127440,1,0x3A,0xF0
0.004133160,1,0x2F,0xF0
0.004138460,1,0x20,0x00
0.004144360,1,0x2E,0x00
0.004149660,1,0xF8,0xF0
0.004155380,1,0x2F,0xF0
0.004160680,1,0x02,0x00
0.004166520,1,0x2E,0x00
0.004171820,1,0x80,0xF0
0.004177540,1,0x2F,0xF0
0.004182840,1,0x11,0x00
0.004188680,1,0x2E,0x00
0.004193980,1,0xF0,0xF0
0.004199700,1,0x2F,0xF0
0.004205000,1,0x00,0x00
0.004210860,1,0x2E,0x00
0.004216140,1,0xF8,0xF0
0.004221880,1,0x2F,0xF0
0.004227180,1,0x08,0x00
0.004233100,1,0x2E,0x00
0.004238400,1,0x64,0xF0
0.004244120,1,0x2F,0xF0
0.004249420,1,0xD0,0x00
0.004255280,1,0x2E,0x00
0.004260580,1,0x3F,0xF0
0.004266300,1,0x2F,0xF0
0.004271600,1,0x00,0x00
0.004277440,1,0x2E,0x00
0.004282760,1,0xE0,0xF0
0.004288480,1,0x2F,0xF0
0.004293780,1,0xF0,0x00
0.004299620,1,0x2E,0x00
0.004304940,1,0x60,0xF0
0.004310660,1,0x2F,0xF0
0.004315960,1,0x00,0x00
0.004321860,1,0x2E,0x00
0.004327160,1,0x3A,0xF0
0.004332900,1,0x2F,0xF0
0.004338180,1,0x10,0x00
0.004344040,1,0x2E,0x00
0.004349320,1,0x3A,0xF0
0.004355060,1,0x2F,0xF0
0.004360340,1,0x20,0x00
0.004366180,1,0x2E,0x00
0.004371480,1,0x60,0xF0
0.004377220,1,0x2F,0xF0
0.004382500,1,0x50,0x00
0.004388360,1,0x2E,0x00
0.004393640,1,0x64,0xF0
0.004399360,1,0x2F,0xF0
0.004404660,1,0x01,0x00
0.004410580,1,0x2E,0x00
0.004415860,1,0x3B,0xF0
0.004421580,1,0x2F,0xF0
0.004426880,1,0x00,0x00
0.004432740,1,0x2E,0x00
0.004438020,1,0xF8,0xF0
0.004443740,1,0x2F,0xF0
0.004449040,1,0x08,0x00
0.004454900,1,0x2E,0x00
0.004460180,1,0x60,0xF0
0.004465900,1,0x2F,0xF0
0.004471200,1,0xD0,0x00
0.004477040,1,0x2E,0x00
0.004482340,1,0x3A,0xF0
0.004488060,1,0x2F,0xF0
0.004493360,1,0x01,0x00
0.004499280,1,0x2E,0x00
0.004504560,1,0x3F,0xF0
0.004510280,1,0x2F,0xF0
0.004515580,1,0x00,0x00
0.004521420,1,0x2E,0x00
0.004526720,1,0xF8,0xF0
0.004532440,1,0x2F,0xF0
0.004537740,1,0x22,0x00
0.004543580,1,0x2E,0x00
0.004548880,1,0x6F,0xF0
0.004554600,1,0x2F,0xF0
0.004559900,1,0x7C,0x00
0.004565740,1,0x2E,0x00
0.004571040,1,0xF8,0xF0
0.004576760,1,0x2F,0xF0
0.004582060,1,0x02,0x00
0.004587960,1,0x2E,0x00
0.004593240,1,0x80,0xF0
0.004598980,1,0x2F,0xF0
0.004604260,1,0x4A,0x00
0.004610100,1,0x2E,0x00
0.004615400,1,0xF0,0xF0
0.004621120,1,0x2F,0xF0
0.004626420,1,0x00,0x00
0.004632260,1,0x2E,0x00
0.004637560,1,0xE0,0xF0
0.004643280,1,0x2F,0xF0
0.004648580,1,0xF0,0x00
0.004654420,1,0x2E,0x00
0.004659700,1,0x81,0xF0
0.004665440,1,0x2F,0xF0
0.004670740,1,0x61,0x00
0.004676640,1,0x2E,0x00
0.004681920,1,0x67,0xF0
0.004687660,1,0x2F,0xF0
0.004692960,1,0x6A,0x00
0.004698800,1,0x2E,0x00
0.004704080,1,0xC9,0xF0
0.004709820,1,0x2F,0xF0
0.004715100,1,0x00,0x00
0.004720960,1,0x2E,0x00
0.004726260,1,0x88,0xF0
0.004731980,1,0x2F,0xF0
0.004737280,1,0x88,0x00
0.004743120,1,0x2E,0x00
0.004748420,1,0xF0,0xF0
0.004754140,1,0x2F,0xF0
0.004759440,1,0x00,0x00
0.004765360,1,0x2E,0x00
0.004770640,1,0xF8,0xF0
0.004776360,1,0x2F,0xF0
0.004781660,1,0x03,0x00
0.004787520,1,0x2E,0x00
0.004792820,1,0x80,0xF0
0.004798540,1,0x2F,0xF0
0.004803840,1,0x98,0x00
0.004809700,1,0x2E,0x00
0.004815000,1,0xF0,0xF0
0.004820720,1,0x2F,0xF0
0.004826020,1,0x00,0x00
0.004831880,1,0x2E,0x00
0.004837180,1,0x80,0xF0
0.004842900,1,0x2F,0xF0
0.004848200,1,0x58,0x00
0.004854100,1,0x2E,0x00
0.004859420,1,0x60,0xF0
0.004865140,1,0x2F,0xF0
0.004870440,1,0x60,0x00
0.004876280,1,0x2E,0x00
0.004881580,1,0xF8,0xF0
0.004887300,1,0x2F,0xF0
0.004892600,1,0x00,0x00
0.004898440,1,0x2E,0x00
0.004903740,1,0x80,0xF0
0.004909480,1,0x2F,0xF0
0.004914780,1,0xAB,0x00
0.004920620,1,0x2E,0x00
0.004925920,1,0xF0,0xF0
0.004931640,1,0x2F,0xF0
0.004936940,1,0x00,0x00
0.004942840,1,0x2E,0x00
0.004948140,1,0x80,0xF0
0.004953860,1,0x2F,0xF0
0.004959160,1,0x6F,0x00
0.004965000,1,0x2E,0x00
0.004970300,1,0xF0,0xF0
0.004976020,1,0x2F,0xF0
0.004981320,1,0x00,0x00
0.004987160,1,0x2E,0x00
0.004992440,1,0x8B,0xF0
0.004998180,1,0x2F,0xF0
0.005003460,1,0xE0,0x00
0.005009320,1,0x2E,0x00
0.005014600,1,0xF0,0xF0
0.005020320,1,0x2F,0xF0
0.005025620,1,0x00,0x00
0.005031540,1,0x2E,0x00
0.005036840,1,0xF8,0xF0
0.005042560,1,0x2F,0xF0
0.005047860,1,0x05,0x00
0.005053700,1,0x2E,0x00
0.005059000,1,0x80,0xF0
0.005064720,1,0x2F,0xF0
0.005070020,1,0x1B,0x00
0.005075860,1,0x2E,0x00
0.005081160,1,0xF0,0xF0
0.005086880,1,0x2F,0xF0
0.005092160,1,0x00,0x00
0.005098020,1,0x2E,0x00
0.005103320,1,0xF8,0xF0
0.005109040,1,0x2F,0xF0
0.005114320,1,0x02,0x00
0.005120240,1,0x2E,0x00
0.005125540,1,0x80,0xF0
0.005131260,1,0x2F,0xF0
0.005136560,1,0x66,0x00
0.005142400,1,0x2E,0x00
0.005147680,1,0xF0,0xF0
0.005153420,1,0x2F,0xF0
0.005158700,1,0x00,0x00
0.005164540,1,0x2E,0x00
0.005169840,1,0xC9,0xF0
0.005175580,1,0x2F,0xF0
0.005180860,1,0x00,0x00
0.005186700,1,0x2E,0x00
0.005192000,1,0x8C,0xF0
0.005197720,1,0x2F,0xF0
0.005203020,1,0x03,0x00
0.005208940,1,0x2E,0x00
0.005214220,1,0xF0,0xF0
0.005219960,1,0x2F,0xF0
0.005225260,1,0x00,0x00
0.005231100,1,0x2E,0x00
0.005236400,1,0x60,0xF0
0.005242120,1,0x2F,0xF0
0.005247420,1,0x01,0x00
0.005253260,1,0x2E,0x00
0.005258560,1,0x60,0xF0
0.005264280,1,0x2F,0xF0
0.005269580,1,0x02,0x00
0.005275420,1,0x2E,0x00
0.005280700,1,0xF8,0xF0
0.005286440,1,0x2F,0xF0
0.005291740,1,0x05,0x00
0.005297640,1,0x2E,0x00
0.005302940,1,0x80,0xF0
0.005308660,1,0x2F,0xF0
0.005313960,1,0x24,0x00
0.005319800,1,0x2E,0x00
0.005325100,1,0xF0,0xF0
0.005330820,1,0x2F,0xF0
0.005336120,1,0x00,0x00
0.005341960,1,0x2E,0x00
0.005347260,1,0xF8,0xF0
0.005352980,1,0x2F,0xF0
0.005358260,1,0x04,0x00
0.005364120,1,0x2E,0x00
0.005369420,1,0x80,0xF0
0.005375140,1,0x2F,0xF0
0.005380420,1,0x00,0x00
0.005386320,1,0x2E,0x00
0.005391620,1,0xF0,0xF0
0.005397340,1,0x2F,0xF0
0.005402640,1,0x00,0x00
0.005408480,1,0x2E,0x00
0.005413780,1,0x80,0xF0
0.005419500,1,0x2F,0xF0
0.005424800,1,0x53,0x00
0.005430640,1,0x2E,0x00
0.005435920,1,0x39,0xF0
0.005441660,1,0x2F,0xF0
0.005446940,1,0x73,0x00
0.005452800,1,0x2E,0x00
0.005458100,1,0x82,0xF0
0.005463820,1,0x2F,0xF0
0.005469120,1,0x5D,0x00
0.005475020,1,0x2E,0x00
0.005480320,1,0xF0,0xF0
0.005486040,1,0x2F,0xF0
0.005491340,1,0x00,0x00
0.005497180,1,0x2E,0x00
0.005502460,1,0x11,0xF0
0.005508200,1,0x2F,0xF0
0.005513500,1,0x03,0x00
0.005519340,1,0x2E,0x00
0.005524620,1,0x94,0xF0
0.005530360,1,0x2F,0xF0
0.005535660,1,0x1A,0x00
0.005541500,1,0x2E,0x00
0.005546800,1,0x60,0xF0
0.005552520,1,0x2F,0xF0
0.005557820,1,0x00,0x00
0.005563720,1,0x2E,0x00
0.005569020,1,0xF8,0xF0
0.005574740,1,0x2F,0xF0
0.005580040,1,0x03,0x00
0.005585900,1,0x2E,0x00
0.005591180,1,0xE5,0xF0
0.005596900,1,0x2F,0xF0
0.005602200,1,0xA5,0x00
0.005608040,1,0x2E,0x00
0.005613340,1,0xF8,0xF0
0.005619060,1,0x2F,0xF0
0.005624340,1,0x03,0x00
0.005630200,1,0x2E,0x00
0.005635480,1,0xE6,0xF0
0.005641200,1,0x2F,0xF0
0.005646480,1,0xA6,0x00
0.005652400,1,0x2E,0x00
0.005657700,1,0xCB,0xF0
0.005663420,1,0x2F,0xF0
0.005668700,1,0x51,0x00
0.005674540,1,0x2E,0x00
0.005679840,1,0xF8,0xF0
0.005685560,1,0x2F,0xF0
0.005690860,1,0x0F,0x00
0.005696700,1,0x2E,0x00
0.005702000,1,0x80,0xF0
0.005707720,1,0x2F,0xF0
0.005713020,1,0x52,0x00
0.005718860,1,0x2E,0x00
0.005724160,1,0xCB,0xF0
0.005729880,1,0x2F,0xF0
0.005735180,1,0x62,0x00
0.005741080,1,0x2E,0x00
0.005746380,1,0xF8,0xF0
0.005752100,1,0x2F,0xF0
0.005757400,1,0x02,0x00
0.005763240,1,0x2E,0x00
0.005768540,1,0x80,0xF0
0.005774260,1,0x2F,0xF0
0.005779560,1,0x11,0x00
0.005785400,1,0x2E,0x00
0.005790680,1,0x3A,0xF0
0.005796400,1,0x2F,0xF0
0.005801700,1,0x00,0x00
0.005807560,1,0x2E,0x00
0.005812840,1,0xF8,0xF0
0.005818560,1,0x2F,0xF0
0.005823860,1,0x08,0x00
0.005829780,1,0x2E,0x00
0.005835060,1,0x6D,0xF0
0.005840780,1,0x2F,0xF0
0.005846080,1,0xD0,0x00
0.005851920,1,0x2E,0x00
0.005857220,1,0x28,0xF0
0.005862940,1,0x2F,0xF0
0.005868220,1,0x11,0x00
0.005874080,1,0x2E,0x00
0.005879380,1,0xF8,0xF0
0.005885100,1,0x2F,0xF0
0.005890380,1,0x08,0x00
0.005896240,1,0x2E,0x00
0.005901540,1,0xE1,0xF0
0.005907260,1,0x2F,0xF0
0.005912540,1,0xB1,0x00
0.005918460,1,0x2E,0x00
0.005923760,1,0x44,0xF0
0.005929480,1,0x2F,0xF0
0.005934760,1,0x01,0x00
0.005940620,1,0x2E,0x00
0.005945920,1,0xF0,0xF0
0.005951640,1,0x2F,0xF0
0.005956920,1,0x00,0x00
0.005962780,1,0x2E,0x00
0.005968060,1,0x8C,0xF0
0.005973800,1,0x2F,0xF0
0.005979080,1,0x03,0x00
0.005984940,1,0x2E,0x00
0.005990240,1,0xF0,0xF0
0.005995980,1,0x2F,0xF0
0.006001260,1,0x00,0x00
0.006007180,1,0x2E,0x00
0.006012460,1,0xF8,0xF0
0.006018200,1,0x2F,0xF0
0.006023500,1,0x0B,0x00
0.006029340,1,0x2E,0x00
0.006034640,1,0x6E,0xF0
0.006040360,1,0x2F,0xF0
0.006045680,1,0x10,0x00
0.006051520,1,0x2E,0x00
0.006056820,1,0x80,0xF0
0.006062540,1,0x2F,0xF0
0.006067840,1,0x28,0x00
0.006073680,1,0x2E,0x00
0.006078980,1,0x3F,0xF0
0.006084700,1,0x2F,0xF0
0.006090000,1,0x00,0x00
0.006095920,1,0x2E,0x00
0.006101200,1,0xE0,0xF0
0.006106920,1,0x2F,0xF0
0.006112220,1,0xF0,0x00
0.006118080,1,0x2E,0x00
0.006123360,1,0x3A,0xF0
0.006129080,1,0x2F,0xF0
0.006134380,1,0x10,0x00
0.006140240,1,0x2E,0x00
0.006145540,1,0xF8,0xF0
0.006151260,1,0x2F,0xF0
0.006156560,1,0x02,0x00
0.006162400,1,0x2E,0x00
0.006167700,1,0x80,0xF0
0.006173420,1,0x2F,0xF0
0.006178720,1,0x11,0x00
0.006184640,1,0x2E,0x00
0.006189940,1,0x3A,0xF0
0.006195660,1,0x2F,0xF0
0.006200940,1,0x20,0x00
0.006206800,1,0x2E,0x00
0.006212100,1,0x60,0xF0
0.006217820,1,0x2F,0xF0
0.006223100,1,0x50,0x00
0.006228960,1,0x2E,0x00
0.006234260,1,0x64,0xF0
0.006239980,1,0x2F,0xF0
0.006245280,1,0x01,0x00
0.006251120,1,0x2E,0x00
0.006256420,1,0x3A,0xF0
0.006262140,1,0x2F,0xF0
0.006267440,1,0x01,0x00
0.006273340,1,0x2E,0x00
0.006278640,1,0xF8,0xF0
0.006284380,1,0x2F,0xF0
0.006289680,1,0x08,0x00
0.006295520,1,0x2E,0x00
0.006300800,1,0x60,0xF0
0.006306540,1,0x2F,0xF0
0.006311840,1,0xD1,0x00
0.006317680,1,0x2E,0x00
0.006322980,1,0x3B,0xF0
0.006328700,1,0x2F,0xF0
0.006334000,1,0x00,0x00
0.006339860,1,0x2E,0x00
0.006345140,1,0x3F,0xF0
0.006350880,1,0x2F,0xF0
0.006356160,1,0x01,0x00
0.006362080,1,0x2E,0x00
0.006367380,1,0xE0,0xF0
0.006373100,1,0x2F,0xF0
0.006378380,1,0xF0,0x00
0.006384240,1,0x2E,0x00
0.006389520,1,0xF8,0xF0
0.006395260,1,0x2F,0xF0
0.006400540,1,0x02,0x00
0.006406400,1,0x2E,0x00
0.006411680,1,0x60,0xF0
0.006417400,1,0x2F,0xF0
0.006422700,1,0x81,0x00
0.006428540,1,0x2E,0x00
0.006433840,1,0x60,0xF0
0.006439560,1,0x2F,0xF0
0.006444860,1,0x30,0x00
0.006450760,1,0x2E,0x00
0.006456060,1,0x30,0xF0
0.006461780,1,0x2F,0xF0
0.006467080,1,0x11,0x00
0.006472920,1,0x2E,0x00
0.006478220,1,0xF8,0xF0
0.006483940,1,0x2F,0xF0
0.006489240,1,0x05,0x00
0.006495080,1,0x2E,0x00
0.006500380,1,0x66,0xF0
0.006506100,1,0x2F,0xF0
0.006511400,1,0xC1,0x00
0.006517240,1,0x2E,0x00
0.006522540,1,0x30,0xF0
0.006528260,1,0x2F,0xF0
0.006533560,1,0x50,0x00
0.006539460,1,0x2E,0x00
0.006544760,1,0x60,0xF0
0.006550480,1,0x2F,0xF0
0.006555780,1,0x40,0x00
0.006561620,1,0x2E,0x00
0.006566920,1,0x35,0xF0
0.006572640,1,0x2F,0xF0
0.006577940,1,0xE1,0x00
0.006583800,1,0x2E,0x00
0.006589080,1,0xF8,0xF0
0.006594820,1,0x2F,0xF0
0.006600120,1,0x02,0x00
0.006605960,1,0x2E,0x00
0.006611240,1,0x67,0xF0
0.006616980,1,0x2F,0xF0
0.006622280,1,0x01,0x00
0.006628200,1,0x2E,0x00
0.006633480,1,0x3B,0xF0
0.006639200,1,0x2F,0xF0
0.006644500,1,0x10,0x00
0.006650340,1,0x2E,0x00
0.006655640,1,0x6C,0xF0
0.006661360,1,0x2F,0xF0
0.006666660,1,0x70,0x00
0.006672500,1,0x2E,0x00
0.006677800,1,0x30,0xF0
0.006683520,1,0x2F,0xF0
0.006688820,1,0xC1,0x00
0.006694660,1,0x2E,0x00
0.006699960,1,0xF8,0xF0
0.006705680,1,0x2F,0xF0
0.006710980,1,0x02,0x00
0.006716880,1,0x2E,0x00
0.006722180,1,0x68,0xF0
0.006727900,1,0x2F,0xF0
0.006733200,1,0x01,0x00
0.006739040,1,0x2E,0x00
0.006744340,1,0x33,0xF0
0.006750060,1,0x2F,0xF0
0.006755360,1,0x40,0x00
0.006761200,1,0x2E,0x00
0.006766500,1,0xBC,0xF0
0.006772220,1,0x2F,0xF0
0.006777520,1,0x00,0x00
0.006783360,1,0x2E,0x00
0.006788660,1,0x30,0xF0
0.006794380,1,0x2F,0xF0
0.006799680,1,0x31,0x00
0.006805580,1,0x2E,0x00
0.006810880,1,0xCB,0xF0
0.006816620,1,0x2F,0xF0
0.006821920,1,0x01,0x00
0.006827760,1,0x2E,0x00
0.006833060,1,0xE5,0xF0
0.006838780,1,0x2F,0xF0
0.006844080,1,0x01,0x00
0.006849940,1,0x2E,0x00
0.006855240,1,0x36,0xF0
0.006860960,1,0x2F,0xF0
0.006866260,1,0x71,0x00
0.006872120,1,0x2E,0x00
0.006877400,1,0x36,0xF0
0.006883140,1,0x2F,0xF0
0.006888440,1,0x80,0x00
0.006894360,1,0x2E,0x00
0.006899660,1,0x36,0xF0
0.006905380,1,0x2F,0xF0
0.006910680,1,0x91,0x00
0.006916540,1,0x2E,0x00
0.006921840,1,0xBC,0xF0
0.006927560,1,0x2F,0xF0
0.006932860,1,0x00,0x00
0.006938720,1,0x2E,0x00
0.006944020,1,0x36,0xF0
0.006949740,1,0x2F,0xF0
0.006955040,1,0xA0,0x00
0.006960900,1,0x2E,0x00
0.006966200,1,0xF8,0xF0
0.006971920,1,0x2F,0xF0
0.006977220,1,0x09,0x00
0.006983140,1,0x2E,0x00
0.006988440,1,0x80,0xF0
0.006994180,1,0x2F,0xF0
0.006999480,1,0xE6,0x00
0.007005320,1,0x2E,0x00
0.007010640,1,0x20,0xF0
0.007016360,1,0x2F,0xF0
0.007021660,1,0xB0,0x00
0.007027500,1,0x2E,0x00
0.007032820,1,0x70,0xF0
0.007038540,1,0x2F,0xF0
0.007043840,1,0xE5,0x00
0.007049680,1,0x2E,0x00
0.007054980,1,0xF8,0xF0
0.007060720,1,0x2F,0xF0
0.007066020,1,0x06,0x00
0.007071920,1,0x2E,0x00
0.007077220,1,0x80,0xF0
0.007082960,1,0x2F,0xF0
0.007088260,1,0x6B,0x00
0.007094100,1,0x2E,0x00
0.007099400,1,0x7F,0xF0
0.007105120,1,0x2F,0xF0
0.007110420,1,0x36,0x00
0.007116260,1,0x2E,0x00
0.007121560,1,0xF8,0xF0
0.007127280,1,0x2F,0xF0
0.007132580,1,0x06,0x00
0.007138420,1,0x2E,0x00
0.007143720,1,0x80,0xF0
0.007149440,1,0x2F,0xF0
0.007154740,1,0x8C,0x00
0.007160660,1,0x2E,0x00
0.007165960,1,0xF0,0xF0
0.007171680,1,0x2F,0xF0
0.007176980,1,0x00,0x00
0.007182840,1,0x2E,0x00
0.007188140,1,0xF8,0xF0
0.007193860,1,0x2F,0xF0
0.007199160,1,0x03,0x00
0.007205020,1,0x2E,0x00
0.007210320,1,0x64,0xF0
0.007216040,1,0x2F,0xF0
0.007221340,1,0x40,0x00
0.007227200,1,0x2E,0x00
0.007232500,1,0xBC,0xF0
0.007238220,1,0x2F,0xF0
0.007243500,1,0x00,0x00
0.007249420,1,0x2E,0x00
0.007254720,1,0x35,0xF0
0.007260460,1,0x2F,0xF0
0.007265740,1,0x80,0x00
0.007271600,1,0x2E,0x00
0.007276900,1,0xF8,0xF0
0.007282620,1,0x2F,0xF0
0.007287920,1,0x22,0x00
0.007293780,1,0x2E,0x00
0.007299080,1,0x6F,0xF0
0.007304800,1,0x2F,0xF0
0.007310100,1,0x0D,0x00
0.007315940,1,0x2E,0x00
0.007321240,1,0xCC,0xF0
0.007326980,1,0x2F,0xF0
0.007332260,1,0xD5,0x00
0.007338180,1,0x2E,0x00
0.007343460,1,0xCC,0xF0
0.007349200,1,0x2F,0xF0
0.007354480,1,0xD6,0x00
0.007360340,1,0x2E,0x00
0.007365620,1,0xC0,0xF0
0.007371360,1,0x2F,0xF0
0.007376660,1,0x15,0x00
0.007382500,1,0x2E,0x00
0.007387800,1,0xBC,0xF0
0.007393520,1,0x2F,0xF0
0.007398820,1,0x00,0x00
0.007404680,1,0x2E,0x00
0.007409960,1,0xC0,0xF0
0.007415700,1,0x2F,0xF0
0.007421000,1,0x26,0x00
0.007426920,1,0x2E,0x00
0.007432200,1,0x21,0xF0
0.007437940,1,0x2F,0xF0
0.007443240,1,0x20,0x00
0.007449080,1,0x2E,0x00
0.007454380,1,0x21,0xF0
0.007460100,1,0x2F,0xF0
0.007465400,1,0x31,0x00
0.007471240,1,0x2E,0x00
0.007476540,1,0xC0,0xF0
0.007482260,1,0x2F,0xF0
0.007487560,1,0x10,0x00
0.007493420,1,0x2E,0x00
0.007498720,1,0x21,0xF0
0.007504440,1,0x2F,0xF0
0.007509740,1,0x62,0x00
0.007515640,1,0x2E,0x00
0.007520940,1,0x21,0xF0
0.007526680,1,0x2F,0xF0
0.007531980,1,0x73,0x00
0.007537820,1,0x2E,0x00
0.007543140,1,0xC0,0xF0
0.007548860,1,0x2F,0xF0
0.007554160,1,0x32,0x00
0.007560000,1,0x2E,0x00
0.007565300,1,0xC0,0xF0
0.007571040,1,0x2F,0xF0
0.007576340,1,0x20,0x00
0.007582180,1,0x2E,0x00
0.007587480,1,0x26,0xF0
0.007593220,1,0x2F,0xF0
0.007598520,1,0xB1,0x00
0.007604420,1,0x2E,0x00
0.007609720,1,0xF8,0xF0
0.007615460,1,0x2F,0xF0
0.007620760,1,0x02,0x00
0.007626600,1,0x2E,0x00
0.007631900,1,0xE0,0xF0
0.007637620,1,0x2F,0xF0
0.007642920,1,0xB0,0x00
0.007648780,1,0x2E,0x00
0.007654060,1,0xC2,0xF0
0.007659800,1,0x2F,0xF0
0.007665100,1,0x01,0x00
0.007670960,1,0x2E,0x00
0.007676260,1,0x7F,0xF0
0.007681980,1,0x2F,0xF0
0.007687280,1,0xF0,0x00
0.007693200,1,0x2E,0x00
0.007698480,1,0x60,0xF0
0.007704220,1,0x2F,0xF0
0.007709520,1,0x01,0x00
0.007715360,1,0x2E,0x00
0.007720660,1,0xBC,0xF0
0.007726380,1,0x2F,0xF0
0.007731680,1,0x00,0x00
0.007737540,1,0x2E,0x00
0.007742840,1,0xC1,0xF0
0.007748580,1,0x2F,0xF0
0.007753880,1,0x10,0x00
0.007759720,1,0x2E,0x00
0.007765020,1,0x61,0xF0
0.007770760,1,0x2F,0xF0
0.007776040,1,0x91,0x00
0.007781960,1,0x2E,0x00
0.007787260,1,0xF8,0xF0
0.007793000,1,0x2F,0xF0
0.007798280,1,0x0B,0x00
0.007804140,1,0x2E,0x00
0.007809440,1,0x84,0xF0
0.007815180,1,0x2F,0xF0
0.007820460,1,0x80,0x00
0.007826320,1,0x2E,0x00
0.007831620,1,0x3B,0xF0
0.007837360,1,0x2F,0xF0
0.007842640,1,0x01,0x00
0.007848500,1,0x2E,0x00
0.007853800,1,0xF8,0xF0
0.007859520,1,0x2F,0xF0
0.007864820,1,0x04,0x00
0.007870720,1,0x2E,0x00
0.007876020,1,0x80,0xF0
0.007881760,1,0x2F,0xF0
0.007887060,1,0xE8,0x00
0.007892900,1,0x2E,0x00
0.007898200,1,0xF0,0xF0
0.007903940,1,0x2F,0xF0
0.007909240,1,0x00,0x00
0.007915080,1,0x2E,0x00
0.007920380,1,0x80,0xF0
0.007926100,1,0x2F,0xF0
0.007931420,1,0xCE,0x00
0.007937260,1,0x2E,0x00
0.007942560,1,0x67,0xF0
0.007948280,1,0x2F,0xF0
0.007953580,1,0x6A,0x00
0.007959500,1,0x2E,0x00
0.007964800,1,0xC9,0xF0
0.007970520,1,0x2F,0xF0
0.007975820,1,0x00,0x00
0.007981680,1,0x2E,0x00
0.007986960,1,0xF8,0xF0
0.007992700,1,0x2F,0xF0
0.007998000,1,0x0B,0x00
0.008003860,1,0x2E,0x00
0.008009140,1,0x88,0xF0
0.008014860,1,0x2F,0xF0
0.008020160,1,0x80,0x00
0.008026020,1,0x2E,0x00
0.008031320,1,0xF0,0xF0
0.008037040,1,0x2F,0xF0
0.008042340,1,0x00,0x00
0.008048240,1,0x2E,0x00
0.008053540,1,0xF8,0xF0
0.008059260,1,0x2F,0xF0
0.008064560,1,0x0E,0x00
0.008070420,1,0x2E,0x00
0.008075720,1,0x80,0xF0
0.008081440,1,0x2F,0xF0
0.008086740,1,0x7E,0x00
0.008092580,1,0x2E,0x00
0.008097880,1,0xF0,0xF0
0.008103620,1,0x2F,0xF0
0.008108920,1,0x00,0x00
0.008114760,1,0x2E,0x00
0.008120060,1,0xF8,0xF0
0.008125800,1,0x2F,0xF0
0.008131100,1,0x0F,0x00
0.008137020,1,0x2E,0x00
0.008142320,1,0x80,0xF0
0.008148060,1,0x2F,0xF0
0.008153360,1,0x61,0x00
0.008159200,1,0x2E,0x00
0.008164500,1,0xF0,0xF0
0.008170240,1,0x2F,0xF0
0.008175540,1,0x00,0x00
0.008181380,1,0x2E,0x00
0.008186680,1,0xF8,0xF0
0.008192420,1,0x2F,0xF0
0.008197720,1,0x00,0x00
0.008203580,1,0x2E,0x00
0.008208880,1,0x80,0xF0
0.008214600,1,0x2F,0xF0
0.008219900,1,0xAB,0x00
0.008225820,1,0x2E,0x00
0.008231120,1,0xF0,0xF0
0.008236840,1,0x2F,0xF0
0.008242140,1,0x00,0x00
0.008248000,1,0x2E,0x00
0.008253300,1,0xF8,0xF0
0.008259020,1,0x2F,0xF0
0.008264340,1,0x05,0x00
0.008270200,1,0x2E,0x00
0.008275500,1,0x80,0xF0
0.008281220,1,0x2F,0xF0
0.008286540,1,0x10,0x00
0.008292400,1,0x2E,0x00
0.008297700,1,0xF0,0xF0
0.008303420,1,0x2F,0xF0
0.008308740,1,0x00,0x00
0.008314660,1,0x2E,0x00
0.008319960,1,0xF8,0xF0
0.008325680,1,0x2F,0xF0
0.008330980,1,0x02,0x00
0.008336840,1,0x2E,0x00
0.008342140,1,0x80,0xF0
0.008347860,1,0x2F,0xF0
0.008353160,1,0x66,0x00
0.008359020,1,0x2E,0x00
0.008364320,1,0xF0,0xF0
0.008370040,1,0x2F,0xF0
0.008375340,1,0x00,0x00
0.008381200,1,0x2E,0x00
0.008386500,1,0xC9,0xF0
0.008392240,1,0x2F,0xF0
0.008397540,1,0x00,0x00
0.008403440,1,0x2E,0x00
0.008408760,1,0x88,0xF0
0.008414480,1,0x2F,0xF0
0.008419780,1,0x4E,0x00
0.008425640,1,0x2E,0x00
0.008430940,1,0xF0,0xF0
0.008436660,1,0x2F,0xF0
0.008441960,1,0x00,0x00
0.008447820,1,0x2E,0x00
0.008453120,1,0xF8,0xF0
0.008458840,1,0x2F,0xF0
0.008464140,1,0x05,0x00
0.008470000,1,0x2E,0x00
0.008475300,1,0x80,0xF0
0.008481020,1,0x2F,0xF0
0.008486320,1,0x24,0x00
0.008492240,1,0x2E,0x00
0.008497520,1,0xF0,0xF0
0.008503260,1,0x2F,0xF0
0.008508560,1,0x00,0x00
0.008514400,1,0x2E,0x00
0.008519700,1,0xF8,0xF0
0.008525420,1,0x2F,0xF0
0.008530720,1,0x04,0x00
0.008536580,1,0x2E,0x00
0.008541880,1,0x80,0xF0
0.008547600,1,0x2F,0xF0
0.008552880,1,0x52,0x00
0.008558740,1,0x2E,0x00
0.008564040,1,0xF0,0xF0
0.008569760,1,0x2F,0xF0
0.008575060,1,0x00,0x00
0.008580980,1,0x2E,0x00
0.008586280,1,0xC9,0xF0
0.008592000,1,0x2F,0xF0
0.008597300,1,0x00,0x00
0.008603160,1,0x2E,0x00
0.008608460,1,0x88,0xF0
0.008614180,1,0x2F,0xF0
0.008619480,1,0x71,0x00
0.008625340,1,0x2E,0x00
0.008630640,1,0xF0,0xF0
0.008636380,1,0x2F,0xF0
0.008641660,1,0x00,0x00
0.008647520,1,0x2E,0x00
0.008652820,1,0xF8,0xF0
0.008658560,1,0x2F,0xF0
0.008663840,1,0x00,0x00
0.008669760,1,0x2E,0x00
0.008675060,1,0x80,0xF0
0.008680780,1,0x2F,0xF0
0.008686080,1,0xAB,0x00
0.008691940,1,0x2E,0x00
0.008697240,1,0xF0,0xF0
0.008702980,1,0x2F,0xF0
0.008708280,1,0x00,0x00
0.008714120,1,0x2E,0x00
0.008719420,1,0xF8,0xF0
0.008725160,1,0x2F,0xF0
0.008730460,1,0x04,0x00
0.008736320,1,0x2E,0x00
0.008741600,1,0x80,0xF0
0.008747340,1,0x2F,0xF0
0.008752640,1,0x70,0x00
0.008758560,1,0x2E,0x00
0.008763860,1,0xF0,0xF0
0.008769580,1,0x2F,0xF0
0.008774880,1,0x00,0x00
0.008780740,1,0x2E,0x00
0.008786040,1,0xC9,0xF0
0.008791760,1,0x2F,0xF0
0.008797060,1,0x00,0x00
0.008802920,1,0x2E,0x00
0.008808220,1,0x88,0xF0
0.008813940,1,0x2F,0xF0
0.008819240,1,0x6C,0x00
0.008825100,1,0x2E,0x00
0.008830400,1,0xF0,0xF0
0.008836120,1,0x2F,0xF0
0.008841420,1,0x00,0x00
0.008847340,1,0x2E,0x00
0.008852640,1,0xF8,0xF0
0.008858380,1,0x2F,0xF0
0.008863660,1,0x02,0x00
0.008869520,1,0x2E,0x00
0.008874820,1,0x80,0xF0
0.008880560,1,0x2F,0xF0
0.008885860,1,0x66,0x00
0.008891700,1,0x2E,0x00
0.008897000,1,0xF0,0xF0
0.008902740,1,0x2F,0xF0
0.008908040,1,0x00,0x00
0.008913900,1,0x2E,0x00
0.008919200,1,0xC9,0xF0
0.008924920,1,0x2F,0xF0
0.008930220,1,0x00,0x00
0.008936140,1,0x2E,0x00
0.008941440,1,0x88,0xF0
0.008947180,1,0x2F,0xF0
0.008952480,1,0x62,0x00
0.008958340,1,0x2E,0x00
0.008963640,1,0xF0,0xF0
0.008969360,1,0x2F,0xF0
0.008974680,1,0x00,0x00
0.008980520,1,0x2E,0x00
0.008985820,1,0xF8,0xF0
0.008991560,1,0x2F,0xF0
0.008996860,1,0x04,0x00
0.009002720,1,0x2E,0x00
0.009008020,1,0x80,0xF0
0.009013760,1,0x2F,0xF0
0.009019060,1,0x82,0x00
0.009025000,1,0x2E,0x00
0.009030280,1,0xF0,0xF0
0.009036020,1,0x2F,0xF0
0.009041320,1,0x00,0x00
0.009047180,1,0x2E,0x00
0.009052480,1,0x29,0xF0
0.009058200,1,0x2F,0xF0
0.009063500,1,0x20,0x00
0.009069360,1,0x2E,0x00
0.009074660,1,0x40,0xF0
0.009080400,1,0x2F,0xF0
0.009085700,1,0x60,0x00
0.009091540,1,0x2E,0x00
0.009096860,1,0x29,0xF0
0.009102580,1,0x2F,0xF0
0.009107880,1,0x20,0x00
0.009113800,1,0x2E,0x00
0.009119100,1,0x8C,0xF0
0.009124820,1,0x2F,0xF0
0.009130120,1,0x04,0x00
0.009135960,1,0x2E,0x00
0.009141260,1,0xF0,0xF0
0.009147000,1,0x2F,0xF0
0.009152300,1,0x00,0x00
0.009158140,1,0x2E,0x00
0.009163440,1,0xF8,0xF0
0.009169180,1,0x2F,0xF0
0.009174480,1,0x04,0x00
0.009180340,1,0x2E,0x00
0.009185640,1,0x80,0xF0
0.009191380,1,0x2F,0xF0
0.009196660,1,0xB0,0x00
0.009202580,1,0x2E,0x00
0.009207880,1,0xF0,0xF0
0.009213620,1,0x2F,0xF0
0.009218920,1,0x00,0x00
0.009224760,1,0x2E,0x00
0.009230060,1,0xF8,0xF0
0.009235800,1,0x2F,0xF0
0.009241100,1,0x04,0x00
0.009246960,1,0x2E,0x00
0.009252260,1,0x80,0xF0
0.009258000,1,0x2F,0xF0
0.009263300,1,0x8F,0x00
0.009269160,1,0x2E,0x00
0.009274460,1,0xF0,0xF0
0.009280180,1,0x2F,0xF0
0.009285480,1,0x00,0x00
0.009291400,1,0x2E,0x00
0.009296700,1,0xF8,0xF0
0.009302440,1,0x2F,0xF0
0.009307740,1,0x01,0x00
0.009313600,1,0x2E,0x00
0.009318880,1,0x80,0xF0
0.009324620,1,0x2F,0xF0
0.009329920,1,0x79,0x00
0.009335760,1,0x2E,0x00
0.009341060,1,0xF0,0xF0
0.009346800,1,0x2F,0xF0
0.009352080,1,0x00,0x00
0.009357960,1,0x2E,0x00
0.009363260,1,0xF8,0xF0
0.009368980,1,0x2F,0xF0
0.009374300,1,0x04,0x00
0.009380220,1,0x2E,0x00
0.009385520,1,0x80,0xF0
0.009391260,1,0x2F,0xF0
0.009396560,1,0xA0,0x00
0.009402420,1,0x2E,0x00
0.009407720,1,0xF0,0xF0
0.009413460,1,0x2F,0xF0
0.009418760,1,0x00,0x00
0.009424600,1,0x2E,0x00
0.009429900,1,0xF8,0xF0
0.009435640,1,0x2F,0xF0
0.009440940,1,0x0E,0x00
0.009446800,1,0x2E,0x00
0.009452080,1,0x80,0xF0
0.009457820,1,0x2F,0xF0
0.009463120,1,0xDA,0x00
0.009469040,1,0x2E,0x00
0.009474340,1,0xF0,0xF0
0.009480060,1,0x2F,0xF0
0.009485360,1,0x00,0x00
0.009491220,1,0x2E,0x00
0.009496520,1,0xF8,0xF0
0.009502240,1,0x2F,0xF0
0.009507560,1,0x00,0x00
0.009513400,1,0x2E,0x00
0.009518700,1,0x6F,0xF0
0.009524440,1,0x2F,0xF0
0.009529740,1,0xF6,0x00
0.009535600,1,0x2E,0x00
0.009540880,1,0x60,0xF0
0.009546620,1,0x2F,0xF0
0.009551920,1,0x47,0x00
0.009557840,1,0x2E,0x00
0.009563120,1,0xF8,0xF0
0.009568860,1,0x2F,0xF0
0.009574160,1,0x0D,0x00
0.009580020,1,0x2E,0x00
0.009585320,1,0x80,0xF0
0.009591040,1,0x2F,0xF0
0.009596340,1,0xF7,0x00
0.009602200,1,0x2E,0x00
0.009607500,1,0x28,0xF0
0.009613220,1,0x2F,0xF0
0.009618520,1,0x58,0x00
0.009624380,1,0x2E,0x00
0.009629680,1,0xF8,0xF0
0.009635420,1,0x2F,0xF0
0.009640700,1,0x0E,0x00
0.009646620,1,0x2E,0x00
0.009651920,1,0x80,0xF0
0.009657640,1,0x2F,0xF0
0.009662940,1,0x4F,0x00
0.009668800,1,0x2E,0x00
0.009674100,1,0xF0,0xF0
0.009679820,1,0x2F,0xF0
0.009685120,1,0x00,0x00
0.009690980,1,0x2E,0x00
0.009696280,1,0xF8,0xF0
0.009702000,1,0x2F,0xF0
0.009707300,1,0x0F,0x00
0.009713140,1,0x2E,0x00
0.009718460,1,0x80,0xF0
0.009724180,1,0x2F,0xF0
0.009729480,1,0x5F,0x00
0.009735400,1,0x2E,0x00
0.009740680,1,0x29,0xF0
0.009746420,1,0x2F,0xF0
0.009751720,1,0x70,0x00
0.009757580,1,0x2E,0x00
0.009762880,1,0x29,0xF0
0.009768600,1,0x2F,0xF0
0.009773900,1,0x29,0x00
0.009779760,1,0x2E,0x00
0.009785060,1,0xF8,0xF0
0.009790780,1,0x2F,0xF0
0.009796080,1,0x01,0x00
0.009801940,1,0x2E,0x00
0.009807240,1,0x80,0xF0
0.009812960,1,0x2F,0xF0
0.009818260,1,0xB8,0x00
0.009824180,1,0x2E,0x00
0.009829480,1,0xC9,0xF0
0.009835200,1,0x2F,0xF0
0.009840500,1,0x9B,0x00
0.009846360,1,0x2E,0x00
0.009851640,1,0x80,0xF0
0.009857380,1,0x2F,0xF0
0.009862680,1,0x40,0x00
0.009868540,1,0x2E,0x00
0.009873820,1,0xF0,0xF0
0.009879540,1,0x2F,0xF0
0.009884840,1,0x00,0x00
0.009890700,1,0x2E,0x00
0.009896000,1,0xF8,0xF0
0.009901720,1,0x2F,0xF0
0.009907020,1,0x22,0x00
0.009912940,1,0x2E,0x00
0.009918240,1,0x6F,0xF0
0.009923960,1,0x2F,0xF0
0.009929260,1,0x0D,0x00
0.009935120,1,0x2E,0x00
0.009940420,1,0xCC,0xF0
0.009946140,1,0x2F,0xF0
0.009951440,1,0xD1,0x00
0.009957280,1,0x2E,0x00
0.009962580,1,0xCC,0xF0
0.009968320,1,0x2F,0xF0
0.009973620,1,0xD2,0x00
0.009979460,1,0x2E,0x00
0.009984760,1,0xF8,0xF0
0.009990500,1,0x2F,0xF0
0.009995800,1,0x03,0x00
0.010001700,1,0x2E,0x00
0.010007000,1,0xE1,0xF0
0.010012740,1,0x2F,0xF0
0.010018040,1,0xA1,0x00
0.010023880,1,0x2E,0x00
0.010029180,1,0xF8,0xF0
0.010034920,1,0x2F,0xF0
0.010040220,1,0x03,0x00
0.010046060,1,0x2E,0x00
0.010051360,1,0xE2,0xF0
0.010057100,1,0x2F,0xF0
0.010062400,1,0xA2,0x00
0.010068240,1,0x2E,0x00
0.010073540,1,0xF8,0xF0
0.010079280,1,0x2F,0xF0
0.010084580,1,0x0F,0x00
0.010090480,1,0x2E,0x00
0.010095780,1,0x80,0xF0
0.010101500,1,0x2F,0xF0
0.010106800,1,0x52,0x00
0.010112660,1,0x2E,0x00
0.010117960,1,0xF0,0xF0
0.010123680,1,0x2F,0xF0
0.010128980,1,0x00,0x00
0.010134840,1,0x2E,0x00
0.010140140,1,0xE0,0xF0
0.010145860,1,0x2F,0xF0
0.010151160,1,0xF0,0x00
0.010157020,1,0x2E,0x00
0.010162320,1,0x26,0xF0
0.010168060,1,0x2F,0xF0
0.010173360,1,0xEF,0x00
0.010179260,1,0x2E,0x00
0.010184560,1,0xF8,0xF0
0.010190300,1,0x2F,0xF0
0.010195580,1,0x0D,0x00
0.010201440,1,0x2E,0x00
0.010206740,1,0x80,0xF0
0.010212480,1,0x2F,0xF0
0.010217760,1,0x90,0x00
0.010223620,1,0x2E,0x00
0.010228920,1,0x11,0xF0
0.010234640,1,0x2F,0xF0
0.010239940,1,0xCF,0x00
0.010245800,1,0x2E,0x00
0.010251100,1,0xF8,0xF0
0.010256820,1,0x2F,0xF0
0.010262120,1,0x01,0x00
0.010268040,1,0x2E,0x00
0.010273320,1,0x60,0xF0
0.010279060,1,0x2F,0xF0
0.010284360,1,0x0D,0x00
0.010290220,1,0x2E,0x00
0.010295500,1,0xF0,0xF0
0.010301240,1,0x2F,0xF0
0.010306540,1,0x00,0x00
0.010312380,1,0x2E,0x00
0.010317680,1,0xC8,0xF0
0.010323420,1,0x2F,0xF0
0.010328720,1,0x0D,0x00
0.010334580,1,0x2E,0x00
0.010339860,1,0x88,0xF0
0.010345600,1,0x2F,0xF0
0.010350900,1,0x4B,0x00
0.010356820,1,0x2E,0x00
0.010362100,1,0xF0,0xF0
0.010367840,1,0x2F,0xF0
0.010373140,1,0x00,0x00
0.010379000,1,0x2E,0x00
0.010384280,1,0xF8,0xF0
0.010390020,1,0x2F,0xF0
0.010395320,1,0x05,0x00
0.010401180,1,0x2E,0x00
0.010406460,1,0x80,0xF0
0.010412200,1,0x2F,0xF0
0.010417480,1,0x24,0x00
0.010423340,1,0x2E,0x00
0.010428640,1,0xF0,0xF0
0.010434380,1,0x2F,0xF0
0.010439660,1,0x00,0x00
0.010445580,1,0x2E,0x00
0.010450880,1,0xF8,0xF0
0.010456600,1,0x2F,0xF0
0.010461900,1,0x05,0x00
0.010467740,1,0x2E,0x00
0.010473060,1,0x80,0xF0
0.010478780,1,0x2F,0xF0
0.010484080,1,0x31,0x00
0.010489920,1,0x2E,0x00
0.010495240,1,0xF0,0xF0
0.010500960,1,0x2F,0xF0
0.010506260,1,0x00,0x00
0.010512120,1,0x2E,0x00
0.010517400,1,0xC9,0xF0
0.010523140,1,0x2F,0xF0
0.010528440,1,0x00,0x00
0.010534340,1,0x2E,0x00
0.010539640,1,0x88,0xF0
0.010545380,1,0x2F,0xF0
0.010550680,1,0x15,0x00
0.010556520,1,0x2E,0x00
0.010561820,1,0xF0,0xF0
0.010567560,1,0x2F,0xF0
0.010572860,1,0x00,0x00
0.010578720,1,0x2E,0x00
0.010584020,1,0xF8,0xF0
0.010589760,1,0x2F,0xF0
0.010595060,1,0x00,0x00
0.010600920,1,0x2E,0x00
0.010606200,1,0x80,0xF0
0.010611940,1,0x2F,0xF0
0.010617240,1,0xAB,0x00
0.010623160,1,0x2E,0x00
0.010628460,1,0xF0,0xF0
0.010634200,1,0x2F,0xF0
0.010639500,1,0x00,0x00
0.010645360,1,0x2E,0x00
0.010650660,1,0xF8,0xF0
0.010656380,1,0x2F,0xF0
0.010661680,1,0x04,0x00
0.010667540,1,0x2E,0x00
0.010672840,1,0x80,0xF0
0.010678560,1,0x2F,0xF0
0.010683860,1,0x70,0x00
0.010689700,1,0x2E,0x00
0.010695020,1,0xF0,0xF0
0.010700740,1,0x2F,0xF0
0.010706040,1,0x00,0x00
0.010711960,1,0x2E,0x00
0.010717260,1,0xC9,0xF0
0.010722980,1,0x2F,0xF0
0.010728280,1,0x00,0x00
0.010734140,1,0x2E,0x00
0.010739440,1,0x88,0xF0
0.010745160,1,0x2F,0xF0
0.010750460,1,0x0C,0x00
0.010756320,1,0x2E,0x00
0.010761620,1,0xF0,0xF0
0.010767360,1,0x2F,0xF0
0.010772660,1,0x00,0x00
0.010778500,1,0x2E,0x00
0.010783800,1,0xF8,0xF0
0.010789540,1,0x2F,0xF0
0.010794840,1,0x02,0x00
0.010800760,1,0x2E,0x00
0.010806060,1,0x80,0xF0
0.010811780,1,0x2F,0xF0
0.010817080,1,0x66,0x00
0.010822940,1,0x2E,0x00
0.010828220,1,0xF0,0xF0
0.010833960,1,0x2F,0xF0
0.010839260,1,0x00,0x00
0.010845100,1,0x2E,0x00
0.010850400,1,0xC9,0xF0
0.010856140,1,0x2F,0xF0
0.010861440,1,0x00,0x00
0.010867300,1,0x2E,0x00
0.010872580,1,0x88,0xF0
0.010878320,1,0x2F,0xF0
0.010883620,1,0x06,0x00
0.010889540,1,0x2E,0x00
0.010894840,1,0xF0,0xF0
0.010900560,1,0x2F,0xF0
0.010905860,1,0x00,0x00
0.010911720,1,0x2E,0x00
0.010917000,1,0xF8,0xF0
0.010922740,1,0x2F,0xF0
0.010928040,1,0x05,0x00
0.010933900,1,0x2E,0x00
0.010939200,1,0x80,0xF0
0.010944920,1,0x2F,0xF0
0.010950220,1,0x54,0x00
0.010956060,1,0x2E,0x00
0.010961380,1,0xF0,0xF0
0.010967100,1,0x2F,0xF0
0.010972400,1,0x00,0x00
0.010978300,1,0x2E,0x00
0.010983600,1,0x87,0xF0
0.010989340,1,0x2F,0xF0
0.010994640,1,0x90,0x00
0.011000480,1,0x2E,0x00
0.011005780,1,0xF0,0xF0
0.011011520,1,0x2F,0xF0
0.011016820,1,0x00,0x00
0.011022660,1,0x2E,0x00
0.011027960,1,0xF8,0xF0
0.011033700,1,0x2F,0xF0
0.011039000,1,0x0D,0x00
0.011044840,1,0x2E,0x00
0.011050140,1,0x80,0xF0
0.011055880,1,0x2F,0xF0
0.011061180,1,0xED,0x00
0.011067080,1,0x2E,0x00
0.011072380,1,0xF0,0xF0
0.011078120,1,0x2F,0xF0
0.011083420,1,0x00,0x00
0.011089260,1,0x2E,0x00
0.011094560,1,0x87,0xF0
0.011100300,1,0x2F,0xF0
0.011105600,1,0x8B,0x00
0.011111440,1,0x2E,0x00
0.011116740,1,0xF0,0xF0
0.011122460,1,0x2F,0xF0
0.011127760,1,0x00,0x00
0.011133620,1,0x2E,0x00
0.011138920,1,0x29,0xF0
0.011144640,1,0x2F,0xF0
0.011149940,1,0x20,0x00
0.011155860,1,0x2E,0x00
0.011161160,1,0x50,0xF0
0.011166880,1,0x2F,0xF0
0.011172180,1,0x40,0x00
0.011178040,1,0x2E,0x00
0.011183320,1,0x87,0xF0
0.011189040,1,0x2F,0xF0
0.011194340,1,0xA4,0x00
0.011200200,1,0x2E,0x00
0.011205500,1,0x39,0xF0
0.011211220,1,0x2F,0xF0
0.011216520,1,0x20,0x00
0.011222360,1,0x2E,0x00
0.011227680,1,0x60,0xF0
0.011233400,1,0x2F,0xF0
0.011238700,1,0x01,0x00
0.011244600,1,0x2E,0x00
0.011249900,1,0x87,0xF0
0.011255640,1,0x2F,0xF0
0.011260920,1,0x99,0x00
0.011266780,1,0x2E,0x00
0.011272080,1,0x60,0xF0
0.011277800,1,0x2F,0xF0
0.011283100,1,0x02,0x00
0.011288940,1,0x2E,0x00
0.011294240,1,0x28,0xF0
0.011299980,1,0x2F,0xF0
0.011305280,1,0x58,0x00
0.011311120,1,0x2E,0x00
0.011316440,1,0xF8,0xF0
0.011322160,1,0x2F,0xF0
0.011327460,1,0x01,0x00
0.011333380,1,0x2E,0x00
0.011338680,1,0x60,0xF0
0.011344400,1,0x2F,0xF0
0.011349700,1,0x03,0x00
0.011355560,1,0x2E,0x00
0.011360840,1,0xCB,0xF0
0.011366580,1,0x2F,0xF0
0.011371880,1,0x12,0x00
0.011377720,1,0x2E,0x00
0.011383020,1,0xC2,0xF0
0.011388760,1,0x2F,0xF0
0.011394060,1,0x81,0x00
0.011399900,1,0x2E,0x00
0.011405200,1,0xCB,0xF0
0.011410940,1,0x2F,0xF0
0.011416240,1,0x21,0x00
0.011422160,1,0x2E,0x00
0.011427440,1,0x8C,0xF0
0.011433180,1,0x2F,0xF0
0.011438480,1,0x0A,0x00
0.011444340,1,0x2E,0x00
0.011449640,1,0xCB,0xF0
0.011455360,1,0x2F,0xF0
0.011460660,1,0x02,0x00
0.011466520,1,0x2E,0x00
0.011471820,1,0x10,0xF0
0.011477540,1,0x2F,0xF0
0.011482840,1,0x41,0x00
0.011488700,1,0x2E,0x00
0.011494000,1,0x8C,0xF0
0.011499720,1,0x2F,0xF0
0.011505020,1,0x11,0x00
0.011510940,1,0x2E,0x00
0.011516240,1,0xC2,0xF0
0.011521960,1,0x2F,0xF0
0.011527260,1,0x30,0x00
0.011533120,1,0x2E,0x00
0.011538420,1,0x60,0xF0
0.011544140,1,0x2F,0xF0
0.011549440,1,0x01,0x00
0.011555300,1,0x2E,0x00
0.011560600,1,0xF8,0xF0
0.011566320,1,0x2F,0xF0
0.011571620,1,0x08,0x00
0.011577460,1,0x2E,0x00
0.011582760,1,0x6D,0xF0
0.011588500,1,0x2F,0xF0
0.011593780,1,0xD0,0x00
0.011599700,1,0x2E,0x00
0.011605000,1,0x3A,0xF0
0.011610720,1,0x2F,0xF0
0.011616020,1,0x01,0x00
0.011621860,1,0x2E,0x00
0.011627160,1,0xBC,0xF0
0.011632880,1,0x2F,0xF0
0.011638200,1,0x00,0x00
0.011644040,1,0x2E,0x00
0.011649340,1,0x3F,0xF0
0.011655060,1,0x2F,0xF0
0.011660380,1,0x00,0x00
0.011666220,1,0x2E,0x00
0.011671520,1,0x12,0xF0
0.011677240,1,0x2F,0xF0
0.011682540,1,0x00,0x00
0.011688460,1,0x2E,0x00
0.011693740,1,0x97,0xF0
0.011699480,1,0x2F,0xF0
0.011704780,1,0xF8,0x00
0.011710640,1,0x2E,0x00
0.011715920,1,0x60,0xF0
0.011721660,1,0x2F,0xF0
0.011726940,1,0x21,0x00
0.011732800,1,0x2E,0x00
0.011738100,1,0xF8,0xF0
0.011743820,1,0x2F,0xF0
0.011749120,1,0x09,0x00
0.011754960,1,0x2E,0x00
0.011760260,1,0x6F,0xF0
0.011765980,1,0x2F,0xF0
0.011771280,1,0xA0,0x00
0.011777180,1,0x2E,0x00
0.011782480,1,0xF8,0xF0
0.011788200,1,0x2F,0xF0
0.011793500,1,0x02,0x00
0.011799340,1,0x2E,0x00
0.011804640,1,0x80,0xF0
0.011810360,1,0x2F,0xF0
0.011815660,1,0xEF,0x00
0.011821500,1,0x2E,0x00
0.011826800,1,0x3A,0xF0
0.011832520,1,0x2F,0xF0
0.011837800,1,0x01,0x00
0.011843660,1,0x2E,0x00
0.011848940,1,0xBC,0xF0
0.011854680,1,0x2F,0xF0
0.011859980,1,0x00,0x00
0.011865880,1,0x2E,0x00
0.011871180,1,0x3F,0xF0
0.011876900,1,0x2F,0xF0
0.011882200,1,0x00,0x00
0.011888040,1,0x2E,0x00
0.011893340,1,0x93,0xF0
0.011899060,1,0x2F,0xF0
0.011904360,1,0xEF,0x00
0.011910220,1,0x2E,0x00
0.011915500,1,0xF0,0xF0
0.011921240,1,0x2F,0xF0
0.011926540,1,0x00,0x00
0.011932380,1,0x2E,0x00
0.011937680,1,0xF8,0xF0
0.011943400,1,0x2F,0xF0
0.011948700,1,0x0B,0x00
0.011954620,1,0x2E,0x00
0.011959900,1,0x61,0xF0
0.011965620,1,0x2F,0xF0
0.011970920,1,0x40,0x00
0.011976780,1,0x2E,0x00
0.011982060,1,0xBC,0xF0
0.011987800,1,0x2F,0xF0
0.011993080,1,0x00,0x00
0.011998940,1,0x2E,0x00
0.012004240,1,0x3F,0xF0
0.012009960,1,0x2F,0xF0
0.012015260,1,0x00,0x00
0.012021120,1,0x2E,0x00
0.012026420,1,0xF8,0xF0
0.012032140,1,0x2F,0xF0
0.012037440,1,0x0F,0x00
0.012043360,1,0x2E,0x00
0.012048660,1,0x80,0xF0
0.012054380,1,0x2F,0xF0
0.012059680,1,0x6C,0x00
0.012065520,1,0x2E,0x00
0.012070820,1,0xF0,0xF0
0.012076560,1,0x2F,0xF0
0.012081860,1,0x00,0x00
0.012087700,1,0x2E,0x00
0.012093000,1,0xF8,0xF0
0.012098740,1,0x2F,0xF0
0.012104020,1,0x00,0x00
0.012109880,1,0x2E,0x00
0.012115160,1,0x80,0xF0
0.012120900,1,0x2F,0xF0
0.012126180,1,0xAB,0x00
0.012132100,1,0x2E,0x00
0.012137400,1,0xF0,0xF0
0.012143120,1,0x2F,0xF0
0.012148420,1,0x00,0x00
0.012154260,1,0x2E,0x00
0.012159560,1,0xF8,0xF0
0.012165280,1,0x2F,0xF0
0.012170580,1,0x04,0x00
0.012176420,1,0x2E,0x00
0.012181720,1,0x80,0xF0
0.012187440,1,0x2F,0xF0
0.012192740,1,0x70,0x00
0.012198580,1,0x2E,0x00
0.012203880,1,0xF0,0xF0
0.012209600,1,0x2F,0xF0
0.012214900,1,0x00,0x00
0.012220820,1,0x2E,0x00
0.012226100,1,0xF8,0xF0
0.012231820,1,0x2F,0xF0
0.012237120,1,0x02,0x00
0.012242980,1,0x2E,0x00
0.012248260,1,0x80,0xF0
0.012253980,1,0x2F,0xF0
0.012259280,1,0x66,0x00
0.012265140,1,0x2E,0x00
0.012270440,1,0xF0,0xF0
0.012276160,1,0x2F,0xF0
0.012281440,1,0x00,0x00
0.012287300,1,0x2E,0x00
0.012292580,1,0xC9,0xF0
0.012298300,1,0x2F,0xF0
0.012303600,1,0x00,0x00
0.012309500,1,0x2E,0x00
0.012314800,1,0x8C,0xF0
0.012320520,1,0x2F,0xF0
0.012325820,1,0x03,0x00
0.012331660,1,0x2E,0x00
0.012336960,1,0xF0,0xF0
0.012342680,1,0x2F,0xF0
0.012347980,1,0x00,0x00
0.012353820,1,0x2E,0x00
0.012359120,1,0x60,0xF0
0.012364840,1,0x2F,0xF0
0.012370140,1,0x01,0x00
0.012375980,1,0x2E,0x00
0.012381280,1,0x60,0xF0
0.012387020,1,0x2F,0xF0
0.012392300,1,0x02,0x00
0.012398200,1,0x2E,0x00
0.012403500,1,0xF8,0xF0
0.012409240,1,0x2F,0xF0
0.012414540,1,0x05,0x00
0.012420380,1,0x2E,0x00
0.012425680,1,0x80,0xF0
0.012431400,1,0x2F,0xF0
0.012436700,1,0x24,0x00
0.012442560,1,0x2E,0x00
0.012447840,1,0xF0,0xF0
0.012453580,1,0x2F,0xF0
0.012458880,1,0x00,0x00
0.012464720,1,0x2E,0x00
0.012470020,1,0x87,0xF0
0.012475740,1,0x2F,0xF0
0.012481040,1,0x4D,0x00
0.012486940,1,0x2E,0x00
0.012492240,1,0xF0,0xF0
0.012497960,1,0x2F,0xF0
0.012503260,1,0x00,0x00
0.012509120,1,0x2E,0x00
0.012514400,1,0x20,0xF0
0.012520140,1,0x2F,0xF0
0.012525440,1,0xB1,0x00
0.012531280,1,0x2E,0x00
0.012536580,1,0x60,0xF0
0.012542300,1,0x2F,0xF0
0.012547600,1,0x00,0x00
0.012553460,1,0x2E,0x00
0.012558760,1,0x28,0xF0
0.012564480,1,0x2F,0xF0
0.012569760,1,0xA6,0x00
0.012575680,1,0x2E,0x00
0.012580980,1,0x28,0xF0
0.012586700,1,0x2F,0xF0
0.012592000,1,0x97,0x00
0.012597840,1,0x2E,0x00
0.012603140,1,0xE2,0xF0
0.012608880,1,0x2F,0xF0
0.012614160,1,0x06,0x00
0.012620020,1,0x2E,0x00
0.012625320,1,0xF8,0xF0
0.012631040,1,0x2F,0xF0
0.012636340,1,0x01,0x00
0.012642180,1,0x2E,0x00
0.012647480,1,0x62,0xF0
0.012653200,1,0x2F,0xF0
0.012658500,1,0xC8,0x00
0.012664400,1,0x2E,0x00
0.012669700,1,0xF8,0xF0
0.012675440,1,0x2F,0xF0
0.012680740,1,0x00,0x00
0.012686580,1,0x2E,0x00
0.012691880,1,0x80,0xF0
0.012697600,1,0x2F,0xF0
0.012702900,1,0x25,0x00
0.012708740,1,0x2E,0x00
0.012714040,1,0x46,0xF0
0.012719760,1,0x2F,0xF0
0.012725060,1,0x31,0x00
0.012730900,1,0x2E,0x00
0.012736200,1,0x21,0xF0
0.012741920,1,0x2F,0xF0
0.012747220,1,0x25,0x00
0.012753140,1,0x2E,0x00
0.012758440,1,0x13,0xF0
0.012764160,1,0x2F,0xF0
0.012769460,1,0xC5,0x00
0.012775300,1,0x2E,0x00
0.012780600,1,0x90,0xF0
0.012786320,1,0x2F,0xF0
0.012791620,1,0x07,0x00
0.012797460,1,0x2E,0x00
0.012802760,1,0x21,0xF0
0.012808480,1,0x2F,0xF0
0.012813780,1,0x04,0x00
0.012819640,1,0x2E,0x00
0.012824920,1,0xF8,0xF0
0.012830660,1,0x2F,0xF0
0.012835940,1,0x02,0x00
0.012841860,1,0x2E,0x00
0.012847160,1,0x64,0xF0
0.012852880,1,0x2F,0xF0
0.012858180,1,0x47,0x00
0.012864020,1,0x2E,0x00
0.012869320,1,0x21,0xF0
0.012875040,1,0x2F,0xF0
0.012880340,1,0x45,0x00
0.012886200,1,0x2E,0x00
0.012891500,1,0xC2,0xF0
0.012897220,1,0x2F,0xF0
0.012902520,1,0x74,0x00
0.012908360,1,0x2E,0x00
0.012913660,1,0x90,0xF0
0.012919380,1,0x2F,0xF0
0.012924680,1,0x03,0x00
0.012930580,1,0x2E,0x00
0.012935880,1,0xC2,0xF0
0.012941600,1,0x2F,0xF0
0.012946900,1,0x75,0x00
0.012952740,1,0x2E,0x00
0.012958040,1,0xBC,0xF0
0.012963780,1,0x2F,0xF0
0.012969060,1,0x00,0x00
0.012974920,1,0x2E,0x00
0.012980200,1,0x62,0xF0
0.012985920,1,0x2F,0xF0
0.012991220,1,0x00,0x00
0.012997080,1,0x2E,0x00
0.013002360,1,0x97,0xF0
0.013008100,1,0x2F,0xF0
0.013013400,1,0xFD,0x00
0.013019300,1,0x2E,0x00
0.013024600,1,0xF0,0xF0
0.013030340,1,0x2F,0xF0
0.013035640,1,0x00,0x00
0.013041480,1,0x2E,0x00
0.013046780,1,0xBC,0xF0
0.013052520,1,0x2F,0xF0
0.013057820,1,0x00,0x00
0.013063660,1,0x2E,0x00
0.013068960,1,0xF0,0xF0
0.013074680,1,0x2F,0xF0
0.013079960,1,0x00,0x00
0.013085820,1,0x2E,0x00
0.013091120,1,0x20,0xF0
0.013096840,1,0x2F,0xF0
0.013102120,1,0xB1,0x00
0.013108040,1,0x2E,0x00
0.013113340,1,0x60,0xF0
0.013119060,1,0x2F,0xF0
0.013124360,1,0x00,0x00
0.013130200,1,0x2E,0x00
0.013135500,1,0x28,0xF0
0.013141220,1,0x2F,0xF0
0.013146520,1,0xA6,0x00
0.013152360,1,0x2E,0x00
0.013157660,1,0x28,0xF0
0.013163380,1,0x2F,0xF0
0.013168680,1,0x97,0x00
0.013174520,1,0x2E,0x00
0.013179820,1,0xE2,0xF0
0.013185540,1,0x2F,0xF0
0.013190840,1,0x06,0x00
0.013196760,1,0x2E,0x00
0.013202040,1,0xF8,0xF0
0.013207780,1,0x2F,0xF0
0.013213080,1,0x00,0x00
0.013218920,1,0x2E,0x00
0.013224220,1,0x6F,0xF0
0.013229940,1,0x2F,0xF0
0.013235240,1,0xA8,0x00
0.013241080,1,0x2E,0x00
0.013246380,1,0xF8,0xF0
0.013252120,1,0x2F,0xF0
0.013257420,1,0x00,0x00
0.013263260,1,0x2E,0x00
0.013268560,1,0x80,0xF0
0.013274280,1,0x2F,0xF0
0.013279580,1,0x25,0x00
0.013285480,1,0x2E,0x00
0.013290780,1,0x46,0xF0
0.013296500,1,0x2F,0xF0
0.013301800,1,0x31,0x00
0.013307640,1,0x2E,0x00
0.013312940,1,0x21,0xF0
0.013318660,1,0x2F,0xF0
0.013323960,1,0x25,0x00
0.013329800,1,0x2E,0x00
0.013335100,1,0x15,0xF0
0.013340820,1,0x2F,0xF0
0.013346120,1,0xA5,0x00
0.013351980,1,0x2E,0x00
0.013357260,1,0x93,0xF0
0.013362980,1,0x2F,0xF0
0.013368280,1,0xED,0x00
0.013374200,1,0x2E,0x00
0.013379500,1,0xF0,0xF0
0.013385220,1,0x2F,0xF0
0.013390520,1,0x00,0x00
0.013396380,1,0x2E,0x00
0.013401680,1,0x87,0xF0
0.013407400,1,0x2F,0xF0
0.013412700,1,0xE5,0x00
0.013418560,1,0x2E,0x00
0.013423860,1,0x21,0xF0
0.013429580,1,0x2F,0xF0
0.013434880,1,0x04,0x00
0.013440720,1,0x2E,0x00
0.013446020,1,0xF8,0xF0
0.013451760,1,0x2F,0xF0
0.013457060,1,0x03,0x00
0.013462960,1,0x2E,0x00
0.013468260,1,0x80,0xF0
0.013473980,1,0x2F,0xF0
0.013479280,1,0x17,0x00
0.013485140,1,0x2E,0x00
0.013490420,1,0xF0,0xF0
0.013496160,1,0x2F,0xF0
0.013501460,1,0x00,0x00
0.013507300,1,0x2E,0x00
0.013512600,1,0xF8,0xF0
0.013518340,1,0x2F,0xF0
0.013523640,1,0x03,0x00
0.013529480,1,0x2E,0x00
0.013534780,1,0x80,0xF0
0.013540500,1,0x2F,0xF0
0.013545800,1,0x29,0x00
0.013551700,1,0x2E,0x00
0.013557000,1,0xF0,0xF0
0.013562720,1,0x2F,0xF0
0.013568020,1,0x00,0x00
0.013573860,1,0x2E,0x00
0.013579160,1,0x80,0xF0
0.013584880,1,0x2F,0xF0
0.013590180,1,0x0E,0x00
0.013596040,1,0x2E,0x00
0.013601340,1,0xF0,0xF0
0.013607060,1,0x2F,0xF0
0.013612340,1,0x00,0x00
0.013618200,1,0x2E,0x00
0.013623500,1,0x80,0xF0
0.013629220,1,0x2F,0xF0
0.013634520,1,0x04,0x00
0.013640440,1,0x2E,0x00
0.013645740,1,0x20,0xF0
0.013651460,1,0x2F,0xF0
0.013656740,1,0xB0,0x00
0.013662600,1,0x2E,0x00
0.013667900,1,0xF8,0xF0
0.013673620,1,0x2F,0xF0
0.013678920,1,0x06,0x00
0.013684760,1,0x2E,0x00
0.013690060,1,0x84,0xF0
0.013695800,1,0x2F,0xF0
0.013701080,1,0xC3,0x00
0.013706940,1,0x2E,0x00
0.013712240,1,0xF0,0xF0
0.013717960,1,0x2F,0xF0
0.013723260,1,0x00,0x00
0.013729160,1,0x2E,0x00
0.013734460,1,0x41,0xF0
0.013740200,1,0x2F,0xF0
0.013745500,1,0x00,0x00
0.013751340,1,0x2E,0x00
0.013756640,1,0x88,0xF0
0.013762380,1,0x2F,0xF0
0.013767680,1,0x04,0x00
0.013773520,1,0x2E,0x00
0.013778820,1,0xF0,0xF0
0.013784540,1,0x2F,0xF0
0.013789840,1,0x00,0x00
0.013795700,1,0x2E,0x00
0.013801000,1,0xF8,0xF0
0.013806720,1,0x2F,0xF0
0.013812020,1,0x00,0x00
0.013817940,1,0x2E,0x00
0.013823220,1,0x84,0xF0
0.013828940,1,0x2F,0xF0
0.013834240,1,0x0A,0x00
0.013840100,1,0x2E,0x00
0.013845400,1,0xF0,0xF0
0.013851120,1,0x2F,0xF0
0.013856420,1,0x00,0x00
0.013862260,1,0x2E,0x00
0.013867560,1,0xBC,0xF0
0.013873280,1,0x2F,0xF0
0.013878580,1,0x00,0x00
0.013884440,1,0x2E,0x00
0.013889740,1,0xF0,0xF0
0.013895460,1,0x2F,0xF0
0.013900760,1,0x00,0x00
0.013906660,1,0x2E,0x00
0.013911960,1,0x28,0xF0
0.013917700,1,0x2F,0xF0
0.013922980,1,0x40,0x00
0.013928840,1,0x2E,0x00
0.013934140,1,0xF8,0xF0
0.013939880,1,0x2F,0xF0
0.013945160,1,0x02,0x00
0.013951020,1,0x2E,0x00
0.013956320,1,0x61,0xF0
0.013962040,1,0x2F,0xF0
0.013967320,1,0xF2,0x00
0.013973180,1,0x2E,0x00
0.013978480,1,0xF8,0xF0
0.013984200,1,0x2F,0xF0
0.013989500,1,0x02,0x00
0.013995400,1,0x2E,0x00
0.014000700,1,0x60,0xF0
0.014006440,1,0x2F,0xF0
0.014011720,1,0x04,0x00
0.014017560,1,0x2E,0x00
0.014022860,1,0xF8,0xF0
0.014028600,1,0x2F,0xF0
0.014033900,1,0x22,0x00
0.014039740,1,0x2E,0x00
0.014045040,1,0x6F,0xF0
0.014050760,1,0x2F,0xF0
0.014056060,1,0x8D,0x00
0.014061900,1,0x2E,0x00
0.014067200,1,0xD2,0xF0
0.014072920,1,0x2F,0xF0
0.014078220,1,0x02,0x00
0.014084140,1,0x2E,0x00
0.014089420,1,0xD4,0xF0
0.014095160,1,0x2F,0xF0
0.014100460,1,0x04,0x00
0.014106300,1,0x2E,0x00
0.014111600,1,0xCD,0xF0
0.014117320,1,0x2F,0xF0
0.014122620,1,0xD2,0x00
0.014128480,1,0x2E,0x00
0.014133780,1,0xBC,0xF0
0.014139500,1,0x2F,0xF0
0.014144780,1,0x00,0x00
0.014150640,1,0x2E,0x00
0.014155940,1,0xCD,0xF0
0.014161660,1,0x2F,0xF0
0.014166960,1,0xD4,0x00
0.014172880,1,0x2E,0x00
0.014178180,1,0x62,0xF0
0.014183900,1,0x2F,0xF0
0.014189180,1,0x01,0x00
0.014195040,1,0x2E,0x00
0.014200340,1,0x29,0xF0
0.014206060,1,0x2F,0xF0
0.014211360,1,0x20,0x00
0.014217220,1,0x2E,0x00
0.014222520,1,0xC8,0xF0
0.014228240,1,0x2F,0xF0
0.014233540,1,0x10,0x00
0.014239400,1,0x2E,0x00
0.014244700,1,0x39,0xF0
0.014250420,1,0x2F,0xF0
0.014255720,1,0x20,0x00
0.014261640,1,0x2E,0x00
0.014266940,1,0x83,0xF0
0.014272660,1,0x2F,0xF0
0.014277960,1,0xB0,0x00
0.014283800,1,0x2E,0x00
0.014289100,1,0x67,0xF0
0.014294840,1,0x2F,0xF0
0.014300140,1,0x6A,0x00
0.014305980,1,0x2E,0x00
0.014311280,1,0xC9,0xF0
0.014317020,1,0x2F,0xF0
0.014322300,1,0x00,0x00
0.014328160,1,0x2E,0x00
0.014333440,1,0xF8,0xF0
0.014339180,1,0x2F,0xF0
0.014344480,1,0x0B,0x00
0.014350380,1,0x2E,0x00
0.014355680,1,0x88,0xF0
0.014361400,1,0x2F,0xF0
0.014366700,1,0x80,0x00
0.014372560,1,0x2E,0x00
0.014377840,1,0xF0,0xF0
0.014383580,1,0x2F,0xF0
0.014388880,1,0x00,0x00
0.014394720,1,0x2E,0x00
0.014400020,1,0xF8,0xF0
0.014405740,1,0x2F,0xF0
0.014411040,1,0x0E,0x00
0.014416900,1,0x2E,0x00
0.014422200,1,0x80,0xF0
0.014427920,1,0x2F,0xF0
0.014433220,1,0x7E,0x00
0.014439140,1,0x2E,0x00
0.014444440,1,0xF0,0xF0
0.014450160,1,0x2F,0xF0
0.014455460,1,0x00,0x00
0.014461320,1,0x2E,0x00
0.014466620,1,0xF8,0xF0
0.014472340,1,0x2F,0xF0
0.014477620,1,0x0F,0x00
0.014483480,1,0x2E,0x00
0.014488780,1,0x80,0xF0
0.014494500,1,0x2F,0xF0
0.014499800,1,0x61,0x00
0.014505640,1,0x2E,0x00
0.014510940,1,0xF0,0xF0
0.014516680,1,0x2F,0xF0
0.014521960,1,0x00,0x00
0.014527880,1,0x2E,0x00
0.014533180,1,0xF8,0xF0
0.014538900,1,0x2F,0xF0
0.014544200,1,0x00,0x00
0.014550040,1,0x2E,0x00
0.014555340,1,0x80,0xF0
0.014561060,1,0x2F,0xF0
0.014566360,1,0xAB,0x00
0.014572200,1,0x2E,0x00
0.014577500,1,0xF0,0xF0
0.014583240,1,0x2F,0xF0
0.014588540,1,0x00,0x00
0.014594380,1,0x2E,0x00
0.014599680,1,0xF8,0xF0
0.014605400,1,0x2F,0xF0
0.014610720,1,0x05,0x00
0.014616620,1,0x2E,0x00
0.014621920,1,0x80,0xF0
0.014627640,1,0x2F,0xF0
0.014632940,1,0x10,0x00
0.014638800,1,0x2E,0x00
0.014644080,1,0xF0,0xF0
0.014649820,1,0x2F,0xF0
0.014655120,1,0x00,0x00
0.014660960,1,0x2E,0x00
0.014666260,1,0xF8,0xF0
0.014671980,1,0x2F,0xF0
0.014677280,1,0x02,0x00
0.014683140,1,0x2E,0x00
0.014688420,1,0x80,0xF0
0.014694140,1,0x2F,0xF0
0.014699440,1,0x66,0x00
0.014705360,1,0x2E,0x00
0.014710660,1,0xF0,0xF0
0.014716380,1,0x2F,0xF0
0.014721680,1,0x00,0x00
0.014727520,1,0x2E,0x00
0.014732840,1,0xC9,0xF0
0.014738560,1,0x2F,0xF0
0.014743860,1,0x00,0x00
0.014749700,1,0x2E,0x00
0.014755020,1,0x88,0xF0
0.014760740,1,0x2F,0xF0
0.014766040,1,0x83,0x00
0.014771880,1,0x2E,0x00
0.014777180,1,0xF0,0xF0
0.014782920,1,0x2F,0xF0
0.014788200,1,0x00,0x00
0.014794120,1,0x2E,0x00
0.014799420,1,0xF8,0xF0
0.014805160,1,0x2F,0xF0
0.014810440,1,0x05,0x00
0.014816300,1,0x2E,0x00
0.014821600,1,0x80,0xF0
0.014827320,1,0x2F,0xF0
0.014832620,1,0x24,0x00
0.014838460,1,0x2E,0x00
0.014843760,1,0xF0,0xF0
0.014849500,1,0x2F,0xF0
0.014854800,1,0x00,0x00
0.014860640,1,0x2E,0x00
0.014865940,1,0x84,0xF0
0.014871660,1,0x2F,0xF0
0.014876980,1,0x8A,0x00
0.014882880,1,0x2E,0x00
0.014888180,1,0xF0,0xF0
0.014893900,1,0x2F,0xF0
0.014899200,1,0x00,0x00
0.014905060,1,0x2E,0x00
0.014910340,1,0xF8,0xF0
0.014916080,1,0x2F,0xF0
0.014921380,1,0x04,0x00
0.014927220,1,0x2E,0x00
0.014932520,1,0x80,0xF0
0.014938240,1,0x2F,0xF0
0.014943540,1,0x52,0x00
0.014949400,1,0x2E,0x00
0.014954700,1,0xF0,0xF0
0.014960420,1,0x2F,0xF0
0.014965720,1,0x00,0x00
0.014971620,1,0x2E,0x00
0.014976920,1,0xC9,0xF0
0.014982640,1,0x2F,0xF0
0.014987940,1,0x00,0x00
0.014993800,1,0x2E,0x00
0.014999100,1,0x88,0xF0
0.015004820,1,0x2F,0xF0
0.015010120,1,0xA3,0x00
0.015015980,1,0x2E,0x00
0.015021300,1,0xF0,0xF0
0.015027020,1,0x2F,0xF0
0.015032320,1,0x00,0x00
0.015038160,1,0x2E,0x00
0.015043460,1,0xF8,0xF0
0.015049200,1,0x2F,0xF0
0.015054480,1,0x00,0x00
0.015060400,1,0x2E,0x00
0.015065700,1,0x80,0xF0
0.015071420,1,0x2F,0xF0
0.015076720,1,0xAB,0x00
0.015082560,1,0x2E,0x00
0.015087860,1,0xF0,0xF0
0.015093600,1,0x2F,0xF0
0.015098880,1,0x00,0x00
0.015104720,1,0x2E,0x00
0.015110020,1,0xF8,0xF0
0.015115760,1,0x2F,0xF0
0.015121060,1,0x04,0x00
0.015126900,1,0x2E,0x00
0.015132180,1,0x80,0xF0
0.015137920,1,0x2F,0xF0
0.015143220,1,0x70,0x00
0.015149120,1,0x2E,0x00
0.015154420,1,0xF0,0xF0
0.015160140,1,0x2F,0xF0
0.015165440,1,0x00,0x00
0.015171300,1,0x2E,0x00
0.015176580,1,0xC9,0xF0
0.015182300,1,0x2F,0xF0
0.015187600,1,0x00,0x00
0.015193460,1,0x2E,0x00
0.015198760,1,0x88,0xF0
0.015204480,1,0x2F,0xF0
0.015209780,1,0x9E,0x00
0.015215640,1,0x2E,0x00
0.015220920,1,0xF0,0xF0
0.015226640,1,0x2F,0xF0
0.015231940,1,0x00,0x00
0.015237860,1,0x2E,0x00
0.015243160,1,0xF8,0xF0
0.015248880,1,0x2F,0xF0
0.015254180,1,0x02,0x00
0.015260020,1,0x2E,0x00
0.015265340,1,0x80,0xF0
0.015271060,1,0x2F,0xF0
0.015276360,1,0x66,0x00
0.015282200,1,0x2E,0x00
0.015287500,1,0xF0,0xF0
0.015293220,1,0x2F,0xF0
0.015298520,1,0x00,0x00
0.015304380,1,0x2E,0x00
0.015309680,1,0xC9,0xF0
0.015315400,1,0x2F,0xF0
0.015320700,1,0x00,0x00
0.015326620,1,0x2E,0x00
0.015331900,1,0x88,0xF0
0.015337640,1,0x2F,0xF0
0.015342920,1,0x94,0x00
0.015348760,1,0x2E,0x00
0.015354060,1,0xF0,0xF0
0.015359800,1,0x2F,0xF0
0.015365100,1,0x00,0x00
0.015370940,1,0x2E,0x00
0.015376240,1,0xF8,0xF0
0.015381960,1,0x2F,0xF0
0.015387260,1,0x04,0x00
0.015393100,1,0x2E,0x00
0.015398400,1,0x80,0xF0
0.015404140,1,0x2F,0xF0
0.015409440,1,0x82,0x00
0.015415340,1,0x2E,0x00
0.015420640,1,0xF0,0xF0
0.015426360,1,0x2F,0xF0
0.015431660,1,0x00,0x00
0.015437520,1,0x2E,0x00
0.015442800,1,0x29,0xF0
0.015448540,1,0x2F,0xF0
0.015453840,1,0x20,0x00
0.015459680,1,0x2E,0x00
0.015464980,1,0x40,0xF0
0.015470700,1,0x2F,0xF0
0.015476000,1,0x60,0x00
0.015481840,1,0x2E,0x00
0.015487140,1,0x29,0xF0
0.015492860,1,0x2F,0xF0
0.015498140,1,0x20,0x00
0.015504060,1,0x2E,0x00
0.015509360,1,0x8C,0xF0
0.015515080,1,0x2F,0xF0
0.015520380,1,0x04,0x00
0.015526220,1,0x2E,0x00
0.015531520,1,0xF0,0xF0
0.015537240,1,0x2F,0xF0
0.015542540,1,0x00,0x00
0.015548380,1,0x2E,0x00
0.015553680,1,0xF8,0xF0
0.015559400,1,0x2F,0xF0
0.015564700,1,0x04,0x00
0.015570540,1,0x2E,0x00
0.015575840,1,0x80,0xF0
0.015581560,1,0x2F,0xF0
0.015586860,1,0xB0,0x00
0.015592760,1,0x2E,0x00
0.015598080,1,0xF0,0xF0
0.015603800,1,0x2F,0xF0
0.015609080,1,0x00,0x00
0.015614940,1,0x2E,0x00
0.015620240,1,0xF8,0xF0
0.015625960,1,0x2F,0xF0
0.015631260,1,0x04,0x00
0.015637100,1,0x2E,0x00
0.015642400,1,0x80,0xF0
0.015648120,1,0x2F,0xF0
0.015653420,1,0x8F,0x00
0.015659260,1,0x2E,0x00
0.015664560,1,0xF0,0xF0
0.015670280,1,0x2F,0xF0
0.015675580,1,0x00,0x00
0.015681480,1,0x2E,0x00
0.015686780,1,0xF8,0xF0
0.015692520,1,0x2F,0xF0
0.015697820,1,0x01,0x00
0.015703660,1,0x2E,0x00
0.015708960,1,0x80,0xF0
0.015714700,1,0x2F,0xF0
0.015720000,1,0x79,0x00
0.015725840,1,0x2E,0x00
0.015731140,1,0xF0,0xF0
0.015736860,1,0x2F,0xF0
0.015742160,1,0x00,0x00
0.015748020,1,0x2E,0x00
0.015753300,1,0xF8,0xF0
0.015759040,1,0x2F,0xF0
0.015764320,1,0x01,0x00
0.015770240,1,0x2E,0x00
0.015775540,1,0x80,0xF0
0.015781260,1,0x2F,0xF0
0.015786560,1,0x7E,0x00
0.015792400,1,0x2E,0x00
0.015797700,1,0xF0,0xF0
0.015803420,1,0x2F,0xF0
0.015808720,1,0x00,0x00
0.015814580,1,0x2E,0x00
0.015819880,1,0xF8,0xF0
0.015825580,1,0x2F,0xF0
0.015830880,1,0x04,0x00
0.015836740,1,0x2E,0x00
0.015842040,1,0x80,0xF0
0.015847760,1,0x2F,0xF0
0.015853060,1,0xA0,0x00
0.015858960,1,0x2E,0x00
0.015864260,1,0xF0,0xF0
0.015869980,1,0x2F,0xF0
0.015875280,1,0x00,0x00
0.015881120,1,0x2E,0x00
0.015886420,1,0xF8,0xF0
0.015892160,1,0x2F,0xF0
0.015897460,1,0x0E,0x00
0.015903300,1,0x2E,0x00
0.015908600,1,0x80,0xF0
0.015914340,1,0x2F,0xF0
0.015919640,1,0xDA,0x00
0.015925480,1,0x2E,0x00
0.015930780,1,0xF0,0xF0
0.015936520,1,0x2F,0xF0
0.015941820,1,0x00,0x00
0.015947720,1,0x2E,0x00
0.015953020,1,0xF8,0xF0
0.015958760,1,0x2F,0xF0
0.015964060,1,0x00,0x00
0.015969900,1,0x2E,0x00
0.015975200,1,0x6F,0xF0
0.015980920,1,0x2F,0xF0
0.015986220,1,0xF6,0x00
0.015992080,1,0x2E,0x00
0.015997360,1,0x60,0xF0
0.016003100,1,0x2F,0xF0
0.016008400,1,0x47,0x00
0.016014240,1,0x2E,0x00
0.016019540,1,0xF8,0xF0
0.016025260,1,0x2F,0xF0
0.016030560,1,0x0D,0x00
0.016036480,1,0x2E,0x00
0.016041780,1,0x80,0xF0
0.016047500,1,0x2F,0xF0
0.016052800,1,0xF7,0x00
0.016058660,1,0x2E,0x00
0.016063940,1,0x28,0xF0
0.016069680,1,0x2F,0xF0
0.016074980,1,0x58,0x00
0.016080820,1,0x2E,0x00
0.016086120,1,0xF8,0xF0
0.016091840,1,0x2F,0xF0
0.016097140,1,0x0E,0x00
0.016103000,1,0x2E,0x00
0.016108300,1,0x80,0xF0
0.016114020,1,0x2F,0xF0
0.016119300,1,0x4F,0x00
0.016125220,1,0x2E,0x00
0.016130520,1,0xF0,0xF0
0.016136240,1,0x2F,0xF0
0.016141540,1,0x00,0x00
0.016147380,1,0x2E,0x00
0.016152680,1,0xF8,0xF0
0.016158420,1,0x2F,0xF0
0.016163700,1,0x0F,0x00
0.016169560,1,0x2E,0x00
0.016174860,1,0x80,0xF0
0.016180580,1,0x2F,0xF0
0.016185880,1,0x5F,0x00
0.016191720,1,0x2E,0x00
0.016197020,1,0x29,0xF0
0.016202760,1,0x2F,0xF0
0.016208060,1,0x70,0x00
0.016213960,1,0x2E,0x00
0.016219260,1,0x29,0xF0
0.016225000,1,0x2F,0xF0
0.016230280,1,0x29,0x00
0.016236140,1,0x2E,0x00
0.016241440,1,0xC9,0xF0
0.016247160,1,0x2F,0xF0
0.016252460,1,0xB9,0x00
0.016258320,1,0x2E,0x00
0.016263600,1,0xF8,0xF0
0.016269340,1,0x2F,0xF0
0.016274640,1,0x0E,0x00
0.016280480,1,0x2E,0x00
0.016285780,1,0x80,0xF0
0.016291500,1,0x2F,0xF0
0.016296800,1,0x02,0x00
0.016302720,1,0x2E,0x00
0.016308020,1,0xCB,0xF0
0.016313740,1,0x2F,0xF0
0.016319040,1,0x9B,0x00
0.016324900,1,0x2E,0x00
0.016330200,1,0xCB,0xF0
0.016335920,1,0x2F,0xF0
0.016341200,1,0xB9,0x00
0.016347060,1,0x2E,0x00
0.016352360,1,0x42,0xF0
0.016358100,1,0x2F,0xF0
0.016363400,1,0x0B,0x00
0.016369240,1,0x2E,0x00
0.016374540,1,0xCB,0xF0
0.016380280,1,0x2F,0xF0
0.016385560,1,0x9B,0x00
0.016391480,1,0x2E,0x00
0.016396780,1,0x88,0xF0
0.016402520,1,0x2F,0xF0
0.016407800,1,0x6B,0x00
0.016413660,1,0x2E,0x00
0.016418960,1,0xF0,0xF0
0.016424680,1,0x2F,0xF0
0.016429980,1,0x00,0x00
0.016435840,1,0x2E,0x00
0.016441140,1,0x40,0xF0
0.016446860,1,0x2F,0xF0
0.016452160,1,0x19,0x00
0.016458020,1,0x2E,0x00
0.016463320,1,0x60,0xF0
0.016469040,1,0x2F,0xF0
0.016474340,1,0x09,0x00
0.016480260,1,0x2E,0x00
0.016485560,1,0x8C,0xF0
0.016491300,1,0x2F,0xF0
0.016496600,1,0x04,0x00
0.016502440,1,0x2E,0x00
0.016507740,1,0xF0,0xF0
0.016513480,1,0x2F,0xF0
0.016518780,1,0x00,0x00
0.016524620,1,0x2E,0x00
0.016529920,1,0xF8,0xF0
0.016535660,1,0x2F,0xF0
0.016540960,1,0x02,0x00
0.016546800,1,0x2E,0x00
0.016552100,1,0x80,0xF0
0.016557840,1,0x2F,0xF0
0.016563140,1,0xEF,0x00
0.016569060,1,0x2E,0x00
0.016574340,1,0xF0,0xF0
0.016580080,1,0x2F,0xF0
0.016585380,1,0x00,0x00
0.016591240,1,0x2E,0x00
0.016596520,1,0xF8,0xF0
0.016602260,1,0x2F,0xF0
0.016607560,1,0x0E,0x00
0.016613400,1,0x2E,0x00
0.016618700,1,0x80,0xF0
0.016624440,1,0x2F,0xF0
0.016629740,1,0x07,0x00
0.016635580,1,0x2E,0x00
0.016640880,1,0xF0,0xF0
0.016646620,1,0x2F,0xF0
0.016651900,1,0x00,0x00
0.016657820,1,0x2E,0x00
0.016663120,1,0xF8,0xF0
0.016668860,1,0x2F,0xF0
0.016674160,1,0x01,0x00
0.016680000,1,0x2E,0x00
0.016685300,1,0x80,0xF0
0.016691040,1,0x2F,0xF0
0.016696320,1,0xB8,0x00
0.016702180,1,0x2E,0x00
0.016707480,1,0xF0,0xF0
0.016713220,1,0x2F,0xF0
0.016718520,1,0x00,0x00
0.016724380,1,0x2E,0x00
0.016729680,1,0x80,0xF0
0.016735420,1,0x2F,0xF0
0.016740720,1,0x62,0x00
0.016746620,1,0x2E,0x00
0.016751920,1,0xF0,0xF0
0.016757660,1,0x2F,0xF0
0.016762960,1,0x00,0x00
0.016768800,1,0x2E,0x00
0.016774100,1,0x29,0xF0
0.016779840,1,0x2F,0xF0
0.016785140,1,0x20,0x00
0.016791000,1,0x2E,0x00
0.016796280,1,0x44,0xF0
0.016802020,1,0x2F,0xF0
0.016807320,1,0x00,0x00
0.016813180,1,0x2E,0x00
0.016818480,1,0x29,0xF0
0.016824200,1,0x2F,0xF0
0.016829520,1,0x20,0x00
0.016835440,1,0x2E,0x00
0.016840720,1,0x88,0xF0
0.016846460,1,0x2F,0xF0
0.016851760,1,0x17,0x00
0.016857620,1,0x2E,0x00
0.016862900,1,0x42,0xF0
0.016868640,1,0x2F,0xF0
0.016873940,1,0x00,0x00
0.016879800,1,0x2E,0x00
0.016885100,1,0x88,0xF0
0.016890820,1,0x2F,0xF0
0.016896120,1,0x0F,0x00
0.016901980,1,0x2E,0x00
0.016907280,1,0xF0,0xF0
0.016913020,1,0x2F,0xF0
0.016918300,1,0x00,0x00
0.016924220,1,0x2E,0x00
0.016929520,1,0xF8,0xF0
0.016935260,1,0x2F,0xF0
0.016940560,1,0x22,0x00
0.016946400,1,0x2E,0x00
0.016951700,1,0x6F,0xF0
0.016957440,1,0x2F,0xF0
0.016962720,1,0x0D,0x00
0.016968580,1,0x2E,0x00
0.016973880,1,0xCC,0xF0
0.016979620,1,0x2F,0xF0
0.016984900,1,0xD1,0x00
0.016990760,1,0x2E,0x00
0.016996060,1,0xCC,0xF0
0.017001780,1,0x2F,0xF0
0.017007080,1,0xD2,0x00
0.017012980,1,0x2E,0x00
0.017018280,1,0xF8,0xF0
0.017024020,1,0x2F,0xF0
0.017029320,1,0x03,0x00
0.017035160,1,0x2E,0x00
0.017040460,1,0xE1,0xF0
0.017046200,1,0x2F,0xF0
0.017051500,1,0xA1,0x00
0.017057340,1,0x2E,0x00
0.017062640,1,0xF8,0xF0
0.017068360,1,0x2F,0xF0
0.017073660,1,0x03,0x00
0.017079500,1,0x2E,0x00
0.017084800,1,0xE2,0xF0
0.017090540,1,0x2F,0xF0
0.017095840,1,0xA2,0x00
0.017101740,1,0x2E,0x00
0.017107040,1,0xF8,0xF0
0.017112760,1,0x2F,0xF0
0.017118060,1,0x0F,0x00
0.017123920,1,0x2E,0x00
0.017129220,1,0x80,0xF0
0.017134940,1,0x2F,0xF0
0.017140240,1,0x52,0x00
0.017146100,1,0x2E,0x00
0.017151380,1,0xF0,0xF0
0.017157120,1,0x2F,0xF0
0.017162400,1,0x00,0x00
0.017168260,1,0x2E,0x00
0.017173560,1,0x83,0xF0
0.017179300,1,0x2F,0xF0
0.017184600,1,0x64,0x00
0.017190520,1,0x2E,0x00
0.017195820,1,0x20,0xF0
0.017201540,1,0x2F,0xF0
0.017206820,1,0xB0,0x00
0.017212680,1,0x2E,0x00
0.017217980,1,0xE0,0xF0
0.017223680,1,0x2F,0xF0
0.017228980,1,0xF0,0x00
0.017234820,1,0x2E,0x00
0.017240120,1,0xF8,0xF0
0.017245840,1,0x2F,0xF0
0.017251120,1,0x01,0x00
0.017256960,1,0x2E,0x00
0.017262260,1,0x80,0xF0
0.017267980,1,0x2F,0xF0
0.017273260,1,0x8C,0x00
0.017279160,1,0x2E,0x00
0.017284460,1,0xF0,0xF0
0.017290180,1,0x2F,0xF0
0.017295460,1,0x00,0x00
0.017301300,1,0x2E,0x00
0.017306600,1,0xCB,0xF0
0.017312320,1,0x2F,0xF0
0.017317620,1,0x31,0x00
0.017323460,1,0x2E,0x00
0.017328740,1,0x87,0xF0
0.017334460,1,0x2F,0xF0
0.017339760,1,0xF5,0x00
0.017345600,1,0x2E,0x00
0.017350880,1,0xCB,0xF0
0.017356600,1,0x2F,0xF0
0.017361900,1,0x42,0x00
0.017367800,1,0x2E,0x00
0.017373100,1,0x28,0xF0
0.017378820,1,0x2F,0xF0
0.017384100,1,0x11,0x00
0.017389960,1,0x2E,0x00
0.017395240,1,0xF8,0xF0
0.017400960,1,0x2F,0xF0
0.017406260,1,0x08,0x00
0.017412100,1,0x2E,0x00
0.017417380,1,0xE1,0xF0
0.017423100,1,0x2F,0xF0
0.017428400,1,0xB1,0x00
0.017434240,1,0x2E,0x00
0.017439520,1,0x42,0xF0
0.017445240,1,0x2F,0xF0
0.017450540,1,0x01,0x00
0.017456440,1,0x2E,0x00
0.017461740,1,0x8C,0xF0
0.017467460,1,0x2F,0xF0
0.017472740,1,0x04,0x00
0.017478580,1,0x2E,0x00
0.017483880,1,0xF0,0xF0
0.017489600,1,0x2F,0xF0
0.017494900,1,0x00,0x00
0.017500740,1,0x2E,0x00
0.017506040,1,0xF8,0xF0
0.017511760,1,0x2F,0xF0
0.017517060,1,0x00,0x00
0.017522900,1,0x2E,0x00
0.017528200,1,0x80,0xF0
0.017533920,1,0x2F,0xF0
0.017539200,1,0x9E,0x00
0.017545100,1,0x2E,0x00
0.017550400,1,0xF0,0xF0
0.017556120,1,0x2F,0xF0
0.017561420,1,0x00,0x00
0.017567260,1,0x2E,0x00
0.017572540,1,0x2A,0xF0
0.017578280,1,0x2F,0xF0
0.017583560,1,0x01,0x00
0.017589400,1,0x2E,0x00
0.017594680,1,0x20,0xF0
0.017600400,1,0x2F,0xF0
0.017605700,1,0xB0,0x00
0.017611540,1,0x2E,0x00
0.017616820,1,0x83,0xF0
0.017622540,1,0x2F,0xF0
0.017627840,1,0x50,0x00
0.017633740,1,0x2E,0x00
0.017639040,1,0x3A,0xF0
0.017644760,1,0x2F,0xF0
0.017650060,1,0x01,0x00
0.017655900,1,0x2E,0x00
0.017661180,1,0xE0,0xF0
0.017666900,1,0x2F,0xF0
0.017672200,1,0xF0,0x00
0.017678040,1,0x2E,0x00
0.017683340,1,0x26,0xF0
0.017689060,1,0x2F,0xF0
0.017694340,1,0xEF,0x00
0.017700200,1,0x2E,0x00
0.017705480,1,0xF8,0xF0
0.017711200,1,0x2F,0xF0
0.017716480,1,0x0D,0x00
0.017722400,1,0x2E,0x00
0.017727700,1,0x80,0xF0
0.017733400,1,0x2F,0xF0
0.017738700,1,0x90,0x00
0.017744560,1,0x2E,0x00
0.017749860,1,0x11,0xF0
0.017755560,1,0x2F,0xF0
0.017760860,1,0xCF,0x00
0.017766700,1,0x2E,0x00
0.017772000,1,0xF8,0xF0
0.017777720,1,0x2F,0xF0
0.017783000,1,0x01,0x00
0.017788840,1,0x2E,0x00
0.017794140,1,0x60,0xF0
0.017799860,1,0x2F,0xF0
0.017805140,1,0x0D,0x00
0.017811060,1,0x2E,0x00
0.017816340,1,0xC8,0xF0
0.017822060,1,0x2F,0xF0
0.017827360,1,0x0D,0x00
0.017833200,1,0x2E,0x00
0.017838480,1,0x8A,0xF0
0.017844220,1,0x2F,0xF0
0.017849500,1,0xF9,0x00
0.017855340,1,0x2E,0x00
0.017860640,1,0xF0,0xF0
0.017866360,1,0x2F,0xF0
0.017871640,1,0x00,0x00
0.017877480,1,0x2E,0x00
0.017882780,1,0xF8,0xF0
0.017888500,1,0x2F,0xF0
0.017893800,1,0x05,0x00
0.017899700,1,0x2E,0x00
0.017905000,1,0x80,0xF0
0.017910720,1,0x2F,0xF0
0.017916020,1,0x24,0x00
0.017921860,1,0x2E,0x00
0.017927140,1,0xF0,0xF0
0.017932860,1,0x2F,0xF0
0.017938160,1,0x00,0x00
0.017944000,1,0x2E,0x00
0.017949280,1,0xF8,0xF0
0.017955020,1,0x2F,0xF0
0.017960300,1,0x05,0x00
0.017966160,1,0x2E,0x00
0.017971440,1,0x80,0xF0
0.017977160,1,0x2F,0xF0
0.017982460,1,0x31,0x00
0.017988360,1,0x2E,0x00
0.017993660,1,0xF0,0xF0
0.017999360,1,0x2F,0xF0
0.018004660,1,0x00,0x00
0.018010520,1,0x2E,0x00
0.018015800,1,0xC9,0xF0
0.018021520,1,0x2F,0xF0
0.018026820,1,0x00,0x00
0.018032680,1,0x2E,0x00
0.018037980,1,0x88,0xF0
0.018043700,1,0x2F,0xF0
0.018048980,1,0x15,0x00
0.018054840,1,0x2E,0x00
0.018060120,1,0xF0,0xF0
0.018065860,1,0x2F,0xF0
0.018071140,1,0x00,0x00
0.018077040,1,0x2E,0x00
0.018082340,1,0xF8,0xF0
0.018088060,1,0x2F,0xF0
0.018093360,1,0x00,0x00
0.018099200,1,0x2E,0x00
0.018104480,1,0x80,0xF0
0.018110220,1,0x2F,0xF0
0.018115500,1,0xAB,0x00
0.018121340,1,0x2E,0x00
0.018126640,1,0xF0,0xF0
0.018132360,1,0x2F,0xF0
0.018137640,1,0x00,0x00
0.018143480,1,0x2E,0x00
0.018148760,1,0xF8,0xF0
0.018154500,1,0x2F,0xF0
0.018159780,1,0x04,0x00
0.018165680,1,0x2E,0x00
0.018170960,1,0x80,0xF0
0.018176680,1,0x2F,0xF0
0.018181980,1,0x70,0x00
0.018187820,1,0x2E,0x00
0.018193100,1,0xF0,0xF0
0.018198820,1,0x2F,0xF0
0.018204100,1,0x00,0x00
0.018209960,1,0x2E,0x00
0.018215240,1,0xC9,0xF0
0.018220940,1,0x2F,0xF0
0.018226240,1,0x00,0x00
0.018232080,1,0x2E,0x00
0.018237380,1,0x88,0xF0
0.018243100,1,0x2F,0xF0
0.018248380,1,0x0C,0x00
0.018254300,1,0x2E,0x00
0.018259580,1,0x62,0xF0
0.018265300,1,0x2F,0xF0
0.018270600,1,0x00,0x00
0.018276440,1,0x2E,0x00
0.018281740,1,0xF8,0xF0
0.018287440,1,0x2F,0xF0
0.018292740,1,0x02,0x00
0.018298580,1,0x2E,0x00
0.018303880,1,0x80,0xF0
0.018309580,1,0x2F,0xF0
0.018314880,1,0x66,0x00
0.018320720,1,0x2E,0x00
0.018326020,1,0x34,0xF0
0.018331740,1,0x2F,0xF0
0.018337020,1,0x50,0x00
0.018342920,1,0x2E,0x00
0.018348220,1,0xC9,0xF0
0.018353940,1,0x2F,0xF0
0.018359220,1,0x00,0x00
0.018365060,1,0x2E,0x00
0.018370360,1,0x88,0xF0
0.018376080,1,0x2F,0xF0
0.018381360,1,0x06,0x00
0.018387200,1,0x2E,0x00
0.018392500,1,0xF0,0xF0
0.018398220,1,0x2F,0xF0
0.018403520,1,0x00,0x00
0.018409360,1,0x2E,0x00
0.018414640,1,0xF8,0xF0
0.018420360,1,0x2F,0xF0
0.018425660,1,0x05,0x00
0.018431540,1,0x2E,0x00
0.018436840,1,0x80,0xF0
0.018442560,1,0x2F,0xF0
0.018447860,1,0x54,0x00
0.018453700,1,0x2E,0x00
0.018458980,1,0xF0,0xF0
0.018464700,1,0x2F,0xF0
0.018470000,1,0x00,0x00
0.018475840,1,0x2E,0x00
0.018481120,1,0x87,0xF0
0.018486840,1,0x2F,0xF0
0.018492140,1,0x5E,0x00
0.018498000,1,0x2E,0x00
0.018503280,1,0xF0,0xF0
0.018509020,1,0x2F,0xF0
0.018514300,1,0x00,0x00
0.018520220,1,0x2E,0x00
0.018525500,1,0xF8,0xF0
0.018531220,1,0x2F,0xF0
0.018536520,1,0x0D,0x00
0.018542380,1,0x2E,0x00
0.018547660,1,0x80,0xF0
0.018553380,1,0x2F,0xF0
0.018558660,1,0xED,0x00
0.018564520,1,0x2E,0x00
0.018569820,1,0xF0,0xF0
0.018575520,1,0x2F,0xF0
0.018580820,1,0x00,0x00
0.018586660,1,0x2E,0x00
0.018591960,1,0x87,0xF0
0.018597680,1,0x2F,0xF0
0.018602960,1,0x59,0x00
0.018608860,1,0x2E,0x00
0.018614160,1,0xF0,0xF0
0.018619880,1,0x2F,0xF0
0.018625160,1,0x00,0x00
0.018631000,1,0x2E,0x00
0.018636300,1,0x29,0xF0
0.018642020,1,0x2F,0xF0
0.018647320,1,0x20,0x00
0.018653160,1,0x2E,0x00
0.018658440,1,0x50,0xF0
0.018664180,1,0x2F,0xF0
0.018669460,1,0x40,0x00
0.018675300,1,0x2E,0x00
0.018680600,1,0x87,0xF0
0.018686320,1,0x2F,0xF0
0.018691620,1,0x72,0x00
0.018697520,1,0x2E,0x00
0.018702800,1,0x39,0xF0
0.018708520,1,0x2F,0xF0
0.018713820,1,0x20,0x00
0.018719660,1,0x2E,0x00
0.018724940,1,0x60,0xF0
0.018730660,1,0x2F,0xF0
0.018735940,1,0x01,0x00
0.018741780,1,0x2E,0x00
0.018747080,1,0x87,0xF0
0.018752780,1,0x2F,0xF0
0.018758080,1,0x67,0x00
0.018763920,1,0x2E,0x00
0.018769200,1,0x60,0xF0
0.018774920,1,0x2F,0xF0
0.018780220,1,0x02,0x00
0.018786120,1,0x2E,0x00
0.018791420,1,0xF8,0xF0
0.018797140,1,0x2F,0xF0
0.018802420,1,0x0E,0x00
0.018808280,1,0x2E,0x00
0.018813560,1,0x80,0xF0
0.018819280,1,0x2F,0xF0
0.018824580,1,0x12,0x00
0.018830420,1,0x2E,0x00
0.018835720,1,0xF0,0xF0
0.018841420,1,0x2F,0xF0
0.018846720,1,0x00,0x00
0.018852560,1,0x2E,0x00
0.018857860,1,0xF0,0xF0
0.018863580,1,0x2F,0xF0
0.018868860,1,0x00,0x00
0.018874760,1,0x2E,0x00
0.018880060,1,0x87,0xF0
0.018885760,1,0x2F,0xF0
0.018891040,1,0x91,0x00
0.018896900,1,0x2E,0x00
0.018902180,1,0xF0,0xF0
0.018907900,1,0x2F,0xF0
0.018913180,1,0x00,0x00
0.018919020,1,0x2E,0x00
0.018924320,1,0x28,0xF0
0.018930040,1,0x2F,0xF0
0.018935320,1,0x11,0x00
0.018941160,1,0x2E,0x00
0.018946440,1,0xF8,0xF0
0.018952160,1,0x2F,0xF0
0.018957460,1,0x08,0x00
0.018963360,1,0x2E,0x00
0.018968640,1,0xE1,0xF0
0.018974360,1,0x2F,0xF0
0.018979640,1,0xB1,0x00
0.018985480,1,0x2E,0x00
0.018990760,1,0xCB,0xF0
0.018996480,1,0x2F,0xF0
0.019001780,1,0x02,0x00
0.019007620,1,0x2E,0x00
0.019012900,1,0x14,0xF0
0.019018620,1,0x2F,0xF0
0.019023920,1,0x00,0x00
0.019029760,1,0x2E,0x00
0.019035040,1,0xCB,0xF0
0.019040760,1,0x2F,0xF0
0.019046040,1,0x20,0x00
0.019051960,1,0x2E,0x00
0.019057240,1,0xCB,0xF0
0.019062960,1,0x2F,0xF0
0.019068240,1,0x13,0x00
0.019074100,1,0x2E,0x00
0.019079380,1,0x94,0xF0
0.019085100,1,0x2F,0xF0
0.019090380,1,0x30,0x00
0.019096220,1,0x2E,0x00
0.019101520,1,0x29,0xF0
0.019107220,1,0x2F,0xF0
0.019112520,1,0x22,0x00
0.019118360,1,0x2E,0x00
0.019123660,1,0x48,0xF0
0.019129360,1,0x2F,0xF0
0.019134640,1,0x01,0x00
0.019140560,1,0x2E,0x00
0.019145840,1,0xCB,0xF0
0.019151560,1,0x2F,0xF0
0.019156840,1,0x31,0x00
0.019162680,1,0x2E,0x00
0.019167960,1,0x88,0xF0
0.019173680,1,0x2F,0xF0
0.019178980,1,0x26,0x00
0.019184820,1,0x2E,0x00
0.019190100,1,0x44,0xF0
0.019195820,1,0x2F,0xF0
0.019201120,1,0x01,0x00
0.019206940,1,0x2E,0x00
0.019212240,1,0xCB,0xF0
0.019217960,1,0x2F,0xF0
0.019223240,1,0x31,0x00
0.019229140,1,0x2E,0x00
0.019234440,1,0x88,0xF0
0.019240160,1,0x2F,0xF0
0.019245460,1,0x2F,0x00
0.019251300,1,0x2E,0x00
0.019256580,1,0xC9,0xF0
0.019262300,1,0x2F,0xF0
0.019267600,1,0x00,0x00
0.019273460,1,0x2E,0x00
0.019278740,1,0x88,0xF0
0.019284460,1,0x2F,0xF0
0.019289740,1,0x02,0x00
0.019295600,1,0x2E,0x00
0.019300880,1,0x41,0xF0
0.019306600,1,0x2F,0xF0
0.019311880,1,0x81,0x00
0.019317780,1,0x2E,0x00
0.019323080,1,0x88,0xF0
0.019328780,1,0x2F,0xF0
0.019334080,1,0x13,0x00
0.019339940,1,0x2E,0x00
0.019345220,1,0x44,0xF0
0.019350940,1,0x2F,0xF0
0.019356220,1,0x02,0x00
0.019362080,1,0x2E,0x00
0.019367360,1,0xF8,0xF0
0.019373080,1,0x2F,0xF0
0.019378380,1,0x02,0x00
0.019384220,1,0x2E,0x00
0.019389520,1,0x68,0xF0
0.019395240,1,0x2F,0xF0
0.019400520,1,0x08,0x00
0.019406420,1,0x2E,0x00
0.019411720,1,0x8C,0xF0
0.019417440,1,0x2F,0xF0
0.019422720,1,0x1B,0x00
0.019428580,1,0x2E,0x00
0.019433860,1,0xF0,0xF0
0.019439600,1,0x2F,0xF0
0.019444880,1,0x00,0x00
0.019450720,1,0x2E,0x00
0.019456020,1,0xF8,0xF0
0.019461740,1,0x2F,0xF0
0.019467020,1,0x02,0x00
0.019472860,1,0x2E,0x00
0.019478160,1,0x80,0xF0
0.019483880,1,0x2F,0xF0
0.019489180,1,0xF3,0x00
0.019495080,1,0x2E,0x00
0.019500360,1,0xF0,0xF0
0.019506080,1,0x2F,0xF0
0.019511380,1,0x00,0x00
0.019517220,1,0x2E,0x00
0.019522520,1,0x41,0xF0
0.019528240,1,0x2F,0xF0
0.019533540,1,0x81,0x00
0.019539380,1,0x2E,0x00
0.019544660,1,0x88,0xF0
0.019550380,1,0x2F,0xF0
0.019555660,1,0x09,0x00
0.019561520,1,0x2E,0x00
0.019566800,1,0x28,0xF0
0.019572520,1,0x2F,0xF0
0.019577800,1,0x78,0x00
0.019583720,1,0x2E,0x00
0.019589000,1,0xF8,0xF0
0.019594700,1,0x2F,0xF0
0.019600000,1,0x01,0x00
0.019605840,1,0x2E,0x00
0.019611140,1,0x6E,0xF0
0.019616860,1,0x2F,0xF0
0.019622140,1,0x09,0x00
0.019627980,1,0x2E,0x00
0.019633280,1,0xD9,0xF0
0.019639000,1,0x2F,0xF0
0.019644280,1,0x98,0x00
0.019650140,1,0x2E,0x00
0.019655420,1,0xF8,0xF0
0.019661140,1,0x2F,0xF0
0.019666420,1,0x02,0x00
0.019672340,1,0x2E,0x00
0.019677640,1,0x80,0xF0
0.019683360,1,0x2F,0xF0
0.019688640,1,0xFB,0x00
0.019694500,1,0x2E,0x00
0.019699780,1,0xF0,0xF0
0.019705500,1,0x2F,0xF0
0.019710800,1,0x00,0x00
0.019716640,1,0x2E,0x00
0.019721920,1,0x8C,0xF0
0.019727660,1,0x2F,0xF0
0.019732940,1,0x0D,0x00
0.019738780,1,0x2E,0x00
0.019744080,1,0xF0,0xF0
0.019749800,1,0x2F,0xF0
0.019755080,1,0x00,0x00
0.019761000,1,0x2E,0x00
0.019766280,1,0xF8,0xF0
0.019772020,1,0x2F,0xF0
0.019777300,1,0x02,0x00
0.019783140,1,0x2E,0x00
0.019788440,1,0x80,0xF0
0.019794160,1,0x2F,0xF0
0.019799460,1,0xEF,0x00
0.019805300,1,0x2E,0x00
0.019810580,1,0x28,0xF0
0.019816320,1,0x2F,0xF0
0.019821600,1,0x61,0x00
0.019827440,1,0x2E,0x00
0.019832740,1,0x60,0xF0
0.019838460,1,0x2F,0xF0
0.019843760,1,0x42,0x00
0.019849660,1,0x2E,0x00
0.019854940,1,0xF8,0xF0
0.019860680,1,0x2F,0xF0
0.019865960,1,0x0C,0x00
0.019871820,1,0x2E,0x00
0.019877100,1,0x6E,0xF0
0.019882820,1,0x2F,0xF0
0.019888120,1,0x60,0x00
0.019893960,1,0x2E,0x00
0.019899260,1,0xF8,0xF0
0.019904980,1,0x2F,0xF0
0.019910260,1,0x02,0x00
0.019916100,1,0x2E,0x00
0.019921400,1,0xE1,0xF0
0.019927120,1,0x2F,0xF0
0.019932420,1,0xA1,0x00
0.019938320,1,0x2E,0x00
0.019943620,1,0x3A,0xF0
0.019949340,1,0x2F,0xF0
0.019954620,1,0x02,0x00
0.019960460,1,0x2E,0x00
0.019965740,1,0x3B,0xF0
0.019971480,1,0x2F,0xF0
0.019976760,1,0x01,0x00
0.019982600,1,0x2E,0x00
0.019987900,1,0xBC,0xF0
0.019993620,1,0x2F,0xF0
0.019998900,1,0x00,0x00
0.020004740,1,0x2E,0x00
0.020010040,1,0x3F,0xF0
0.020015760,1,0x2F,0xF0
0.020021060,1,0x00,0x00
0.020026940,1,0x2E,0x00
0.020032240,1,0x60,0xF0
0.020037960,1,0x2F,0xF0
0.020043260,1,0x21,0x00
0.020049100,1,0x2E,0x00
0.020054380,1,0xF8,0xF0
0.020060100,1,0x2F,0xF0
0.020065400,1,0x09,0x00
0.020071240,1,0x2E,0x00
0.020076520,1,0x6F,0xF0
0.020082240,1,0x2F,0xF0
0.020087540,1,0xA0,0x00
0.020093380,1,0x2E,0x00
0.020098660,1,0x3A,0xF0
0.020104380,1,0x2F,0xF0
0.020109660,1,0x01,0x00
0.020115580,1,0x2E,0x00
0.020120860,1,0xBC,0xF0
0.020126580,1,0x2F,0xF0
0.020131880,1,0x00,0x00
0.020137740,1,0x2E,0x00
0.020143020,1,0x3F,0xF0
0.020148740,1,0x2F,0xF0
0.020154020,1,0x00,0x00
0.020159880,1,0x2E,0x00
0.020165160,1,0x60,0xF0
0.020170880,1,0x2F,0xF0
0.020176180,1,0x01,0x00
0.020182020,1,0x2E,0x00
0.020187320,1,0xF8,0xF0
0.020193040,1,0x2F,0xF0
0.020198340,1,0x08,0x00
0.020204240,1,0x2E,0x00
0.020209540,1,0x6D,0xF0
0.020215260,1,0x2F,0xF0
0.020220560,1,0xD0,0x00
0.020226400,1,0x2E,0x00
0.020231680,1,0x3A,0xF0
0.020237420,1,0x2F,0xF0
0.020242700,1,0x01,0x00
0.020248540,1,0x2E,0x00
0.020253840,1,0xBC,0xF0
0.020259560,1,0x2F,0xF0
0.020264840,1,0x00,0x00
0.020270680,1,0x2E,0x00
0.020275980,1,0x3F,0xF0
0.020281700,1,0x2F,0xF0
0.020286980,1,0x00,0x00
0.020292880,1,0x2E,0x00
0.020298180,1,0x60,0xF0
0.020303900,1,0x2F,0xF0
0.020309180,1,0x01,0x00
0.020315020,1,0x2E,0x00
0.020320320,1,0xF8,0xF0
0.020326040,1,0x2F,0xF0
0.020331340,1,0x0B,0x00
0.020337180,1,0x2E,0x00
0.020342460,1,0x6E,0xF0
0.020348180,1,0x2F,0xF0
0.020353480,1,0x10,0x00
0.020359320,1,0x2E,0x00
0.020364620,1,0x3A,0xF0
0.020370340,1,0x2F,0xF0
0.020375620,1,0x01,0x00
0.020381520,1,0x2E,0x00
0.020386820,1,0xBC,0xF0
0.020392540,1,0x2F,0xF0
0.020397820,1,0x00,0x00
0.020403680,1,0x2E,0x00
0.020408960,1,0x3F,0xF0
0.020414680,1,0x2F,0xF0
0.020419960,1,0x00,0x00
0.020425800,1,0x2E,0x00
0.020431100,1,0xF8,0xF0
0.020436800,1,0x2F,0xF0
0.020442100,1,0x04,0x00
0.020447940,1,0x2E,0x00
0.020453240,1,0x80,0xF0
0.020458940,1,0x2F,0xF0
0.020464240,1,0xE8,0x00
0.020470140,1,0x2E,0x00
0.020475420,1,0xF0,0xF0
0.020481140,1,0x2F,0xF0
0.020486420,1,0x00,0x00
0.020492260,1,0x2E,0x00
0.020497560,1,0x82,0xF0
0.020503280,1,0x2F,0xF0
0.020508560,1,0x97,0x00
0.020514400,1,0x2E,0x00
0.020519700,1,0x67,0xF0
0.020525420,1,0x2F,0xF0
0.020530700,1,0x6A,0x00
0.020536540,1,0x2E,0x00
0.020541820,1,0xF8,0xF0
0.020547560,1,0x2F,0xF0
0.020552840,1,0x22,0x00
0.020558740,1,0x2E,0x00
0.020564040,1,0x6F,0xF0
0.020569760,1,0x2F,0xF0
0.020575060,1,0x0D,0x00
0.020580900,1,0x2E,0x00
0.020586180,1,0xC9,0xF0
0.020591900,1,0x2F,0xF0
0.020597200,1,0x00,0x00
0.020603040,1,0x2E,0x00
0.020608320,1,0xF8,0xF0
0.020614040,1,0x2F,0xF0
0.020619340,1,0x0B,0x00
0.020625180,1,0x2E,0x00
0.020630460,1,0x88,0xF0
0.020636180,1,0x2F,0xF0
0.020641480,1,0x80,0x00
0.020647380,1,0x2E,0x00
0.020652660,1,0xF0,0xF0
0.020658380,1,0x2F,0xF0
0.020663680,1,0x00,0x00
0.020669520,1,0x2E,0x00
0.020674800,1,0xCC,0xF0
0.020680520,1,0x2F,0xF0
0.020685820,1,0xD1,0x00
0.020691660,1,0x2E,0x00
0.020696940,1,0xF8,0xF0
0.020702660,1,0x2F,0xF0
0.020707960,1,0x03,0x00
0.020713800,1,0x2E,0x00
0.020719100,1,0x80,0xF0
0.020724800,1,0x2F,0xF0
0.020730100,1,0xB8,0x00
0.020736000,1,0x2E,0x00
0.020741300,1,0xCC,0xF0
0.020747020,1,0x2F,0xF0
0.020752300,1,0xD2,0x00
0.020758140,1,0x2E,0x00
0.020763440,1,0xCB,0xF0
0.020769160,1,0x2F,0xF0
0.020774440,1,0x31,0x00
0.020780280,1,0x2E,0x00
0.020785580,1,0xCB,0xF0
0.020791300,1,0x2F,0xF0
0.020796580,1,0x42,0x00
0.020802420,1,0x2E,0x00
0.020807720,1,0x60,0xF0
0.020813440,1,0x2F,0xF0
0.020818720,1,0x23,0x00
0.020824620,1,0x2E,0x00
0.020829900,1,0xF8,0xF0
0.020835640,1,0x2F,0xF0
0.020840920,1,0x03,0x00
0.020846760,1,0x2E,0x00
0.020852040,1,0x80,0xF0
0.020857760,1,0x2F,0xF0
0.020863060,1,0x3B,0x00
0.020868900,1,0x2E,0x00
0.020874180,1,0x60,0xF0
0.020879920,1,0x2F,0xF0
0.020885200,1,0x14,0x00
0.020891040,1,0x2E,0x00
0.020896340,1,0xF8,0xF0
0.020902060,1,0x2F,0xF0
0.020907340,1,0x0F,0x00
0.020913260,1,0x2E,0x00
0.020918540,1,0x80,0xF0
0.020924260,1,0x2F,0xF0
0.020929560,1,0x61,0x00
0.020935400,1,0x2E,0x00
0.020940680,1,0xF0,0xF0
0.020946400,1,0x2F,0xF0
0.020951700,1,0x00,0x00
0.020957540,1,0x2E,0x00
0.020962840,1,0xF8,0xF0
0.020968560,1,0x2F,0xF0
0.020973840,1,0x00,0x00
0.020979680,1,0x2E,0x00
0.020984980,1,0x80,0xF0
0.020990680,1,0x2F,0xF0
0.020995980,1,0xAB,0x00
0.021001880,1,0x2E,0x00
0.021007180,1,0xF0,0xF0
0.021012900,1,0x2F,0xF0
0.021018180,1,0x00,0x00
0.021024040,1,0x2E,0x00
0.021029320,1,0xF8,0xF0
0.021035040,1,0x2F,0xF0
0.021040320,1,0x04,0x00
0.021046180,1,0x2E,0x00
0.021051460,1,0x80,0xF0
0.021057200,1,0x2F,0xF0
0.021062480,1,0x70,0x00
0.021068320,1,0x2E,0x00
0.021073620,1,0xF0,0xF0
0.021079340,1,0x2F,0xF0
0.021084620,1,0x00,0x00
0.021090520,1,0x2E,0x00
0.021095800,1,0xC9,0xF0
0.021101540,1,0x2F,0xF0
0.021106820,1,0x00,0x00
0.021112660,1,0x2E,0x00
0.021117940,1,0x88,0xF0
0.021123680,1,0x2F,0xF0
0.021128960,1,0x2D,0x00
0.021134800,1,0x2E,0x00
0.021140100,1,0xF0,0xF0
0.021145820,1,0x2F,0xF0
0.021151120,1,0x00,0x00
0.021156960,1,0x2E,0x00
0.021162240,1,0xF8,0xF0
0.021167960,1,0x2F,0xF0
0.021173260,1,0x02,0x00
0.021179160,1,0x2E,0x00
0.021184460,1,0x80,0xF0
0.021190180,1,0x2F,0xF0
0.021195460,1,0x66,0x00
0.021201320,1,0x2E,0x00
0.021206600,1,0xF0,0xF0
0.021212320,1,0x2F,0xF0
0.021217620,1,0x00,0x00
0.021223460,1,0x2E,0x00
0.021228760,1,0xC9,0xF0
0.021234460,1,0x2F,0xF0
0.021239760,1,0x00,0x00
0.021245600,1,0x2E,0x00
0.021250900,1,0x88,0xF0
0.021256620,1,0x2F,0xF0
0.021261900,1,0x2D,0x00
0.021267800,1,0x2E,0x00
0.021273100,1,0xF0,0xF0
0.021278820,1,0x2F,0xF0
0.021284100,1,0x00,0x00
0.021289940,1,0x2E,0x00
0.021295240,1,0xF8,0xF0
0.021300960,1,0x2F,0xF0
0.021306240,1,0x05,0x00
0.021312080,1,0x2E,0x00
0.021317380,1,0x80,0xF0
0.021323100,1,0x2F,0xF0
0.021328380,1,0x24,0x00
0.021334220,1,0x2E,0x00
0.021339520,1,0x60,0xF0
0.021345240,1,0x2F,0xF0
0.021350540,1,0x00,0x00
0.021356440,1,0x2E,0x00
0.021361720,1,0xF8,0xF0
0.021367440,1,0x2F,0xF0
0.021372740,1,0x01,0x00
0.021378580,1,0x2E,0x00
0.021383860,1,0x80,0xF0
0.021389580,1,0x2F,0xF0
0.021394880,1,0x79,0x00
0.021400720,1,0x2E,0x00
0.021406000,1,0x3A,0xF0
0.021411720,1,0x2F,0xF0
0.021417020,1,0x00,0x00
0.021422880,1,0x2E,0x00
0.021428160,1,0xF8,0xF0
0.021433880,1,0x2F,0xF0
0.021439160,1,0x04,0x00
0.021445080,1,0x2E,0x00
0.021450360,1,0x80,0xF0
0.021456080,1,0x2F,0xF0
0.021461380,1,0x00,0x00
0.021467220,1,0x2E,0x00
0.021472500,1,0xF0,0xF0
0.021478220,1,0x2F,0xF0
0.021483500,1,0x00,0x00
0.021489360,1,0x2E,0x00
0.021494640,1,0x39,0xF0
0.021500360,1,0x2F,0xF0
0.021505640,1,0x73,0x00
0.021511480,1,0x2E,0x00
0.021516780,1,0xF8,0xF0
0.021522500,1,0x2F,0xF0
0.021527780,1,0x03,0x00
0.021533680,1,0x2E,0x00
0.021538980,1,0xE1,0xF0
0.021544700,1,0x2F,0xF0
0.021549980,1,0xA1,0x00
0.021555820,1,0x2E,0x00
0.021561120,1,0xF8,0xF0
0.021566840,1,0x2F,0xF0
0.021572120,1,0x03,0x00
0.021577960,1,0x2E,0x00
0.021583260,1,0xE2,0xF0
0.021588980,1,0x2F,0xF0
0.021594260,1,0xA2,0x00
0.021600100,1,0x2E,0x00
0.021605400,1,0xF8,0xF0
0.021611120,1,0x2F,0xF0
0.021616420,1,0x0F,0x00
0.021622320,1,0x2E,0x00
0.021627620,1,0x80,0xF0
0.021633340,1,0x2F,0xF0
0.021638640,1,0x52,0x00
0.021644460,1,0x2E,0x00
0.021649760,1,0xF0,0xF0
0.021655480,1,0x2F,0xF0
0.021660780,1,0x00,0x00
0.021666620,1,0x2E,0x00
0.021671900,1,0x29,0xF0
0.021677640,1,0x2F,0xF0
0.021682920,1,0x73,0x00
0.021688780,1,0x2E,0x00
0.021694060,1,0xF8,0xF0
0.021699780,1,0x2F,0xF0
0.021705060,1,0x00,0x00
0.021710980,1,0x2E,0x00
0.021716260,1,0x68,0xF0
0.021721980,1,0x2F,0xF0
0.021727280,1,0x84,0x00
0.021733120,1,0x2E,0x00
0.021738400,1,0xCB,0xF0
0.021744120,1,0x2F,0xF0
0.021749420,1,0x30,0x00
0.021755260,1,0x2E,0x00
0.021760560,1,0xC2,0xF0
0.021766280,1,0x2F,0xF0
0.021771560,1,0x43,0x00
0.021777420,1,0x2E,0x00
0.021782720,1,0xCB,0xF0
0.021788440,1,0x2F,0xF0
0.021793720,1,0x03,0x00
0.021799640,1,0x2E,0x00
0.021804920,1,0x90,0xF0
0.021810640,1,0x2F,0xF0
0.021815920,1,0x20,0x00
0.021821780,1,0x2E,0x00
0.021827060,1,0xF0,0xF0
0.021832780,1,0x2F,0xF0
0.021838080,1,0x00,0x00
0.021843920,1,0x2E,0x00
0.021849220,1,0xF8,0xF0
0.021854940,1,0x2F,0xF0
0.021860240,1,0x0B,0x00
0.021866080,1,0x2E,0x00
0.021871360,1,0x61,0xF0
0.021877100,1,0x2F,0xF0
0.021882380,1,0x40,0x00
0.021888280,1,0x2E,0x00
0.021893580,1,0x3F,0xF0
0.021899320,1,0x2F,0xF0
0.021904600,1,0x00,0x00
0.021910440,1,0x2E,0x00
0.021915740,1,0xF8,0xF0
0.021921460,1,0x2F,0xF0
0.021926760,1,0x02,0x00
0.021932600,1,0x2E,0x00
0.021937880,1,0x80,0xF0
0.021943600,1,0x2F,0xF0
0.021948900,1,0x34,0x00
0.021954740,1,0x2E,0x00
0.021960040,1,0xF0,0xF0
0.021965760,1,0x2F,0xF0
0.021971060,1,0x00,0x00
0.021976960,1,0x2E,0x00
0.021982260,1,0x2B,0xF0
0.021987980,1,0x2F,0xF0
0.021993280,1,0x03,0x00
0.021999120,1,0x2E,0x00
0.022004420,1,0x10,0xF0
0.022010140,1,0x2F,0xF0
0.022015440,1,0x33,0x00
0.022021300,1,0x2E,0x00
0.022026580,1,0x2B,0xF0
0.022032320,1,0x2F,0xF0
0.022037600,1,0x03,0x00
0.022043460,1,0x2E,0x00
0.022048760,1,0x88,0xF0
0.022054480,1,0x2F,0xF0
0.022059760,1,0x19,0x00
0.022065680,1,0x2E,0x00
0.022070980,1,0x60,0xF0
0.022076700,1,0x2F,0xF0
0.022081980,1,0x34,0x00
0.022087820,1,0x2E,0x00
0.022093120,1,0xE0,0xF0
0.022098840,1,0x2F,0xF0
0.022104120,1,0xF0,0x00
0.022109980,1,0x2E,0x00
0.022115260,1,0xF0,0xF0
0.022121000,1,0x2F,0xF0
0.022126280,1,0x00,0x00
0.022132120,1,0x2E,0x00
0.022137420,1,0x60,0xF0
0.022143140,1,0x2F,0xF0
0.022148440,1,0x01,0x00
0.022154340,1,0x2E,0x00
0.022159620,1,0xF8,0xF0
0.022165360,1,0x2F,0xF0
0.022170640,1,0x05,0x00
0.022176480,1,0x2E,0x00
0.022181780,1,0x80,0xF0
0.022187500,1,0x2F,0xF0
0.022192800,1,0x24,0x00
0.022198620,1,0x2E,0x00
0.022203920,1,0x60,0xF0
0.022209640,1,0x2F,0xF0
0.022214940,1,0x02,0x00
0.022220780,1,0x2E,0x00
0.022226060,1,0x87,0xF0
0.022231780,1,0x2F,0xF0
0.022237080,1,0xD8,0x00
0.022243000,1,0x2E,0x00
0.022248280,1,0x64,0xF0
0.022254000,1,0x2F,0xF0
0.022259300,1,0x00,0x00
0.022265140,1,0x2E,0x00
0.022270420,1,0xF8,0xF0
0.022276140,1,0x2F,0xF0
0.022281440,1,0x22,0x00
0.022287280,1,0x2E,0x00
0.022292560,1,0x6F,0xF0
0.022298280,1,0x2F,0xF0
0.022303580,1,0x0D,0x00
0.022309420,1,0x2E,0x00
0.022314720,1,0xCC,0xF0
0.022320440,1,0x2F,0xF0
0.022325720,1,0xD1,0x00
0.022331620,1,0x2E,0x00
0.022336920,1,0xCC,0xF0
0.022342640,1,0x2F,0xF0
0.022347940,1,0xD2,0x00
0.022353780,1,0x2E,0x00
0.022359080,1,0xF8,0xF0
0.022364800,1,0x2F,0xF0
0.022370100,1,0x22,0x00
0.022375940,1,0x2E,0x00
0.022381240,1,0x6F,0xF0
0.022386980,1,0x2F,0xF0
0.022392280,1,0x2D,0x00
0.022398120,1,0x2E,0x00
0.022403420,1,0xCD,0xF0
0.022409140,1,0x2F,0xF0
0.022414440,1,0xD1,0x00
0.022420340,1,0x2E,0x00
0.022425620,1,0xCD,0xF0
0.022431360,1,0x2F,0xF0
0.022436640,1,0xD2,0x00
0.022442480,1,0x2E,0x00
0.022447780,1,0x60,0xF0
0.022453500,1,0x2F,0xF0
0.022458800,1,0x23,0x00
0.022464640,1,0x2E,0x00
0.022469940,1,0x60,0xF0
0.022475660,1,0x2F,0xF0
0.022480960,1,0x00,0x00
0.022486800,1,0x2E,0x00
0.022492080,1,0x87,0xF0
0.022497820,1,0x2F,0xF0
0.022503100,1,0xCC,0x00
0.022509020,1,0x2E,0x00
0.022514300,1,0x39,0xF0
0.022520020,1,0x2F,0xF0
0.022525320,1,0x23,0x00
0.022531160,1,0x2E,0x00
0.022536440,1,0xF8,0xF0
0.022542180,1,0x2F,0xF0
0.022547460,1,0x08,0x00
0.022553320,1,0x2E,0x00
0.022558600,1,0x6D,0xF0
0.022564320,1,0x2F,0xF0
0.022569620,1,0xD0,0x00
0.022575460,1,0x2E,0x00
0.022580760,1,0x87,0xF0
0.022586480,1,0x2F,0xF0
0.022591780,1,0xE1,0x00
0.022597680,1,0x2E,0x00
0.022602980,1,0x3F,0xF0
0.022608700,1,0x2F,0xF0
0.022613980,1,0x00,0x00
0.022619820,1,0x2E,0x00
0.022625120,1,0xF8,0xF0
0.022630840,1,0x2F,0xF0
0.022636140,1,0x05,0x00
0.022641980,1,0x2E,0x00
0.022647280,1,0x80,0xF0
0.022653000,1,0x2F,0xF0
0.022658280,1,0x67,0x00
0.022664140,1,0x2E,0x00
0.022669440,1,0x3B,0xF0
0.022675160,1,0x2F,0xF0
0.022680460,1,0x04,0x00
0.022686360,1,0x2E,0x00
0.022691660,1,0xF8,0xF0
0.022697400,1,0x2F,0xF0
0.022702680,1,0x03,0x00
0.022708540,1,0x2E,0x00
0.022713820,1,0x80,0xF0
0.022719560,1,0x2F,0xF0
0.022724860,1,0xD2,0x00
0.022730700,1,0x2E,0x00
0.022735980,1,0x10,0xF0
0.022741700,1,0x2F,0xF0
0.022747000,1,0x2D,0x00
0.022752840,1,0x2E,0x00
0.022758140,1,0xCD,0xF0
0.022763860,1,0x2F,0xF0
0.022769160,1,0xD1,0x00
0.022775080,1,0x2E,0x00
0.022780360,1,0xCD,0xF0
0.022786080,1,0x2F,0xF0
0.022791380,1,0xD2,0x00
0.022797220,1,0x2E,0x00
0.022802520,1,0xE0,0xF0
0.022808240,1,0x2F,0xF0
0.022813520,1,0xF0,0x00
0.022819380,1,0x2E,0x00
0.022824680,1,0xF8,0xF0
0.022830380,1,0x2F,0xF0
0.022835680,1,0x02,0x00
0.022841540,1,0x2E,0x00
0.022846820,1,0x80,0xF0
0.022852540,1,0x2F,0xF0
0.022857820,1,0xEF,0x00
0.022863740,1,0x2E,0x00
0.022869040,1,0x60,0xF0
0.022874760,1,0x2F,0xF0
0.022880040,1,0x0C,0x00
0.022885880,1,0x2E,0x00
0.022891180,1,0xF8,0xF0
0.022896900,1,0x2F,0xF0
0.022902180,1,0x06,0x00
0.022908020,1,0x2E,0x00
0.022913320,1,0x80,0xF0
0.022919040,1,0x2F,0xF0
0.022924320,1,0xE1,0x00
0.022930160,1,0x2E,0x00
0.022935460,1,0xF0,0xF0
0.022941200,1,0x2F,0xF0
0.022946480,1,0x00,0x00
0.022952380,1,0x2E,0x00
0.022957680,1,0xF8,0xF0
0.022963400,1,0x2F,0xF0
0.022968700,1,0x02,0x00
0.022974540,1,0x2E,0x00
0.022979840,1,0x68,0xF0
0.022985560,1,0x2F,0xF0
0.022990860,1,0x01,0x00
0.022996700,1,0x2E,0x00
0.023002000,1,0x30,0xF0
0.023007720,1,0x2F,0xF0
0.023013020,1,0xC1,0x00
0.023018860,1,0x2E,0x00
0.023024160,1,0xF8,0xF0
0.023029880,1,0x2F,0xF0
0.023035180,1,0x0B,0x00
0.023041080,1,0x2E,0x00
0.023046380,1,0x68,0xF0
0.023052100,1,0x2F,0xF0
0.023057400,1,0xE1,0x00
0.023063240,1,0x2E,0x00
0.023068520,1,0x3A,0xF0
0.023074260,1,0x2F,0xF0
0.023079540,1,0x00,0x00
0.023085400,1,0x2E,0x00
0.023090680,1,0x3F,0xF0
0.023096400,1,0x2F,0xF0
0.023101700,1,0x01,0x00
0.023107540,1,0x2E,0x00
0.023112840,1,0xE0,0xF0
0.023118560,1,0x2F,0xF0
0.023123840,1,0xF0,0x00
0.023129760,1,0x2E,0x00
0.023135040,1,0x82,0xF0
0.023140760,1,0x2F,0xF0
0.023146060,1,0x3A,0x00
0.023151900,1,0x2E,0x00
0.023157200,1,0x67,0xF0
0.023162920,1,0x2F,0xF0
0.023168200,1,0x6A,0x00
0.023174040,1,0x2E,0x00
0.023179340,1,0xC9,0xF0
0.023185060,1,0x2F,0xF0
0.023190340,1,0x00,0x00
0.023196200,1,0x2E,0x00
0.023201480,1,0x8C,0xF0
0.023207220,1,0x2F,0xF0
0.023212500,1,0x11,0x00
0.023218400,1,0x2E,0x00
0.023223700,1,0x2A,0xF0
0.023229420,1,0x2F,0xF0
0.023234720,1,0x09,0x00
0.023240560,1,0x2E,0x00
0.023245860,1,0x40,0xF0
0.023251580,1,0x2F,0xF0
0.023256880,1,0x49,0x00
0.023262720,1,0x2E,0x00
0.023268020,1,0x28,0xF0
0.023273740,1,0x2F,0xF0
0.023279020,1,0x1A,0x00
0.023284860,1,0x2E,0x00
0.023290160,1,0x88,0xF0
0.023295880,1,0x2F,0xF0
0.023301180,1,0x2F,0x00
0.023307080,1,0x2E,0x00
0.023312360,1,0x2A,0xF0
0.023318080,1,0x2F,0xF0
0.023323380,1,0x09,0x00
0.023329220,1,0x2E,0x00
0.023334520,1,0xF8,0xF0
0.023340240,1,0x2F,0xF0
0.023345520,1,0x08,0x00
0.023351380,1,0x2E,0x00
0.023356660,1,0xEA,0xF0
0.023362380,1,0x2F,0xF0
0.023367680,1,0xBA,0x00
0.023373520,1,0x2E,0x00
0.023378820,1,0x41,0xF0
0.023384540,1,0x2F,0xF0
0.023389820,1,0x8A,0x00
0.023395740,1,0x2E,0x00
0.023401020,1,0x2B,0xF0
0.023406740,1,0x2F,0xF0
0.023412040,1,0x09,0x00
0.023417880,1,0x2E,0x00
0.023423180,1,0x88,0xF0
0.023428880,1,0x2F,0xF0
0.023434180,1,0x1B,0x00
0.023440020,1,0x2E,0x00
0.023445320,1,0xC0,0xF0
0.023451040,1,0x2F,0xF0
0.023456340,1,0x9C,0x00
0.023462180,1,0x2E,0x00
0.023467480,1,0xCB,0xF0
0.023473200,1,0x2F,0xF0
0.023478480,1,0xCB,0x00
0.023484400,1,0x2E,0x00
0.023489680,1,0x13,0xF0
0.023495420,1,0x2F,0xF0
0.023500700,1,0x2C,0x00
0.023506560,1,0x2E,0x00
0.023511840,1,0x94,0xF0
0.023517580,1,0x2F,0xF0
0.023522860,1,0x0F,0x00
0.023528700,1,0x2E,0x00
0.023534000,1,0x62,0xF0
0.023539740,1,0x2F,0xF0
0.023545040,1,0x00,0x00
0.023550880,1,0x2E,0x00
0.023556160,1,0x87,0xF0
0.023561900,1,0x2F,0xF0
0.023567180,1,0xE1,0x00
0.023573100,1,0x2E,0x00
0.023578380,1,0xCB,0xF0
0.023584120,1,0x2F,0xF0
0.023589400,1,0xBC,0x00
0.023595260,1,0x2E,0x00
0.023600560,1,0xF8,0xF0
0.023606280,1,0x2F,0xF0
0.023611580,1,0x22,0x00
0.023617420,1,0x2E,0x00
0.023622720,1,0x6F,0xF0
0.023628440,1,0x2F,0xF0
0.023633720,1,0x7C,0x00
0.023639580,1,0x2E,0x00
0.023644860,1,0xF8,0xF0
0.023650580,1,0x2F,0xF0
0.023655880,1,0x06,0x00
0.023661800,1,0x2E,0x00
0.023667080,1,0x80,0xF0
0.023672800,1,0x2F,0xF0
0.023678100,1,0xE8,0x00
0.023683940,1,0x2E,0x00
0.023689240,1,0xF0,0xF0
0.023694960,1,0x2F,0xF0
0.023700240,1,0x00,0x00
0.023706100,1,0x2E,0x00
0.023711400,1,0xF8,0xF0
0.023717120,1,0x2F,0xF0
0.023722400,1,0x08,0x00
0.023728240,1,0x2E,0x00
0.023733540,1,0x60,0xF0
0.023739260,1,0x2F,0xF0
0.023744560,1,0x11,0x00
0.023750460,1,0x2E,0x00
0.023755760,1,0x3A,0xF0
0.023761480,1,0x2F,0xF0
0.023766760,1,0x00,0x00
0.023772600,1,0x2E,0x00
0.023777900,1,0x60,0xF0
0.023783620,1,0x2F,0xF0
0.023788920,1,0x50,0x00
0.023794760,1,0x2E,0x00
0.023800060,1,0x3F,0xF0
0.023805780,1,0x2F,0xF0
0.023811080,1,0x01,0x00
0.023816920,1,0x2E,0x00
0.023822200,1,0x3B,0xF0
0.023827920,1,0x2F,0xF0
0.023833220,1,0x00,0x00
0.023839120,1,0x2E,0x00
0.023844420,1,0xE0,0xF0
0.023850140,1,0x2F,0xF0
0.023855440,1,0xF0,0x00
0.023861280,1,0x2E,0x00
0.023866560,1,0x28,0xF0
0.023872280,1,0x2F,0xF0
0.023877580,1,0x78,0x00
0.023883420,1,0x2E,0x00
0.023888720,1,0xF8,0xF0
0.023894440,1,0x2F,0xF0
0.023899740,1,0x01,0x00
0.023905580,1,0x2E,0x00
0.023910880,1,0x6E,0xF0
0.023916600,1,0x2F,0xF0
0.023921880,1,0x09,0x00
0.023927800,1,0x2E,0x00
0.023933100,1,0xD9,0xF0
0.023938800,1,0x2F,0xF0
0.023944100,1,0x98,0x00
0.023949940,1,0x2E,0x00
0.023955240,1,0xF8,0xF0
0.023960960,1,0x2F,0xF0
0.023966260,1,0x02,0x00
0.023972100,1,0x2E,0x00
0.023977400,1,0x80,0xF0
0.023983120,1,0x2F,0xF0
0.023988400,1,0xFB,0x00
0.023994240,1,0x2E,0x00
0.023999540,1,0xF0,0xF0
0.024005260,1,0x2F,0xF0
0.024010540,1,0x00,0x00
0.024016460,1,0x2E,0x00
0.024021740,1,0x8C,0xF0
0.024027480,1,0x2F,0xF0
0.024032760,1,0x09,0x00
0.024038600,1,0x2E,0x00
0.024043900,1,0x28,0xF0
0.024049620,1,0x2F,0xF0
0.024054920,1,0x61,0x00
0.024060760,1,0x2E,0x00
0.024066060,1,0xF8,0xF0
0.024071780,1,0x2F,0xF0
0.024077080,1,0x02,0x00
0.024082920,1,0x2E,0x00
0.024088200,1,0xE1,0xF0
0.024093940,1,0x2F,0xF0
0.024099220,1,0xA1,0x00
0.024105140,1,0x2E,0x00
0.024110420,1,0xF8,0xF0
0.024116140,1,0x2F,0xF0
0.024121440,1,0x02,0x00
0.024127280,1,0x2E,0x00
0.024132560,1,0x80,0xF0
0.024138280,1,0x2F,0xF0
0.024143580,1,0xEF,0x00
0.024149440,1,0x2E,0x00
0.024154720,1,0x60,0xF0
0.024160440,1,0x2F,0xF0
0.024165720,1,0x0C,0x00
0.024171580,1,0x2E,0x00
0.024176860,1,0x62,0xF0
0.024182580,1,0x2F,0xF0
0.024187880,1,0x40,0x00
0.024193780,1,0x2E,0x00
0.024199080,1,0x87,0xF0
0.024204800,1,0x2F,0xF0
0.024210080,1,0xC4,0x00
0.024215920,1,0x2E,0x00
0.024221220,1,0x3B,0xF0
0.024226940,1,0x2F,0xF0
0.024232220,1,0x01,0x00
0.024238060,1,0x2E,0x00
0.024243360,1,0xF8,0xF0
0.024249080,1,0x2F,0xF0
0.024254360,1,0x02,0x00
0.024260220,1,0x2E,0x00
0.024265500,1,0x80,0xF0
0.024271220,1,0x2F,0xF0
0.024276500,1,0xF3,0x00
0.024282420,1,0x2E,0x00
0.024287700,1,0x60,0xF0
0.024293420,1,0x2F,0xF0
0.024298720,1,0x18,0x00
0.024304560,1,0x2E,0x00
0.024309840,1,0x87,0xF0
0.024315580,1,0x2F,0xF0
0.024320860,1,0xBF,0x00
0.024326700,1,0x2E,0x00
0.024332000,1,0x62,0xF0
0.024337720,1,0x2F,0xF0
0.024343020,1,0x00,0x00
0.024348860,1,0x2E,0x00
0.024354140,1,0xF8,0xF0
0.024359860,1,0x2F,0xF0
0.024365160,1,0x08,0x00
0.024371060,1,0x2E,0x00
0.024376360,1,0xEA,0xF0
0.024382080,1,0x2F,0xF0
0.024387380,1,0xBA,0x00
0.024393220,1,0x2E,0x00
0.024398500,1,0x40,0xF0
0.024404220,1,0x2F,0xF0
0.024409520,1,0x8A,0x00
0.024415360,1,0x2E,0x00
0.024420660,1,0x88,0xF0
0.024426380,1,0x2F,0xF0
0.024431680,1,0x14,0x00
0.024437520,1,0x2E,0x00
0.024442820,1,0x40,0xF0
0.024448540,1,0x2F,0xF0
0.024453840,1,0x29,0x00
0.024459740,1,0x2E,0x00
0.024465040,1,0x2B,0xF0
0.024470760,1,0x2F,0xF0
0.024476040,1,0x09,0x00
0.024481900,1,0x2E,0x00
0.024487200,1,0x88,0xF0
0.024492900,1,0x2F,0xF0
0.024498200,1,0x11,0x00
0.024504040,1,0x2E,0x00
0.024509340,1,0x61,0xF0
0.024515060,1,0x2F,0xF0
0.024520360,1,0x58,0x00
0.024526200,1,0x2E,0x00
0.024531500,1,0xD8,0xF0
0.024537220,1,0x2F,0xF0
0.024542500,1,0x89,0x00
0.024548400,1,0x2E,0x00
0.024553700,1,0xF8,0xF0
0.024559420,1,0x2F,0xF0
0.024564700,1,0x0A,0x00
0.024570540,1,0x2E,0x00
0.024575840,1,0xE8,0xF0
0.024581560,1,0x2F,0xF0
0.024586860,1,0xB8,0x00
0.024592700,1,0x2E,0x00
0.024597980,1,0xF8,0xF0
0.024603700,1,0x2F,0xF0
0.024609000,1,0x0F,0x00
0.024614840,1,0x2E,0x00
0.024620120,1,0x6A,0xF0
0.024625840,1,0x2F,0xF0
0.024631140,1,0x09,0x00
0.024637040,1,0x2E,0x00
0.024642340,1,0xF8,0xF0
0.024648060,1,0x2F,0xF0
0.024653340,1,0x03,0x00
0.024659200,1,0x2E,0x00
0.024664480,1,0x80,0xF0
0.024670200,1,0x2F,0xF0
0.024675480,1,0x04,0x00
0.024681340,1,0x2E,0x00
0.024686620,1,0xF0,0xF0
0.024692340,1,0x2F,0xF0
0.024697640,1,0x00,0x00
0.024703480,1,0x2E,0x00
0.024708760,1,0x60,0xF0
0.024714480,1,0x2F,0xF0
0.024719780,1,0x01,0x00
0.024725680,1,0x2E,0x00
0.024730980,1,0xF8,0xF0
0.024736700,1,0x2F,0xF0
0.024741980,1,0x03,0x00
0.024747840,1,0x2E,0x00
0.024753120,1,0x80,0xF0
0.024758840,1,0x2F,0xF0
0.024764120,1,0x10,0x00
0.024769980,1,0x2E,0x00
0.024775280,1,0x28,0xF0
0.024781000,1,0x2F,0xF0
0.024786280,1,0x88,0x00
0.024792120,1,0x2E,0x00
0.024797420,1,0xC9,0xF0
0.024803140,1,0x2F,0xF0
0.024808420,1,0x11,0x00
0.024814340,1,0x2E,0x00
0.024819640,1,0xF0,0xF0
0.024825360,1,0x2F,0xF0
0.024830660,1,0x00,0x00
0.024836500,1,0x2E,0x00
0.024841800,1,0x8F,0xF0
0.024847520,1,0x2F,0xF0
0.024852800,1,0xA7,0x00
0.024858660,1,0x2E,0x00
0.024863940,1,0x62,0xF0
0.024869680,1,0x2F,0xF0
0.024874960,1,0x40,0x00
0.024880800,1,0x2E,0x00
0.024886100,1,0x60,0xF0
0.024891820,1,0x2F,0xF0
0.024897120,1,0x21,0x00
0.024903020,1,0x2E,0x00
0.024908300,1,0x3B,0xF0
0.024914020,1,0x2F,0xF0
0.024919320,1,0x11,0x00
0.024925160,1,0x2E,0x00
0.024930440,1,0x87,0xF0
0.024936180,1,0x2F,0xF0
0.024941460,1,0xA3,0x00
0.024947320,1,0x2E,0x00
0.024952620,1,0x62,0xF0
0.024958340,1,0x2F,0xF0
0.024963640,1,0x60,0x00
0.024969480,1,0x2E,0x00
0.024974780,1,0x63,0xF0
0.024980500,1,0x2F,0xF0
0.024985780,1,0x01,0x00
0.024991700,1,0x2E,0x00
0.024996980,1,0x29,0xF0
0.025002700,1,0x2F,0xF0
0.025007980,1,0x20,0x00
0.025013840,1,0x2E,0x00
0.025019140,1,0xC8,0xF0
0.025024860,1,0x2F,0xF0
0.025030140,1,0x10,0x00
0.025036000,1,0x2E,0x00
0.025041300,1,0x39,0xF0
0.025047020,1,0x2F,0xF0
0.025052300,1,0x20,0x00
