Time [s],Packet ID,MOSI,MISO
-0.010000200,0,The initial (idle) state of the CLK line does not match the settings,
0.004868380,0,0x0A,0x10
0.004873680,0,0x40,0xAA
0.005866340,1,0x2A,0x10
0.005871640,1,0xCF,0x00
0.005907460,1,0x2B,0xCF
0.005912760,1,0x06,0x00
0.005948600,1,0x2C,0x06
0.005953900,1,0x08,0x00
0.005989760,1,0x2D,0x00
0.005995060,1,0x00,0x00
0.006031140,1,0x2E,0x00
0.006036420,1,0x1E,0x66
0.006042160,1,0x2F,0x66
0.006047460,1,0x6C,0xC1
0.006053300,1,0x2E,0xC1
0.006058580,1,0x81,0xE0
0.006064320,1,0x2F,0xE0
0.006069620,1,0xD7,0x0D
0.006075520,1,0x2E,0x0D
0.006080820,1,0xF0,0xE0
0.006086540,1,0x2F,0xE0
0.006091820,1,0x00,0x0D
0.006097680,1,0x2E,0x0D
0.006102980,1,0x82,0xE0
0.006108700,1,0x2F,0xE0
0.006114000,1,0xA9,0x0D
0.006119860,1,0x2E,0x0D
0.006125140,1,0xF0,0xE0
0.006130880,1,0x2F,0xE0
0.006136160,1,0x00,0x0D
0.006142020,1,0x2E,0x0D
0.006147300,1,0xF8,0xE0
0.006153020,1,0x2F,0xE0
0.006158320,1,0x03,0x0D
0.006164220,1,0x2E,0x0D
0.006169520,1,0x64,0xE0
0.006175260,1,0x2F,0xE0
0.006180540,1,0x41,0x0D
0.006186400,1,0x2E,0x0D
0.006191700,1,0xF8,0xE0
0.006197420,1,0x2F,0xE0
0.006202720,1,0x08,0x0D
0.006208560,1,0x2E,0x0D
0.006213860,1,0x60,0xE0
0.006219580,1,0x2F,0xE0
0.006224880,1,0xD0,0x0D
0.006230720,1,0x2E,0x0D
0.006236020,1,0x35,0xE0
0.006241740,1,0x2F,0xE0
0.006247040,1,0x81,0x0D
0.006252940,1,0x2E,0x0D
0.006258220,1,0x80,0xE0
0.006263960,1,0x2F,0xE0
0.006269260,1,0x90,0x0D
0.006275100,1,0x2E,0x0D
0.006280400,1,0x3F,0xE0
0.006286120,1,0x2F,0xE0
0.006291420,1,0x00,0x0D
0.006297260,1,0x2E,0x0D
0.006302560,1,0xE0,0xE0
0.006308280,1,0x2F,0xE0
0.006313580,1,0xF0,0x0D
0.006319440,1,0x2E,0x0D
0.006324740,1,0x81,0xE0
0.006330460,1,0x2F,0xE0
0.006335760,1,0xA1,0x0D
0.006341660,1,0x2E,0x0D
0.006346960,1,0x67,0xE0
0.006352680,1,0x2F,0xE0
0.006357980,1,0x6A,0x0D
0.006363840,1,0x2E,0x0D
0.006369140,1,0xC9,0xE0
0.006374860,1,0x2F,0xE0
0.006380160,1,0x00,0x0D
0.006386000,1,0x2E,0x0D
0.006391300,1,0x88,0xE0
0.006397040,1,0x2F,0xE0
0.006402320,1,0xC8,0x0D
0.006408180,1,0x2E,0x0D
0.006413480,1,0xF0,0xE0
0.006419220,1,0x2F,0xE0
0.006424500,1,0x00,0x0D
0.006430420,1,0x2E,0x0D
0.006435720,1,0xF8,0xE0
0.006441460,1,0x2F,0xE0
0.006446760,1,0x03,0x0D
0.006452600,1,0x2E,0x0D
0.006457900,1,0x80,0xE0
0.006463640,1,0x2F,0xE0
0.006468940,1,0x98,0x0D
0.006474800,1,0x2E,0x0D
0.006480080,1,0xF0,0xE0
0.006485820,1,0x2F,0xE0
0.006491120,1,0x00,0x0D
0.006496980,1,0x2E,0x0D
0.006502280,1,0x80,0xE0
0.006508000,1,0x2F,0xE0
0.006513300,1,0x98,0x0D
0.006519240,1,0x2E,0x0D
0.006524520,1,0x60,0xE0
0.006530260,1,0x2F,0xE0
0.006535560,1,0x60,0x0D
0.006541400,1,0x2E,0x0D
0.006546720,1,0xF8,0xE0
0.006552440,1,0x2F,0xE0
0.006557740,1,0x00,0x0D
0.006563600,1,0x2E,0x0D
0.006568900,1,0x80,0xE0
0.006574620,1,0x2F,0xE0
0.006579920,1,0xAB,0x0D
0.006585780,1,0x2E,0x0D
0.006591080,1,0xF0,0xE0
0.006596800,1,0x2F,0xE0
0.006602100,1,0x00,0x0D
0.006608020,1,0x2E,0x0D
0.006613320,1,0x80,0xE0
0.006619060,1,0x2F,0xE0
0.006624340,1,0xAF,0x0D
0.006630200,1,0x2E,0x0D
0.006635500,1,0xF0,0xE0
0.006641220,1,0x2F,0xE0
0.006646520,1,0x00,0x0D
0.006652380,1,0x2E,0x0D
0.006657680,1,0x88,0xE0
0.006663400,1,0x2F,0xE0
0.006668720,1,0x20,0x0D
0.006674560,1,0x2E,0x0D
0.006679860,1,0xF0,0xE0
0.006685580,1,0x2F,0xE0
0.006690880,1,0x00,0x0D
0.006696800,1,0x2E,0x0D
0.006702100,1,0xF8,0xE0
0.006707820,1,0x2F,0xE0
0.006713120,1,0x05,0x0D
0.006718980,1,0x2E,0x0D
0.006724280,1,0x80,0xE0
0.006730000,1,0x2F,0xE0
0.006735300,1,0x1B,0x0D
0.006741160,1,0x2E,0x0D
0.006746460,1,0xF0,0xE0
0.006752200,1,0x2F,0xE0
0.006757500,1,0x00,0x0D
0.006763340,1,0x2E,0x0D
0.006768640,1,0xF8,0xE0
0.006774380,1,0x2F,0xE0
0.006779660,1,0x02,0x0D
0.006785580,1,0x2E,0x0D
0.006790880,1,0x80,0xE0
0.006796600,1,0x2F,0xE0
0.006801900,1,0x66,0x0D
0.006807740,1,0x2E,0x0D
0.006813040,1,0xF0,0xE0
0.006818780,1,0x2F,0xE0
0.006824080,1,0x00,0x0D
0.006829920,1,0x2E,0x0D
0.006835220,1,0xC9,0xE0
0.006840940,1,0x2F,0xE0
0.006846240,1,0x00,0x0D
0.006852100,1,0x2E,0x0D
0.006857400,1,0x8C,0xE0
0.006863120,1,0x2F,0xE0
0.006868420,1,0x03,0x0D
0.006874320,1,0x2E,0x0D
0.006879620,1,0xF0,0xE0
0.006885360,1,0x2F,0xE0
0.006890660,1,0x00,0x0D
0.006896500,1,0x2E,0x0D
0.006901800,1,0x60,0xE0
0.006907520,1,0x2F,0xE0
0.006912820,1,0x01,0x0D
0.006918680,1,0x2E,0x0D
0.006923960,1,0x60,0xE0
0.006929680,1,0x2F,0xE0
0.006934980,1,0x02,0x0D
0.006940840,1,0x2E,0x0D
0.006946140,1,0xF8,0xE0
0.006951860,1,0x2F,0xE0
0.006957160,1,0x05,0x0D
0.006963080,1,0x2E,0x0D
0.006968380,1,0x80,0xE0
0.006974100,1,0x2F,0xE0
0.006979400,1,0x24,0x0D
0.006985260,1,0x2E,0x0D
0.006990560,1,0x64,0xE0
0.006996280,1,0x2F,0xE0
0.007001580,1,0x00,0x0D
0.007007440,1,0x2E,0x0D
0.007012740,1,0xF8,0xE0
0.007018480,1,0x2F,0xE0
0.007023780,1,0x01,0x0D
0.007029620,1,0x2E,0x0D
0.007034920,1,0x80,0xE0
0.007040660,1,0x2F,0xE0
0.007045960,1,0x79,0x0D
0.007051860,1,0x2E,0x0D
0.007057160,1,0x3A,0xE0
0.007062900,1,0x2F,0xE0
0.007068200,1,0x00,0x0D
0.007074040,1,0x2E,0x0D
0.007079340,1,0xF8,0xE0
0.007085080,1,0x2F,0xE0
0.007090380,1,0x04,0x0D
0.007096220,1,0x2E,0x0D
0.007101520,1,0x80,0xE0
0.007107260,1,0x2F,0xE0
0.007112560,1,0x00,0x0D
0.007118400,1,0x2E,0x0D
0.007123700,1,0xF0,0xE0
0.007129420,1,0x2F,0xE0
0.007134720,1,0x00,0x0D
0.007140640,1,0x2E,0x0D
0.007145940,1,0x39,0xE0
0.007151660,1,0x2F,0xE0
0.007156960,1,0x73,0x0D
0.007162820,1,0x2E,0x0D
0.007168120,1,0x60,0xE0
0.007173840,1,0x2F,0xE0
0.007179140,1,0x00,0x0D
0.007184980,1,0x2E,0x0D
0.007190280,1,0x3A,0xE0
0.007196020,1,0x2F,0xE0
0.007201300,1,0x10,0x0D
0.007207160,1,0x2E,0x0D
0.007212460,1,0x3A,0xE0
0.007218200,1,0x2F,0xE0
0.007223480,1,0x20,0x0D
0.007229400,1,0x2E,0x0D
0.007234700,1,0xF8,0xE0
0.007240440,1,0x2F,0xE0
0.007245740,1,0x02,0x0D
0.007251600,1,0x2E,0x0D
0.007256900,1,0x80,0xE0
0.007262620,1,0x2F,0xE0
0.007267920,1,0x11,0x0D
0.007273780,1,0x2E,0x0D
0.007279080,1,0xF0,0xE0
0.007284800,1,0x2F,0xE0
0.007290100,1,0x00,0x0D
0.007295960,1,0x2E,0x0D
0.007301260,1,0xF8,0xE0
0.007306980,1,0x2F,0xE0
0.007312300,1,0x08,0x0D
0.007318220,1,0x2E,0x0D
0.007323500,1,0x64,0xE0
0.007329240,1,0x2F,0xE0
0.007334540,1,0xD0,0x0D
0.007340380,1,0x2E,0x0D
0.007345680,1,0x3F,0xE0
0.007351420,1,0x2F,0xE0
0.007356700,1,0x00,0x0D
0.007362560,1,0x2E,0x0D
0.007367860,1,0xE0,0xE0
0.007373600,1,0x2F,0xE0
0.007378900,1,0xF0,0x0D
0.007384740,1,0x2E,0x0D
0.007390040,1,0x60,0xE0
0.007395780,1,0x2F,0xE0
0.007401080,1,0x00,0x0D
0.007406980,1,0x2E,0x0D
0.007412280,1,0x3A,0xE0
0.007418020,1,0x2F,0xE0
0.007423320,1,0x10,0x0D
0.007429160,1,0x2E,0x0D
0.007434460,1,0x3A,0xE0
0.007440200,1,0x2F,0xE0
0.007445500,1,0x20,0x0D
0.007451340,1,0x2E,0x0D
0.007456640,1,0x60,0xE0
0.007462380,1,0x2F,0xE0
0.007467680,1,0x50,0x0D
0.007473520,1,0x2E,0x0D
0.007478820,1,0x64,0xE0
0.007484560,1,0x2F,0xE0
0.007489860,1,0x01,0x0D
0.007495780,1,0x2E,0x0D
0.007501080,1,0x3B,0xE0
0.007506800,1,0x2F,0xE0
0.007512100,1,0x00,0x0D
0.007517960,1,0x2E,0x0D
0.007523260,1,0xF8,0xE0
0.007528980,1,0x2F,0xE0
0.007534280,1,0x08,0x0D
0.007540140,1,0x2E,0x0D
0.007545440,1,0x60,0xE0
0.007551160,1,0x2F,0xE0
0.007556480,1,0xD0,0x0D
0.007562320,1,0x2E,0x0D
0.007567640,1,0x3A,0xE0
0.007573360,1,0x2F,0xE0
0.007578660,1,0x01,0x0D
0.007584580,1,0x2E,0x0D
0.007589880,1,0x3F,0xE0
0.007595620,1,0x2F,0xE0
0.007600900,1,0x00,0x0D
0.007606760,1,0x2E,0x0D
0.007612060,1,0xF8,0xE0
0.007617800,1,0x2F,0xE0
0.007623080,1,0x22,0x0D
0.007628940,1,0x2E,0x0D
0.007634240,1,0x6F,0xE0
0.007639960,1,0x2F,0xE0
0.007645260,1,0x7C,0x0D
0.007651100,1,0x2E,0x0D
0.007656400,1,0xF8,0xE0
0.007662140,1,0x2F,0xE0
0.007667440,1,0x02,0x0D
0.007673340,1,0x2E,0x0D
0.007678620,1,0x80,0xE0
0.007684360,1,0x2F,0xE0
0.007689660,1,0x4A,0x0D
0.007695500,1,0x2E,0x0D
0.007700800,1,0xF0,0xE0
0.007706520,1,0x2F,0xE0
0.007711820,1,0x00,0x0D
0.007717680,1,0x2E,0x0D
0.007722960,1,0xE0,0xE0
0.007728680,1,0x2F,0xE0
0.007733980,1,0xF0,0x0D
0.007739840,1,0x2E,0x0D
0.007745120,1,0x81,0xE0
0.007750860,1,0x2F,0xE0
0.007756140,1,0x61,0x0D
0.007762060,1,0x2E,0x0D
0.007767360,1,0x67,0xE0
0.007773080,1,0x2F,0xE0
0.007778380,1,0x6A,0x0D
0.007784220,1,0x2E,0x0D
0.007789520,1,0xC9,0xE0
0.007795260,1,0x2F,0xE0
0.007800540,1,0x00,0x0D
0.007806400,1,0x2E,0x0D
0.007811700,1,0x88,0xE0
0.007817420,1,0x2F,0xE0
0.007822720,1,0x88,0x0D
0.007828560,1,0x2E,0x0D
0.007833860,1,0xF0,0xE0
0.007839600,1,0x2F,0xE0
0.007844880,1,0x00,0x0D
0.007850800,1,0x2E,0x0D
0.007856100,1,0xF8,0xE0
0.007861820,1,0x2F,0xE0
0.007867120,1,0x03,0x0D
0.007872980,1,0x2E,0x0D
0.007878280,1,0x80,0xE0
0.007884000,1,0x2F,0xE0
0.007889300,1,0x98,0x0D
0.007895160,1,0x2E,0x0D
0.007900440,1,0xF0,0xE0
0.007906180,1,0x2F,0xE0
0.007911480,1,0x00,0x0D
0.007917340,1,0x2E,0x0D
0.007922620,1,0x80,0xE0
0.007928360,1,0x2F,0xE0
0.007933660,1,0x58,0x0D
0.007939580,1,0x2E,0x0D
0.007944860,1,0x60,0xE0
0.007950580,1,0x2F,0xE0
0.007955880,1,0x60,0x0D
0.007961740,1,0x2E,0x0D
0.007967040,1,0xF8,0xE0
0.007972760,1,0x2F,0xE0
0.007978060,1,0x00,0x0D
0.007983920,1,0x2E,0x0D
0.007989220,1,0x80,0xE0
0.007994940,1,0x2F,0xE0
0.008000240,1,0xAB,0x0D
0.008006080,1,0x2E,0x0D
0.008011380,1,0xF0,0xE0
0.008017120,1,0x2F,0xE0
0.008022420,1,0x00,0x0D
0.008028320,1,0x2E,0x0D
0.008033620,1,0x80,0xE0
0.008039360,1,0x2F,0xE0
0.008044660,1,0x6F,0x0D
0.008050520,1,0x2E,0x0D
0.008055820,1,0xF0,0xE0
0.008061560,1,0x2F,0xE0
0.008066860,1,0x00,0x0D
0.008072720,1,0x2E,0x0D
0.008078020,1,0x8B,0xE0
0.008083760,1,0x2F,0xE0
0.008089060,1,0xE0,0x0D
0.008094920,1,0x2E,0x0D
0.008100220,1,0xF0,0xE0
0.008105940,1,0x2F,0xE0
0.008111240,1,0x00,0x0D
0.008117160,1,0x2E,0x0D
0.008122440,1,0xF8,0xE0
0.008128180,1,0x2F,0xE0
0.008133480,1,0x05,0x0D
0.008139340,1,0x2E,0x0D
0.008144620,1,0x80,0xE0
0.008150340,1,0x2F,0xE0
0.008155640,1,0x1B,0x0D
0.008161500,1,0x2E,0x0D
0.008166800,1,0xF0,0xE0
0.008172540,1,0x2F,0xE0
0.008177820,1,0x00,0x0D
0.008183680,1,0x2E,0x0D
0.008188980,1,0xF8,0xE0
0.008194720,1,0x2F,0xE0
0.008200000,1,0x02,0x0D
0.008205920,1,0x2E,0x0D
0.008211220,1,0x80,0xE0
0.008216960,1,0x2F,0xE0
0.008222240,1,0x66,0x0D
0.008228100,1,0x2E,0x0D
0.008233400,1,0xF0,0xE0
0.008239140,1,0x2F,0xE0
0.008244420,1,0x00,0x0D
0.008250280,1,0x2E,0x0D
0.008255580,1,0xC9,0xE0
0.008261320,1,0x2F,0xE0
0.008266620,1,0x00,0x0D
0.008272460,1,0x2E,0x0D
0.008277760,1,0x8C,0xE0
0.008283500,1,0x2F,0xE0
0.008288800,1,0x03,0x0D
0.008294720,1,0x2E,0x0D
0.008300000,1,0xF0,0xE0
0.008305740,1,0x2F,0xE0
0.008311040,1,0x00,0x0D
0.008316900,1,0x2E,0x0D
0.008322200,1,0x60,0xE0
0.008327920,1,0x2F,0xE0
0.008333220,1,0x01,0x0D
0.008339080,1,0x2E,0x0D
0.008344380,1,0x60,0xE0
0.008350100,1,0x2F,0xE0
0.008355400,1,0x02,0x0D
0.008361260,1,0x2E,0x0D
0.008366560,1,0xF8,0xE0
0.008372280,1,0x2F,0xE0
0.008377580,1,0x05,0x0D
0.008383500,1,0x2E,0x0D
0.008388800,1,0x80,0xE0
0.008394540,1,0x2F,0xE0
0.008399820,1,0x24,0x0D
0.008405680,1,0x2E,0x0D
0.008410980,1,0xF0,0xE0
0.008416720,1,0x2F,0xE0
0.008422000,1,0x00,0x0D
0.008427860,1,0x2E,0x0D
0.008433160,1,0xF8,0xE0
0.008438880,1,0x2F,0xE0
0.008444180,1,0x04,0x0D
0.008450020,1,0x2E,0x0D
0.008455320,1,0x80,0xE0
0.008461060,1,0x2F,0xE0
0.008466360,1,0x00,0x0D
0.008472280,1,0x2E,0x0D
0.008477580,1,0xF0,0xE0
0.008483300,1,0x2F,0xE0
0.008488600,1,0x00,0x0D
0.008494440,1,0x2E,0x0D
0.008499740,1,0x80,0xE0
0.008505460,1,0x2F,0xE0
0.008510760,1,0x53,0x0D
0.008516620,1,0x2E,0x0D
0.008521920,1,0x39,0xE0
0.008527640,1,0x2F,0xE0
0.008532940,1,0x73,0x0D
0.008538800,1,0x2E,0x0D
0.008544100,1,0x82,0xE0
0.008549820,1,0x2F,0xE0
0.008555120,1,0x5D,0x0D
0.008561040,1,0x2E,0x0D
0.008566340,1,0xF0,0xE0
0.008572060,1,0x2F,0xE0
0.008577360,1,0x00,0x0D
0.008583200,1,0x2E,0x0D
0.008588500,1,0x11,0xE0
0.008594240,1,0x2F,0xE0
0.008599520,1,0x03,0x0D
0.008605380,1,0x2E,0x0D
0.008610680,1,0x94,0xE0
0.008616400,1,0x2F,0xE0
0.008621700,1,0x1A,0x0D
0.008627540,1,0x2E,0x0D
0.008632840,1,0x60,0xE0
0.008638580,1,0x2F,0xE0
0.008643880,1,0x00,0x0D
0.008649780,1,0x2E,0x0D
0.008655080,1,0xF8,0xE0
0.008660800,1,0x2F,0xE0
0.008666100,1,0x03,0x0D
0.008671960,1,0x2E,0x0D
0.008677240,1,0xE5,0xE0
0.008682980,1,0x2F,0xE0
0.008688280,1,0xA5,0x0D
0.008694120,1,0x2E,0x0D
0.008699420,1,0xF8,0xE0
0.008705140,1,0x2F,0xE0
0.008710440,1,0x03,0x0D
0.008716300,1,0x2E,0x0D
0.008721600,1,0xE6,0xE0
0.008727320,1,0x2F,0xE0
0.008732620,1,0xA6,0x0D
0.008738540,1,0x2E,0x0D
0.008743840,1,0xCB,0xE0
0.008749560,1,0x2F,0xE0
0.008754860,1,0x51,0x0D
0.008760700,1,0x2E,0x0D
0.008766000,1,0xF8,0xE0
0.008771720,1,0x2F,0xE0
0.008777020,1,0x0F,0x0D
0.008782880,1,0x2E,0x0D
0.008788180,1,0x80,0xE0
0.008793900,1,0x2F,0xE0
0.008799200,1,0x52,0x0D
0.008805040,1,0x2E,0x0D
0.008810340,1,0xCB,0xE0
0.008816080,1,0x2F,0xE0
0.008821360,1,0x62,0x0D
0.008827280,1,0x2E,0x0D
0.008832580,1,0xF8,0xE0
0.008838300,1,0x2F,0xE0
0.008843600,1,0x02,0x0D
0.008849440,1,0x2E,0x0D
0.008854740,1,0x80,0xE0
0.008860480,1,0x2F,0xE0
0.008865780,1,0x11,0x0D
0.008871640,1,0x2E,0x0D
0.008876940,1,0x3A,0xE0
0.008882660,1,0x2F,0xE0
0.008887960,1,0x00,0x0D
0.008893820,1,0x2E,0x0D
0.008899120,1,0xF8,0xE0
0.008904840,1,0x2F,0xE0
0.008910140,1,0x08,0x0D
0.008916060,1,0x2E,0x0D
0.008921340,1,0x6D,0xE0
0.008927080,1,0x2F,0xE0
0.008932380,1,0xD0,0x0D
0.008938240,1,0x2E,0x0D
0.008943540,1,0x28,0xE0
0.008949260,1,0x2F,0xE0
0.008954560,1,0x11,0x0D
0.008960420,1,0x2E,0x0D
0.008965720,1,0xF8,0xE0
0.008971440,1,0x2F,0xE0
0.008976740,1,0x08,0x0D
0.008982580,1,0x2E,0x0D
0.008987880,1,0xE1,0xE0
0.008993620,1,0x2F,0xE0
0.008998920,1,0xB1,0x0D
0.009004820,1,0x2E,0x0D
0.009010120,1,0x44,0xE0
0.009015860,1,0x2F,0xE0
0.009021140,1,0x01,0x0D
0.009027000,1,0x2E,0x0D
0.009032280,1,0xF0,0xE0
0.009038020,1,0x2F,0xE0
0.009043320,1,0x00,0x0D
0.009049160,1,0x2E,0x0D
0.009054460,1,0x8C,0xE0
0.009060200,1,0x2F,0xE0
0.009065480,1,0x03,0x0D
0.009071320,1,0x2E,0x0D
0.009076620,1,0xF0,0xE0
0.009082360,1,0x2F,0xE0
0.009087660,1,0x00,0x0D
0.009093560,1,0x2E,0x0D
0.009098860,1,0xF8,0xE0
0.009104580,1,0x2F,0xE0
0.009109880,1,0x0B,0x0D
0.009115740,1,0x2E,0x0D
0.009121020,1,0x6E,0xE0
0.009126760,1,0x2F,0xE0
0.009132060,1,0x10,0x0D
0.009137920,1,0x2E,0x0D
0.009143200,1,0x80,0xE0
0.009148920,1,0x2F,0xE0
0.009154220,1,0x28,0x0D
0.009160080,1,0x2E,0x0D
0.009165380,1,0x3F,0xE0
0.009171100,1,0x2F,0xE0
0.009176400,1,0x00,0x0D
0.009182300,1,0x2E,0x0D
0.009187620,1,0xE0,0xE0
0.009193340,1,0x2F,0xE0
0.009198640,1,0xF0,0x0D
0.009204480,1,0x2E,0x0D
0.009209780,1,0x3A,0xE0
0.009215520,1,0x2F,0xE0
0.009220800,1,0x10,0x0D
0.009226660,1,0x2E,0x0D
0.009231960,1,0xF8,0xE0
0.009237680,1,0x2F,0xE0
0.009242980,1,0x02,0x0D
0.009248840,1,0x2E,0x0D
0.009254140,1,0x80,0xE0
0.009259860,1,0x2F,0xE0
0.009265160,1,0x11,0x0D
0.009271060,1,0x2E,0x0D
0.009276360,1,0x3A,0xE0
0.009282100,1,0x2F,0xE0
0.009287400,1,0x20,0x0D
0.009293240,1,0x2E,0x0D
0.009298540,1,0x60,0xE0
0.009304260,1,0x2F,0xE0
0.009309560,1,0x50,0x0D
0.009315420,1,0x2E,0x0D
0.009320720,1,0x64,0xE0
0.009326440,1,0x2F,0xE0
0.009331740,1,0x01,0x0D
0.009337600,1,0x2E,0x0D
0.009342900,1,0x3A,0xE0
0.009348620,1,0x2F,0xE0
0.009353920,1,0x01,0x0D
0.009359820,1,0x2E,0x0D
0.009365120,1,0xF8,0xE0
0.009370860,1,0x2F,0xE0
0.009376140,1,0x08,0x0D
0.009382000,1,0x2E,0x0D
0.009387300,1,0x60,0xE0
0.009393020,1,0x2F,0xE0
0.009398320,1,0xD1,0x0D
0.009404160,1,0x2E,0x0D
0.009409460,1,0x3B,0xE0
0.009415200,1,0x2F,0xE0
0.009420480,1,0x00,0x0D
0.009426340,1,0x2E,0x0D
0.009431640,1,0x3F,0xE0
0.009437360,1,0x2F,0xE0
0.009442660,1,0x01,0x0D
0.009448560,1,0x2E,0x0D
0.009453860,1,0xE0,0xE0
0.009459600,1,0x2F,0xE0
0.009464900,1,0xF0,0x0D
0.009470740,1,0x2E,0x0D
0.009476040,1,0xF8,0xE0
0.009481780,1,0x2F,0xE0
0.009487080,1,0x02,0x0D
0.009492920,1,0x2E,0x0D
0.009498220,1,0x60,0xE0
0.009503960,1,0x2F,0xE0
0.009509260,1,0x81,0x0D
0.009515120,1,0x2E,0x0D
0.009520400,1,0x60,0xE0
0.009526120,1,0x2F,0xE0
0.009531420,1,0x30,0x0D
0.009537340,1,0x2E,0x0D
0.009542640,1,0x30,0xE0
0.009548360,1,0x2F,0xE0
0.009553660,1,0x11,0x0D
0.009559520,1,0x2E,0x0D
0.009564820,1,0xF8,0xE0
0.009570540,1,0x2F,0xE0
0.009575840,1,0x05,0x0D
0.009581700,1,0x2E,0x0D
0.009587000,1,0x66,0xE0
0.009592720,1,0x2F,0xE0
0.009598020,1,0xC1,0x0D
0.009603880,1,0x2E,0x0D
0.009609180,1,0x30,0xE0
0.009614920,1,0x2F,0xE0
0.009620220,1,0x50,0x0D
0.009626140,1,0x2E,0x0D
0.009631440,1,0x60,0xE0
0.009637160,1,0x2F,0xE0
0.009642460,1,0x40,0x0D
0.009648320,1,0x2E,0x0D
0.009653620,1,0x35,0xE0
0.009659340,1,0x2F,0xE0
0.009664640,1,0xE1,0x0D
0.009670500,1,0x2E,0x0D
0.009675780,1,0xF8,0xE0
0.009681520,1,0x2F,0xE0
0.009686820,1,0x02,0x0D
0.009692680,1,0x2E,0x0D
0.009697980,1,0x67,0xE0
0.009703700,1,0x2F,0xE0
0.009709000,1,0x01,0x0D
0.009714920,1,0x2E,0x0D
0.009720200,1,0x3B,0xE0
0.009725940,1,0x2F,0xE0
0.009731240,1,0x10,0x0D
0.009737100,1,0x2E,0x0D
0.009742400,1,0x6C,0xE0
0.009748120,1,0x2F,0xE0
0.009753420,1,0x70,0x0D
0.009759280,1,0x2E,0x0D
0.009764580,1,0x30,0xE0
0.009770300,1,0x2F,0xE0
0.009775600,1,0xC1,0x0D
0.009781460,1,0x2E,0x0D
0.009786780,1,0xF8,0xE0
0.009792500,1,0x2F,0xE0
0.009797800,1,0x02,0x0D
0.009803700,1,0x2E,0x0D
0.009809020,1,0x68,0xE0
0.009814740,1,0x2F,0xE0
0.009820040,1,0x01,0x0D
0.009825900,1,0x2E,0x0D
0.009831200,1,0x33,0xE0
0.009836940,1,0x2F,0xE0
0.009842240,1,0x40,0x0D
0.009848080,1,0x2E,0x0D
0.009853380,1,0xBC,0xE0
0.009859120,1,0x2F,0xE0
0.009864420,1,0x00,0x0D
0.009870260,1,0x2E,0x0D
0.009875560,1,0x30,0xE0
0.009881300,1,0x2F,0xE0
0.009886600,1,0x31,0x0D
0.009892500,1,0x2E,0x0D
0.009897800,1,0xCB,0xE0
0.009903540,1,0x2F,0xE0
0.009908840,1,0x01,0x0D
0.009914700,1,0x2E,0x0D
0.009920000,1,0xE5,0xE0
0.009925720,1,0x2F,0xE0
0.009931020,1,0x01,0x0D
0.009936880,1,0x2E,0x0D
0.009942180,1,0x36,0xE0
0.009947900,1,0x2F,0xE0
0.009953200,1,0x71,0x0D
0.009959060,1,0x2E,0x0D
0.009964360,1,0x36,0xE0
0.009970100,1,0x2F,0xE0
0.009975380,1,0x80,0x0D
0.009981300,1,0x2E,0x0D
0.009986600,1,0x36,0xE0
0.009992340,1,0x2F,0xE0
0.009997620,1,0x91,0x0D
0.010003480,1,0x2E,0x0D
0.010008780,1,0xBC,0xE0
0.010014520,1,0x2F,0xE0
0.010019800,1,0x00,0x0D
0.010025660,1,0x2E,0x0D
0.010030960,1,0x36,0xE0
0.010036680,1,0x2F,0xE0
0.010041980,1,0xA0,0x0D
0.010047840,1,0x2E,0x0D
0.010053140,1,0xF8,0xE0
0.010058860,1,0x2F,0xE0
0.010064160,1,0x09,0x0D
0.010070080,1,0x2E,0x0D
0.010075380,1,0x80,0xE0
0.010081120,1,0x2F,0xE0
0.010086420,1,0xE6,0x0D
0.010092260,1,0x2E,0x0D
0.010097560,1,0x20,0xE0
0.010103300,1,0x2F,0xE0
0.010108600,1,0xB0,0x0D
0.010114460,1,0x2E,0x0D
0.010119740,1,0x70,0xE0
0.010125480,1,0x2F,0xE0
0.010130780,1,0xE5,0x0D
0.010136640,1,0x2E,0x0D
0.010141940,1,0xF8,0xE0
0.010147660,1,0x2F,0xE0
0.010152960,1,0x06,0x0D
0.010158880,1,0x2E,0x0D
0.010164180,1,0x80,0xE0
0.010169900,1,0x2F,0xE0
0.010175220,1,0x6B,0x0D
0.010181060,1,0x2E,0x0D
0.010186360,1,0x7F,0xE0
0.010192100,1,0x2F,0xE0
0.010197400,1,0x36,0x0D
0.010203240,1,0x2E,0x0D
0.010208540,1,0xF8,0xE0
0.010214280,1,0x2F,0xE0
0.010219560,1,0x06,0x0D
0.010225420,1,0x2E,0x0D
0.010230720,1,0x80,0xE0
0.010236460,1,0x2F,0xE0
0.010241740,1,0x8C,0x0D
0.010247660,1,0x2E,0x0D
0.010252960,1,0xF0,0xE0
0.010258700,1,0x2F,0xE0
0.010263980,1,0x00,0x0D
0.010269840,1,0x2E,0x0D
0.010275140,1,0xF8,0xE0
0.010280860,1,0x2F,0xE0
0.010286160,1,0x03,0x0D
0.010292020,1,0x2E,0x0D
0.010297300,1,0x64,0xE0
0.010303040,1,0x2F,0xE0
0.010308340,1,0x40,0x0D
0.010314180,1,0x2E,0x0D
0.010319480,1,0xBC,0xE0
0.010325220,1,0x2F,0xE0
0.010330520,1,0x00,0x0D
0.010336420,1,0x2E,0x0D
0.010341720,1,0x35,0xE0
0.010347460,1,0x2F,0xE0
0.010352760,1,0x80,0x0D
0.010358600,1,0x2E,0x0D
0.010363900,1,0xF8,0xE0
0.010369620,1,0x2F,0xE0
0.010374920,1,0x22,0x0D
0.010380780,1,0x2E,0x0D
0.010386080,1,0x6F,0xE0
0.010391800,1,0x2F,0xE0
0.010397100,1,0x0D,0x0D
0.010402940,1,0x2E,0x0D
0.010408240,1,0xCC,0xE0
0.010413960,1,0x2F,0xE0
0.010419260,1,0xD5,0x0D
0.010425180,1,0x2E,0x0D
0.010430500,1,0xCC,0xE0
0.010436220,1,0x2F,0xE0
0.010441520,1,0xD6,0x0D
0.010447380,1,0x2E,0x0D
0.010452680,1,0xC0,0xE0
0.010458400,1,0x2F,0xE0
0.010463700,1,0x15,0x0D
0.010469540,1,0x2E,0x0D
0.010474840,1,0xBC,0xE0
0.010480580,1,0x2F,0xE0
0.010485880,1,0x00,0x0D
0.010491720,1,0x2E,0x0D
0.010497020,1,0xC0,0xE0
0.010502760,1,0x2F,0xE0
0.010508060,1,0x26,0x0D
0.010513980,1,0x2E,0x0D
0.010519280,1,0x21,0xE0
0.010525000,1,0x2F,0xE0
0.010530300,1,0x20,0x0D
0.010536160,1,0x2E,0x0D
0.010541460,1,0x21,0xE0
0.010547180,1,0x2F,0xE0
0.010552480,1,0x31,0x0D
0.010558340,1,0x2E,0x0D
0.010563640,1,0xC0,0xE0
0.010569360,1,0x2F,0xE0
0.010574660,1,0x10,0x0D
0.010580520,1,0x2E,0x0D
0.010585820,1,0x21,0xE0
0.010591540,1,0x2F,0xE0
0.010596840,1,0x62,0x0D
0.010602760,1,0x2E,0x0D
0.010608060,1,0x21,0xE0
0.010613780,1,0x2F,0xE0
0.010619080,1,0x73,0x0D
0.010624940,1,0x2E,0x0D
0.010630240,1,0xC0,0xE0
0.010635960,1,0x2F,0xE0
0.010641260,1,0x32,0x0D
0.010647120,1,0x2E,0x0D
0.010652420,1,0xC0,0xE0
0.010658140,1,0x2F,0xE0
0.010663440,1,0x20,0x0D
0.010669300,1,0x2E,0x0D
0.010674600,1,0x26,0xE0
0.010680320,1,0x2F,0xE0
0.010685620,1,0xB1,0x0D
0.010691540,1,0x2E,0x0D
0.010696840,1,0xF8,0xE0
0.010702580,1,0x2F,0xE0
0.010707880,1,0x02,0x0D
0.010713720,1,0x2E,0x0D
0.010719020,1,0xE0,0xE0
0.010724740,1,0x2F,0xE0
0.010730060,1,0xB0,0x0D
0.010735900,1,0x2E,0x0D
0.010741200,1,0xC2,0xE0
0.010746920,1,0x2F,0xE0
0.010752220,1,0x01,0x0D
0.010758080,1,0x2E,0x0D
0.010763380,1,0x7F,0xE0
0.010769100,1,0x2F,0xE0
0.010774420,1,0xF0,0x0D
0.010780340,1,0x2E,0x0D
0.010785640,1,0x60,0xE0
0.010791360,1,0x2F,0xE0
0.010796660,1,0x01,0x0D
0.010802520,1,0x2E,0x0D
0.010807820,1,0xBC,0xE0
0.010813560,1,0x2F,0xE0
0.010818860,1,0x00,0x0D
0.010824720,1,0x2E,0x0D
0.010830020,1,0xC1,0xE0
0.010835740,1,0x2F,0xE0
0.010841040,1,0x10,0x0D
0.010846900,1,0x2E,0x0D
0.010852200,1,0x61,0xE0
0.010857940,1,0x2F,0xE0
0.010863240,1,0x91,0x0D
0.010869160,1,0x2E,0x0D
0.010874460,1,0xF8,0xE0
0.010880200,1,0x2F,0xE0
0.010885500,1,0x0B,0x0D
0.010891340,1,0x2E,0x0D
0.010896640,1,0x84,0xE0
0.010902380,1,0x2F,0xE0
0.010907680,1,0x80,0x0D
0.010913520,1,0x2E,0x0D
0.010918820,1,0x3B,0xE0
0.010924560,1,0x2F,0xE0
0.010929860,1,0x01,0x0D
0.010935720,1,0x2E,0x0D
0.010941020,1,0xF8,0xE0
0.010946740,1,0x2F,0xE0
0.010952060,1,0x04,0x0D
0.010957980,1,0x2E,0x0D
0.010963260,1,0x80,0xE0
0.010969000,1,0x2F,0xE0
0.010974300,1,0xE8,0x0D
0.010980160,1,0x2E,0x0D
0.010985460,1,0xF0,0xE0
0.010991180,1,0x2F,0xE0
0.010996480,1,0x00,0x0D
0.011002340,1,0x2E,0x0D
0.011007640,1,0x80,0xE0
0.011013360,1,0x2F,0xE0
0.011018660,1,0xCE,0x0D
0.011024520,1,0x2E,0x0D
0.011029820,1,0x67,0xE0
0.011035540,1,0x2F,0xE0
0.011040840,1,0x6A,0x0D
0.011046760,1,0x2E,0x0D
0.011052060,1,0xC9,0xE0
0.011057780,1,0x2F,0xE0
0.011063080,1,0x00,0x0D
0.011068940,1,0x2E,0x0D
0.011074240,1,0xF8,0xE0
0.011079960,1,0x2F,0xE0
0.011085260,1,0x0B,0x0D
0.011091120,1,0x2E,0x0D
0.011096400,1,0x88,0xE0
0.011102140,1,0x2F,0xE0
0.011107440,1,0x80,0x0D
0.011113280,1,0x2E,0x0D
0.011118580,1,0xF0,0xE0
0.011124320,1,0x2F,0xE0
0.011129620,1,0x00,0x0D
0.011135520,1,0x2E,0x0D
0.011140820,1,0xF8,0xE0
0.011146560,1,0x2F,0xE0
0.011151860,1,0x0E,0x0D
0.011157700,1,0x2E,0x0D
0.011163000,1,0x80,0xE0
0.011168740,1,0x2F,0xE0
0.011174040,1,0x7E,0x0D
0.011179900,1,0x2E,0x0D
0.011185180,1,0xF0,0xE0
0.011190920,1,0x2F,0xE0
0.011196200,1,0x00,0x0D
0.011202060,1,0x2E,0x0D
0.011207360,1,0xF8,0xE0
0.011213080,1,0x2F,0xE0
0.011218380,1,0x0F,0x0D
0.011224300,1,0x2E,0x0D
0.011229600,1,0x80,0xE0
0.011235320,1,0x2F,0xE0
0.011240620,1,0x61,0x0D
0.011246480,1,0x2E,0x0D
0.011251780,1,0xF0,0xE0
0.011257500,1,0x2F,0xE0
0.011262800,1,0x00,0x0D
0.011268640,1,0x2E,0x0D
0.011273940,1,0xF8,0xE0
0.011279680,1,0x2F,0xE0
0.011284960,1,0x00,0x0D
0.011290820,1,0x2E,0x0D
0.011296120,1,0x80,0xE0
0.011301840,1,0x2F,0xE0
0.011307140,1,0xAB,0x0D
0.011313060,1,0x2E,0x0D
0.011318340,1,0xF0,0xE0
0.011324080,1,0x2F,0xE0
0.011329380,1,0x00,0x0D
0.011335220,1,0x2E,0x0D
0.011340520,1,0xF8,0xE0
0.011346260,1,0x2F,0xE0
0.011351560,1,0x05,0x0D
0.011357400,1,0x2E,0x0D
0.011362700,1,0x80,0xE0
0.011368420,1,0x2F,0xE0
0.011373740,1,0x10,0x0D
0.011379600,1,0x2E,0x0D
0.011384880,1,0xF0,0xE0
0.011390620,1,0x2F,0xE0
0.011395900,1,0x00,0x0D
0.011401820,1,0x2E,0x0D
0.011407120,1,0xF8,0xE0
0.011412840,1,0x2F,0xE0
0.011418140,1,0x02,0x0D
0.011424000,1,0x2E,0x0D
0.011429300,1,0x80,0xE0
0.011435020,1,0x2F,0xE0
0.011440320,1,0x66,0x0D
0.011446160,1,0x2E,0x0D
0.011451460,1,0xF0,0xE0
0.011457180,1,0x2F,0xE0
0.011462480,1,0x00,0x0D
0.011468320,1,0x2E,0x0D
0.011473620,1,0xC9,0xE0
0.011479360,1,0x2F,0xE0
0.011484640,1,0x00,0x0D
0.011490560,1,0x2E,0x0D
0.011495860,1,0x88,0xE0
0.011501580,1,0x2F,0xE0
0.011506880,1,0x4E,0x0D
0.011512720,1,0x2E,0x0D
0.011518020,1,0xF0,0xE0
0.011523760,1,0x2F,0xE0
0.011529060,1,0x00,0x0D
0.011534900,1,0x2E,0x0D
0.011540200,1,0xF8,0xE0
0.011545920,1,0x2F,0xE0
0.011551220,1,0x05,0x0D
0.011557060,1,0x2E,0x0D
0.011562360,1,0x80,0xE0
0.011568100,1,0x2F,0xE0
0.011573380,1,0x24,0x0D
0.011579300,1,0x2E,0x0D
0.011584600,1,0xF0,0xE0
0.011590320,1,0x2F,0xE0
0.011595620,1,0x00,0x0D
0.011601480,1,0x2E,0x0D
0.011606780,1,0xF8,0xE0
0.011612500,1,0x2F,0xE0
0.011617800,1,0x04,0x0D
0.011623640,1,0x2E,0x0D
0.011628940,1,0x80,0xE0
0.011634680,1,0x2F,0xE0
0.011639960,1,0x52,0x0D
0.011645820,1,0x2E,0x0D
0.011651120,1,0xF0,0xE0
0.011656860,1,0x2F,0xE0
0.011662140,1,0x00,0x0D
0.011668060,1,0x2E,0x0D
0.011673360,1,0xC9,0xE0
0.011679080,1,0x2F,0xE0
0.011684380,1,0x00,0x0D
0.011690220,1,0x2E,0x0D
0.011695520,1,0x88,0xE0
0.011701260,1,0x2F,0xE0
0.011706560,1,0x71,0x0D
0.011712400,1,0x2E,0x0D
0.011717700,1,0xF0,0xE0
0.011723420,1,0x2F,0xE0
0.011728720,1,0x00,0x0D
0.011734560,1,0x2E,0x0D
0.011739860,1,0xF8,0xE0
0.011745580,1,0x2F,0xE0
0.011750900,1,0x00,0x0D
0.011756800,1,0x2E,0x0D
0.011762100,1,0x80,0xE0
0.011767820,1,0x2F,0xE0
0.011773120,1,0xAB,0x0D
0.011778980,1,0x2E,0x0D
0.011784280,1,0xF0,0xE0
0.011790000,1,0x2F,0xE0
0.011795300,1,0x00,0x0D
0.011801160,1,0x2E,0x0D
0.011806460,1,0xF8,0xE0
0.011812180,1,0x2F,0xE0
0.011817480,1,0x04,0x0D
0.011823340,1,0x2E,0x0D
0.011828640,1,0x80,0xE0
0.011834360,1,0x2F,0xE0
0.011839660,1,0x70,0x0D
0.011845560,1,0x2E,0x0D
0.011850860,1,0xF0,0xE0
0.011856600,1,0x2F,0xE0
0.011861880,1,0x00,0x0D
0.011867740,1,0x2E,0x0D
0.011873040,1,0xC9,0xE0
0.011878760,1,0x2F,0xE0
0.011884060,1,0x00,0x0D
0.011889900,1,0x2E,0x0D
0.011895200,1,0x88,0xE0
0.011900940,1,0x2F,0xE0
0.011906240,1,0x6C,0x0D
0.011912080,1,0x2E,0x0D
0.011917380,1,0xF0,0xE0
0.011923100,1,0x2F,0xE0
0.011928400,1,0x00,0x0D
0.011934320,1,0x2E,0x0D
0.011939620,1,0xF8,0xE0
0.011945340,1,0x2F,0xE0
0.011950640,1,0x02,0x0D
0.011956500,1,0x2E,0x0D
0.011961780,1,0x80,0xE0
0.011967520,1,0x2F,0xE0
0.011972820,1,0x66,0x0D
0.011978660,1,0x2E,0x0D
0.011983960,1,0xF0,0xE0
0.011989680,1,0x2F,0xE0
0.011994980,1,0x00,0x0D
0.012000840,1,0x2E,0x0D
0.012006140,1,0xC9,0xE0
0.012011860,1,0x2F,0xE0
0.012017160,1,0x00,0x0D
0.012023080,1,0x2E,0x0D
0.012028380,1,0x88,0xE0
0.012034100,1,0x2F,0xE0
0.012039380,1,0x62,0x0D
0.012045240,1,0x2E,0x0D
0.012050540,1,0xF0,0xE0
0.012056260,1,0x2F,0xE0
0.012061560,1,0x00,0x0D
0.012067400,1,0x2E,0x0D
0.012072700,1,0xF8,0xE0
0.012078440,1,0x2F,0xE0
0.012083720,1,0x04,0x0D
0.012089580,1,0x2E,0x0D
0.012094880,1,0x80,0xE0
0.012100620,1,0x2F,0xE0
0.012105900,1,0x82,0x0D
0.012111820,1,0x2E,0x0D
0.012117120,1,0xF0,0xE0
0.012122860,1,0x2F,0xE0
0.012128160,1,0x00,0x0D
0.012134000,1,0x2E,0x0D
0.012139300,1,0x29,0xE0
0.012145020,1,0x2F,0xE0
0.012150320,1,0x20,0x0D
0.012156180,1,0x2E,0x0D
0.012161480,1,0x40,0xE0
0.012167200,1,0x2F,0xE0
0.012172500,1,0x60,0x0D
0.012178360,1,0x2E,0x0D
0.012183640,1,0x29,0xE0
0.012189380,1,0x2F,0xE0
0.012194680,1,0x20,0x0D
0.012200600,1,0x2E,0x0D
0.012205900,1,0x8C,0xE0
0.012211620,1,0x2F,0xE0
0.012216920,1,0x04,0x0D
0.012222780,1,0x2E,0x0D
0.012228080,1,0xF0,0xE0
0.012233800,1,0x2F,0xE0
0.012239100,1,0x00,0x0D
0.012244940,1,0x2E,0x0D
0.012250260,1,0xF8,0xE0
0.012255980,1,0x2F,0xE0
0.012261280,1,0x04,0x0D
0.012267140,1,0x2E,0x0D
0.012272440,1,0x80,0xE0
0.012278180,1,0x2F,0xE0
0.012283460,1,0xB0,0x0D
0.012289380,1,0x2E,0x0D
0.012294680,1,0xF0,0xE0
0.012300420,1,0x2F,0xE0
0.012305720,1,0x00,0x0D
0.012311580,1,0x2E,0x0D
0.012316880,1,0xF8,0xE0
0.012322620,1,0x2F,0xE0
0.012327920,1,0x04,0x0D
0.012333760,1,0x2E,0x0D
0.012339060,1,0x80,0xE0
0.012344800,1,0x2F,0xE0
0.012350100,1,0x8F,0x0D
0.012355960,1,0x2E,0x0D
0.012361240,1,0xF0,0xE0
0.012366980,1,0x2F,0xE0
0.012372280,1,0x00,0x0D
0.012378200,1,0x2E,0x0D
0.012383480,1,0xF8,0xE0
0.012389220,1,0x2F,0xE0
0.012394520,1,0x01,0x0D
0.012400380,1,0x2E,0x0D
0.012405680,1,0x80,0xE0
0.012411420,1,0x2F,0xE0
0.012416720,1,0x79,0x0D
0.012422580,1,0x2E,0x0D
0.012427880,1,0xF0,0xE0
0.012433600,1,0x2F,0xE0
0.012438920,1,0x00,0x0D
0.012444760,1,0x2E,0x0D
0.012450080,1,0xF8,0xE0
0.012455800,1,0x2F,0xE0
0.012461100,1,0x04,0x0D
0.012467020,1,0x2E,0x0D
0.012472320,1,0x80,0xE0
0.012478040,1,0x2F,0xE0
0.012483340,1,0xA0,0x0D
0.012489180,1,0x2E,0x0D
0.012494480,1,0xF0,0xE0
0.012500220,1,0x2F,0xE0
0.012505500,1,0x00,0x0D
0.012511360,1,0x2E,0x0D
0.012516660,1,0xF8,0xE0
0.012522380,1,0x2F,0xE0
0.012527680,1,0x0E,0x0D
0.012533540,1,0x2E,0x0D
0.012538820,1,0x80,0xE0
0.012544560,1,0x2F,0xE0
0.012549860,1,0xDA,0x0D
0.012555780,1,0x2E,0x0D
0.012561080,1,0xF0,0xE0
0.012566800,1,0x2F,0xE0
0.012572100,1,0x00,0x0D
0.012577960,1,0x2E,0x0D
0.012583260,1,0xF8,0xE0
0.012588980,1,0x2F,0xE0
0.012594280,1,0x00,0x0D
0.012600140,1,0x2E,0x0D
0.012605440,1,0x6F,0xE0
0.012611160,1,0x2F,0xE0
0.012616460,1,0xF6,0x0D
0.012622300,1,0x2E,0x0D
0.012627600,1,0x60,0xE0
0.012633320,1,0x2F,0xE0
0.012638620,1,0x47,0x0D
0.012644540,1,0x2E,0x0D
0.012649840,1,0xF8,0xE0
0.012655560,1,0x2F,0xE0
0.012660860,1,0x0D,0x0D
0.012666700,1,0x2E,0x0D
0.012672000,1,0x80,0xE0
0.012677740,1,0x2F,0xE0
0.012683040,1,0xF7,0x0D
0.012688880,1,0x2E,0x0D
0.012694180,1,0x28,0xE0
0.012699920,1,0x2F,0xE0
0.012705220,1,0x58,0x0D
0.012711060,1,0x2E,0x0D
0.012716380,1,0xF8,0xE0
0.012722100,1,0x2F,0xE0
0.012727400,1,0x0E,0x0D
0.012733320,1,0x2E,0x0D
0.012738620,1,0x80,0xE0
0.012744360,1,0x2F,0xE0
0.012749660,1,0x4F,0x0D
0.012755500,1,0x2E,0x0D
0.012760800,1,0xF0,0xE0
0.012766540,1,0x2F,0xE0
0.012771840,1,0x00,0x0D
0.012777680,1,0x2E,0x0D
0.012782980,1,0xF8,0xE0
0.012788700,1,0x2F,0xE0
0.012794000,1,0x0F,0x0D
0.012799860,1,0x2E,0x0D
0.012805140,1,0x80,0xE0
0.012810880,1,0x2F,0xE0
0.012816180,1,0x5F,0x0D
0.012822100,1,0x2E,0x0D
0.012827380,1,0x29,0xE0
0.012833120,1,0x2F,0xE0
0.012838420,1,0x70,0x0D
0.012844280,1,0x2E,0x0D
0.012849560,1,0x29,0xE0
0.012855300,1,0x2F,0xE0
0.012860600,1,0x29,0x0D
0.012866440,1,0x2E,0x0D
0.012871760,1,0xF8,0xE0
0.012877480,1,0x2F,0xE0
0.012882780,1,0x01,0x0D
0.012888640,1,0x2E,0x0D
0.012893940,1,0x80,0xE0
0.012899660,1,0x2F,0xE0
0.012904960,1,0xB8,0x0D
0.012910880,1,0x2E,0x0D
0.012916180,1,0xC9,0xE0
0.012921920,1,0x2F,0xE0
0.012927200,1,0x9B,0x0D
0.012933060,1,0x2E,0x0D
0.012938360,1,0x80,0xE0
0.012944100,1,0x2F,0xE0
0.012949400,1,0x40,0x0D
0.012955240,1,0x2E,0x0D
0.012960540,1,0xF0,0xE0
0.012966280,1,0x2F,0xE0
0.012971580,1,0x00,0x0D
0.012977420,1,0x2E,0x0D
0.012982720,1,0xF8,0xE0
0.012988460,1,0x2F,0xE0
0.012993760,1,0x22,0x0D
0.012999680,1,0x2E,0x0D
0.013004960,1,0x6F,0xE0
0.013010700,1,0x2F,0xE0
0.013016000,1,0x0D,0x0D
0.013021860,1,0x2E,0x0D
0.013027140,1,0xCC,0xE0
0.013032880,1,0x2F,0xE0
0.013038180,1,0xD1,0x0D
0.013044040,1,0x2E,0x0D
0.013049320,1,0xCC,0xE0
0.013055060,1,0x2F,0xE0
0.013060360,1,0xD2,0x0D
0.013066220,1,0x2E,0x0D
0.013071520,1,0xF8,0xE0
0.013077240,1,0x2F,0xE0
0.013082540,1,0x03,0x0D
0.013088460,1,0x2E,0x0D
0.013093760,1,0xE1,0xE0
0.013099480,1,0x2F,0xE0
0.013104780,1,0xA1,0x0D
0.013110640,1,0x2E,0x0D
0.013115940,1,0xF8,0xE0
0.013121660,1,0x2F,0xE0
0.013126960,1,0x03,0x0D
0.013132800,1,0x2E,0x0D
0.013138100,1,0xE2,0xE0
0.013143840,1,0x2F,0xE0
0.013149140,1,0xA2,0x0D
0.013155000,1,0x2E,0x0D
0.013160300,1,0xF8,0xE0
0.013166020,1,0x2F,0xE0
0.013171320,1,0x0F,0x0D
0.013177240,1,0x2E,0x0D
0.013182540,1,0x80,0xE0
0.013188280,1,0x2F,0xE0
0.013193580,1,0x52,0x0D
0.013199420,1,0x2E,0x0D
0.013204720,1,0xF0,0xE0
0.013210440,1,0x2F,0xE0
0.013215760,1,0x00,0x0D
0.013221600,1,0x2E,0x0D
0.013226900,1,0xE0,0xE0
0.013232640,1,0x2F,0xE0
0.013237940,1,0xF0,0x0D
0.013243800,1,0x2E,0x0D
0.013249100,1,0x26,0xE0
0.013254820,1,0x2F,0xE0
0.013260120,1,0xEF,0x0D
0.013266040,1,0x2E,0x0D
0.013271340,1,0xF8,0xE0
0.013277060,1,0x2F,0xE0
0.013282360,1,0x0D,0x0D
0.013288220,1,0x2E,0x0D
0.013293520,1,0x80,0xE0
0.013299240,1,0x2F,0xE0
0.013304540,1,0x90,0x0D
0.013310400,1,0x2E,0x0D
0.013315700,1,0x11,0xE0
0.013321420,1,0x2F,0xE0
0.013326720,1,0xCF,0x0D
0.013332580,1,0x2E,0x0D
0.013337880,1,0xF8,0xE0
0.013343600,1,0x2F,0xE0
0.013348900,1,0x01,0x0D
0.013354820,1,0x2E,0x0D
0.013360120,1,0x60,0xE0
0.013365860,1,0x2F,0xE0
0.013371160,1,0x0D,0x0D
0.013377000,1,0x2E,0x0D
0.013382300,1,0xF0,0xE0
0.013388040,1,0x2F,0xE0
0.013393340,1,0x00,0x0D
0.013399200,1,0x2E,0x0D
0.013404480,1,0xC8,0xE0
0.013410220,1,0x2F,0xE0
0.013415520,1,0x0D,0x0D
0.013421380,1,0x2E,0x0D
0.013426660,1,0x88,0xE0
0.013432400,1,0x2F,0xE0
0.013437700,1,0x4B,0x0D
0.013443620,1,0x2E,0x0D
0.013448920,1,0xF0,0xE0
0.013454640,1,0x2F,0xE0
0.013459940,1,0x00,0x0D
0.013465800,1,0x2E,0x0D
0.013471100,1,0xF8,0xE0
0.013476840,1,0x2F,0xE0
0.013482120,1,0x05,0x0D
0.013487980,1,0x2E,0x0D
0.013493280,1,0x80,0xE0
0.013499000,1,0x2F,0xE0
0.013504300,1,0x24,0x0D
0.013510160,1,0x2E,0x0D
0.013515460,1,0xF0,0xE0
0.013521180,1,0x2F,0xE0
0.013526480,1,0x00,0x0D
0.013532400,1,0x2E,0x0D
0.013537700,1,0xF8,0xE0
0.013543440,1,0x2F,0xE0
0.013548740,1,0x05,0x0D
0.013554580,1,0x2E,0x0D
0.013559880,1,0x80,0xE0
0.013565620,1,0x2F,0xE0
0.013570920,1,0x31,0x0D
0.013576780,1,0x2E,0x0D
0.013582080,1,0xF0,0xE0
0.013587800,1,0x2F,0xE0
0.013593120,1,0x00,0x0D
0.013598960,1,0x2E,0x0D
0.013604260,1,0xC9,0xE0
0.013610000,1,0x2F,0xE0
0.013615300,1,0x00,0x0D
0.013621220,1,0x2E,0x0D
0.013626500,1,0x88,0xE0
0.013632240,1,0x2F,0xE0
0.013637540,1,0x15,0x0D
0.013643400,1,0x2E,0x0D
0.013648700,1,0xF0,0xE0
0.013654420,1,0x2F,0xE0
0.013659740,1,0x00,0x0D
0.013665600,1,0x2E,0x0D
0.013670900,1,0xF8,0xE0
0.013676620,1,0x2F,0xE0
0.013681920,1,0x00,0x0D
0.013687780,1,0x2E,0x0D
0.013693080,1,0x80,0xE0
0.013698800,1,0x2F,0xE0
0.013704100,1,0xAB,0x0D
0.013710020,1,0x2E,0x0D
0.013715320,1,0xF0,0xE0
0.013721040,1,0x2F,0xE0
0.013726340,1,0x00,0x0D
0.013732180,1,0x2E,0x0D
0.013737480,1,0xF8,0xE0
0.013743220,1,0x2F,0xE0
0.013748500,1,0x04,0x0D
0.013754360,1,0x2E,0x0D
0.013759640,1,0x80,0xE0
0.013765380,1,0x2F,0xE0
0.013770680,1,0x70,0x0D
0.013776520,1,0x2E,0x0D
0.013781820,1,0xF0,0xE0
0.013787560,1,0x2F,0xE0
0.013792860,1,0x00,0x0D
0.013798780,1,0x2E,0x0D
0.013804060,1,0xC9,0xE0
0.013809800,1,0x2F,0xE0
0.013815100,1,0x00,0x0D
0.013820960,1,0x2E,0x0D
0.013826240,1,0x88,0xE0
0.013831980,1,0x2F,0xE0
0.013837280,1,0x0C,0x0D
0.013843120,1,0x2E,0x0D
0.013848420,1,0xF0,0xE0
0.013854140,1,0x2F,0xE0
0.013859440,1,0x00,0x0D
0.013865300,1,0x2E,0x0D
0.013870600,1,0xF8,0xE0
0.013876320,1,0x2F,0xE0
0.013881620,1,0x02,0x0D
0.013887540,1,0x2E,0x0D
0.013892840,1,0x80,0xE0
0.013898560,1,0x2F,0xE0
0.013903860,1,0x66,0x0D
0.013909720,1,0x2E,0x0D
0.013915020,1,0xF0,0xE0
0.013920740,1,0x2F,0xE0
0.013926020,1,0x00,0x0D
0.013931880,1,0x2E,0x0D
0.013937180,1,0xC9,0xE0
0.013942900,1,0x2F,0xE0
0.013948200,1,0x00,0x0D
0.013954040,1,0x2E,0x0D
0.013959340,1,0x88,0xE0
0.013965080,1,0x2F,0xE0
0.013970380,1,0x06,0x0D
0.013976280,1,0x2E,0x0D
0.013981580,1,0xF0,0xE0
0.013987320,1,0x2F,0xE0
0.013992620,1,0x00,0x0D
0.013998460,1,0x2E,0x0D
0.014003760,1,0xF8,0xE0
0.014009480,1,0x2F,0xE0
0.014014780,1,0x05,0x0D
0.014020640,1,0x2E,0x0D
0.014025920,1,0x80,0xE0
0.014031660,1,0x2F,0xE0
0.014036960,1,0x54,0x0D
0.014042800,1,0x2E,0x0D
0.014048100,1,0xF0,0xE0
0.014053820,1,0x2F,0xE0
0.014059120,1,0x00,0x0D
0.014065040,1,0x2E,0x0D
0.014070340,1,0x87,0xE0
0.014076060,1,0x2F,0xE0
0.014081380,1,0x90,0x0D
0.014087240,1,0x2E,0x0D
0.014092520,1,0xF0,0xE0
0.014098260,1,0x2F,0xE0
0.014103560,1,0x00,0x0D
0.014109400,1,0x2E,0x0D
0.014114700,1,0xF8,0xE0
0.014120420,1,0x2F,0xE0
0.014125720,1,0x0D,0x0D
0.014131580,1,0x2E,0x0D
0.014136880,1,0x80,0xE0
0.014142600,1,0x2F,0xE0
0.014147900,1,0xED,0x0D
0.014153820,1,0x2E,0x0D
0.014159120,1,0xF0,0xE0
0.014164860,1,0x2F,0xE0
0.014170140,1,0x00,0x0D
0.014176000,1,0x2E,0x0D
0.014181300,1,0x87,0xE0
0.014187040,1,0x2F,0xE0
0.014192340,1,0x8B,0x0D
0.014198180,1,0x2E,0x0D
0.014203480,1,0xF0,0xE0
0.014209220,1,0x2F,0xE0
0.014214520,1,0x00,0x0D
0.014220360,1,0x2E,0x0D
0.014225660,1,0x29,0xE0
0.014231400,1,0x2F,0xE0
0.014236700,1,0x20,0x0D
0.014242600,1,0x2E,0x0D
0.014247900,1,0x50,0xE0
0.014253640,1,0x2F,0xE0
0.014258940,1,0x40,0x0D
0.014264780,1,0x2E,0x0D
0.014270080,1,0x87,0xE0
0.014275800,1,0x2F,0xE0
0.014281100,1,0xA4,0x0D
0.014286960,1,0x2E,0x0D
0.014292240,1,0x39,0xE0
0.014297980,1,0x2F,0xE0
0.014303280,1,0x20,0x0D
0.014309140,1,0x2E,0x0D
0.014314440,1,0x60,0xE0
0.014320160,1,0x2F,0xE0
0.014325460,1,0x01,0x0D
0.014331360,1,0x2E,0x0D
0.014336660,1,0x87,0xE0
0.014342400,1,0x2F,0xE0
0.014347680,1,0x99,0x0D
0.014353540,1,0x2E,0x0D
0.014358840,1,0x60,0xE0
0.014364560,1,0x2F,0xE0
0.014369860,1,0x02,0x0D
0.014375700,1,0x2E,0x0D
0.014381000,1,0x28,0xE0
0.014386740,1,0x2F,0xE0
0.014392020,1,0x58,0x0D
0.014397880,1,0x2E,0x0D
0.014403160,1,0xF8,0xE0
0.014408900,1,0x2F,0xE0
0.014414200,1,0x01,0x0D
0.014420100,1,0x2E,0x0D
0.014425400,1,0x60,0xE0
0.014431120,1,0x2F,0xE0
0.014436420,1,0x03,0x0D
0.014442260,1,0x2E,0x0D
0.014447560,1,0xCB,0xE0
0.014453280,1,0x2F,0xE0
0.014458580,1,0x12,0x0D
0.014464420,1,0x2E,0x0D
0.014469720,1,0xC2,0xE0
0.014475440,1,0x2F,0xE0
0.014480740,1,0x81,0x0D
0.014486580,1,0x2E,0x0D
0.014491880,1,0xCB,0xE0
0.014497600,1,0x2F,0xE0
0.014502900,1,0x21,0x0D
0.014508820,1,0x2E,0x0D
0.014514100,1,0x8C,0xE0
0.014519840,1,0x2F,0xE0
0.014525120,1,0x0A,0x0D
0.014530980,1,0x2E,0x0D
0.014536280,1,0xCB,0xE0
0.014542000,1,0x2F,0xE0
0.014547300,1,0x02,0x0D
0.014553140,1,0x2E,0x0D
0.014558460,1,0x10,0xE0
0.014564180,1,0x2F,0xE0
0.014569460,1,0x41,0x0D
0.014575320,1,0x2E,0x0D
0.014580620,1,0x8C,0xE0
0.014586340,1,0x2F,0xE0
0.014591640,1,0x11,0x0D
0.014597540,1,0x2E,0x0D
0.014602840,1,0xC2,0xE0
0.014608580,1,0x2F,0xE0
0.014613880,1,0x30,0x0D
0.014619720,1,0x2E,0x0D
0.014625020,1,0x60,0xE0
0.014630760,1,0x2F,0xE0
0.014636040,1,0x01,0x0D
0.014641900,1,0x2E,0x0D
0.014647200,1,0xF8,0xE0
0.014652940,1,0x2F,0xE0
0.014658240,1,0x08,0x0D
0.014664080,1,0x2E,0x0D
0.014669380,1,0x6D,0xE0
0.014675100,1,0x2F,0xE0
0.014680420,1,0xD0,0x0D
0.014686320,1,0x2E,0x0D
0.014691620,1,0x3A,0xE0
0.014697340,1,0x2F,0xE0
0.014702640,1,0x01,0x0D
0.014708500,1,0x2E,0x0D
0.014713780,1,0xBC,0xE0
0.014719500,1,0x2F,0xE0
0.014724800,1,0x00,0x0D
0.014730660,1,0x2E,0x0D
0.014735960,1,0x3F,0xE0
0.014741680,1,0x2F,0xE0
0.014746980,1,0x00,0x0D
0.014752840,1,0x2E,0x0D
0.014758140,1,0x12,0xE0
0.014763860,1,0x2F,0xE0
0.014769140,1,0x00,0x0D
0.014775060,1,0x2E,0x0D
0.014780360,1,0x97,0xE0
0.014786100,1,0x2F,0xE0
0.014791380,1,0xF8,0x0D
0.014797240,1,0x2E,0x0D
0.014802540,1,0x60,0xE0
0.014808260,1,0x2F,0xE0
0.014813560,1,0x21,0x0D
0.014819400,1,0x2E,0x0D
0.014824700,1,0xF8,0xE0
0.014830440,1,0x2F,0xE0
0.014835740,1,0x09,0x0D
0.014841580,1,0x2E,0x0D
0.014846880,1,0x6F,0xE0
0.014852620,1,0x2F,0xE0
0.014857920,1,0xA0,0x0D
0.014863820,1,0x2E,0x0D
0.014869120,1,0xF8,0xE0
0.014874860,1,0x2F,0xE0
0.014880160,1,0x02,0x0D
0.014886000,1,0x2E,0x0D
0.014891300,1,0x80,0xE0
0.014897040,1,0x2F,0xE0
0.014902340,1,0xEF,0x0D
0.014908180,1,0x2E,0x0D
0.014913480,1,0x3A,0xE0
0.014919220,1,0x2F,0xE0
0.014924520,1,0x01,0x0D
0.014930380,1,0x2E,0x0D
0.014935660,1,0xBC,0xE0
0.014941400,1,0x2F,0xE0
0.014946700,1,0x00,0x0D
0.014952620,1,0x2E,0x0D
0.014957920,1,0x3F,0xE0
0.014963640,1,0x2F,0xE0
0.014968960,1,0x00,0x0D
0.014974800,1,0x2E,0x0D
0.014980100,1,0x93,0xE0
0.014985840,1,0x2F,0xE0
0.014991140,1,0xEF,0x0D
0.014996980,1,0x2E,0x0D
0.015002280,1,0xF0,0xE0
0.015008020,1,0x2F,0xE0
0.015013300,1,0x00,0x0D
0.015019160,1,0x2E,0x0D
0.015024460,1,0xF8,0xE0
0.015030180,1,0x2F,0xE0
0.015035460,1,0x0B,0x0D
0.015041380,1,0x2E,0x0D
0.015046680,1,0x61,0xE0
0.015052400,1,0x2F,0xE0
0.015057700,1,0x40,0x0D
0.015063540,1,0x2E,0x0D
0.015068840,1,0xBC,0xE0
0.015074580,1,0x2F,0xE0
0.015079860,1,0x00,0x0D
0.015085700,1,0x2E,0x0D
0.015091000,1,0x3F,0xE0
0.015096720,1,0x2F,0xE0
0.015102020,1,0x00,0x0D
0.015107880,1,0x2E,0x0D
0.015113160,1,0xF8,0xE0
0.015118900,1,0x2F,0xE0
0.015124200,1,0x0F,0x0D
0.015130100,1,0x2E,0x0D
0.015135400,1,0x80,0xE0
0.015141140,1,0x2F,0xE0
0.015146420,1,0x6C,0x0D
0.015152280,1,0x2E,0x0D
0.015157580,1,0xF0,0xE0
0.015163300,1,0x2F,0xE0
0.015168600,1,0x00,0x0D
0.015174460,1,0x2E,0x0D
0.015179760,1,0xF8,0xE0
0.015185480,1,0x2F,0xE0
0.015190780,1,0x00,0x0D
0.015196640,1,0x2E,0x0D
0.015201940,1,0x80,0xE0
0.015207660,1,0x2F,0xE0
0.015212960,1,0xAB,0x0D
0.015218880,1,0x2E,0x0D
0.015224180,1,0xF0,0xE0
0.015229900,1,0x2F,0xE0
0.015235200,1,0x00,0x0D
0.015241040,1,0x2E,0x0D
0.015246360,1,0xF8,0xE0
0.015252080,1,0x2F,0xE0
0.015257380,1,0x04,0x0D
0.015263240,1,0x2E,0x0D
0.015268540,1,0x80,0xE0
0.015274280,1,0x2F,0xE0
0.015279560,1,0x70,0x0D
0.015285420,1,0x2E,0x0D
0.015290720,1,0xF0,0xE0
0.015296440,1,0x2F,0xE0
0.015301740,1,0x00,0x0D
0.015307660,1,0x2E,0x0D
0.015312940,1,0xF8,0xE0
0.015318680,1,0x2F,0xE0
0.015323980,1,0x02,0x0D
0.015329840,1,0x2E,0x0D
0.015335120,1,0x80,0xE0
0.015340860,1,0x2F,0xE0
0.015346160,1,0x66,0x0D
0.015352000,1,0x2E,0x0D
0.015357300,1,0xF0,0xE0
0.015363040,1,0x2F,0xE0
0.015368340,1,0x00,0x0D
0.015374180,1,0x2E,0x0D
0.015379480,1,0xC9,0xE0
0.015385220,1,0x2F,0xE0
0.015390520,1,0x00,0x0D
0.015396440,1,0x2E,0x0D
0.015401740,1,0x8C,0xE0
0.015407460,1,0x2F,0xE0
0.015412760,1,0x03,0x0D
0.015418620,1,0x2E,0x0D
0.015423920,1,0xF0,0xE0
0.015429640,1,0x2F,0xE0
0.015434940,1,0x00,0x0D
0.015440800,1,0x2E,0x0D
0.015446100,1,0x60,0xE0
0.015451840,1,0x2F,0xE0
0.015457120,1,0x01,0x0D
0.015462980,1,0x2E,0x0D
0.015468280,1,0x60,0xE0
0.015474020,1,0x2F,0xE0
0.015479300,1,0x02,0x0D
0.015485220,1,0x2E,0x0D
0.015490520,1,0xF8,0xE0
0.015496260,1,0x2F,0xE0
0.015501560,1,0x05,0x0D
0.015507400,1,0x2E,0x0D
0.015512700,1,0x80,0xE0
0.015518440,1,0x2F,0xE0
0.015523740,1,0x24,0x0D
0.015529580,1,0x2E,0x0D
0.015534880,1,0xF0,0xE0
0.015540620,1,0x2F,0xE0
0.015545920,1,0x00,0x0D
0.015551760,1,0x2E,0x0D
0.015557060,1,0x87,0xE0
0.015562800,1,0x2F,0xE0
0.015568100,1,0x4D,0x0D
0.015574020,1,0x2E,0x0D
0.015579300,1,0xF0,0xE0
0.015585020,1,0x2F,0xE0
0.015590320,1,0x00,0x0D
0.015596180,1,0x2E,0x0D
0.015601480,1,0x20,0xE0
0.015607220,1,0x2F,0xE0
0.015612520,1,0xB1,0x0D
0.015618380,1,0x2E,0x0D
0.015623680,1,0x60,0xE0
0.015629400,1,0x2F,0xE0
0.015634700,1,0x00,0x0D
0.015640560,1,0x2E,0x0D
0.015645860,1,0x28,0xE0
0.015651580,1,0x2F,0xE0
0.015656880,1,0xA6,0x0D
0.015662800,1,0x2E,0x0D
0.015668100,1,0x28,0xE0
0.015673840,1,0x2F,0xE0
0.015679140,1,0x97,0x0D
0.015684980,1,0x2E,0x0D
0.015690280,1,0xE2,0xE0
0.015696020,1,0x2F,0xE0
0.015701320,1,0x06,0x0D
0.015707180,1,0x2E,0x0D
0.015712480,1,0xF8,0xE0
0.015718200,1,0x2F,0xE0
0.015723500,1,0x01,0x0D
0.015729360,1,0x2E,0x0D
0.015734660,1,0x62,0xE0
0.015740380,1,0x2F,0xE0
0.015745700,1,0xC8,0x0D
0.015751620,1,0x2E,0x0D
0.015756900,1,0xF8,0xE0
0.015762640,1,0x2F,0xE0
0.015767960,1,0x00,0x0D
0.015773800,1,0x2E,0x0D
0.015779100,1,0x80,0xE0
0.015784840,1,0x2F,0xE0
0.015790140,1,0x25,0x0D
0.015796000,1,0x2E,0x0D
0.015801280,1,0x46,0xE0
0.015807000,1,0x2F,0xE0
0.015812300,1,0x31,0x0D
0.015818140,1,0x2E,0x0D
0.015823440,1,0x21,0xE0
0.015829160,1,0x2F,0xE0
0.015834440,1,0x25,0x0D
0.015840360,1,0x2E,0x0D
0.015845660,1,0x13,0xE0
0.015851380,1,0x2F,0xE0
0.015856660,1,0xC5,0x0D
0.015862520,1,0x2E,0x0D
0.015867820,1,0x90,0xE0
0.015873540,1,0x2F,0xE0
0.015878820,1,0x07,0x0D
0.015884680,1,0x2E,0x0D
0.015889960,1,0x21,0xE0
0.015895700,1,0x2F,0xE0
0.015900980,1,0x04,0x0D
0.015906840,1,0x2E,0x0D
0.015912120,1,0xF8,0xE0
0.015917860,1,0x2F,0xE0
0.015923140,1,0x02,0x0D
0.015929040,1,0x2E,0x0D
0.015934340,1,0x64,0xE0
0.015940060,1,0x2F,0xE0
0.015945360,1,0x47,0x0D
0.015951200,1,0x2E,0x0D
0.015956500,1,0x21,0xE0
0.015962220,1,0x2F,0xE0
0.015967500,1,0x45,0x0D
0.015973360,1,0x2E,0x0D
0.015978640,1,0xC2,0xE0
0.015984360,1,0x2F,0xE0
0.015989660,1,0x74,0x0D
0.015995500,1,0x2E,0x0D
0.016000800,1,0x90,0xE0
0.016006500,1,0x2F,0xE0
0.016011800,1,0x03,0x0D
0.016017720,1,0x2E,0x0D
0.016023000,1,0xC2,0xE0
0.016028720,1,0x2F,0xE0
0.016034000,1,0x75,0x0D
0.016039860,1,0x2E,0x0D
0.016045140,1,0xBC,0xE0
0.016050860,1,0x2F,0xE0
0.016056140,1,0x00,0x0D
0.016061980,1,0x2E,0x0D
0.016067280,1,0x62,0xE0
0.016073000,1,0x2F,0xE0
0.016078280,1,0x00,0x0D
0.016084120,1,0x2E,0x0D
0.016089400,1,0x97,0xE0
0.016095120,1,0x2F,0xE0
0.016100420,1,0xFD,0x0D
0.016106320,1,0x2E,0x0D
0.016111620,1,0xF0,0xE0
0.016117340,1,0x2F,0xE0
0.016122620,1,0x00,0x0D
0.016128460,1,0x2E,0x0D
0.016133740,1,0xBC,0xE0
0.016139480,1,0x2F,0xE0
0.016144760,1,0x00,0x0D
0.016150600,1,0x2E,0x0D
0.016155900,1,0xF0,0xE0
0.016161620,1,0x2F,0xE0
0.016166900,1,0x00,0x0D
0.016172760,1,0x2E,0x0D
0.016178040,1,0x20,0xE0
0.016183760,1,0x2F,0xE0
0.016189060,1,0xB1,0x0D
0.016194980,1,0x2E,0x0D
0.016200260,1,0x60,0xE0
0.016205980,1,0x2F,0xE0
0.016211280,1,0x00,0x0D
0.016217140,1,0x2E,0x0D
0.016222420,1,0x28,0xE0
0.016228140,1,0x2F,0xE0
0.016233440,1,0xA6,0x0D
0.016239280,1,0x2E,0x0D
0.016244580,1,0x28,0xE0
0.016250280,1,0x2F,0xE0
0.016255580,1,0x97,0x0D
0.016261420,1,0x2E,0x0D
0.016266720,1,0xE2,0xE0
0.016272440,1,0x2F,0xE0
0.016277720,1,0x06,0x0D
0.016283620,1,0x2E,0x0D
0.016288920,1,0xF8,0xE0
0.016294640,1,0x2F,0xE0
0.016299920,1,0x00,0x0D
0.016305760,1,0x2E,0x0D
0.016311040,1,0x6F,0xE0
0.016316760,1,0x2F,0xE0
0.016322040,1,0xA8,0x0D
0.016327880,1,0x2E,0x0D
0.016333160,1,0xF8,0xE0
0.016338900,1,0x2F,0xE0
0.016344180,1,0x00,0x0D
0.016350020,1,0x2E,0x0D
0.016355300,1,0x80,0xE0
0.016361020,1,0x2F,0xE0
0.016366320,1,0x25,0x0D
0.016372220,1,0x2E,0x0D
0.016377500,1,0x46,0xE0
0.016383220,1,0x2F,0xE0
0.016388520,1,0x31,0x0D
0.016394360,1,0x2E,0x0D
0.016399640,1,0x21,0xE0
0.016405360,1,0x2F,0xE0
0.016410660,1,0x25,0x0D
0.016416520,1,0x2E,0x0D
0.016421800,1,0x15,0xE0
0.016427520,1,0x2F,0xE0
0.016432800,1,0xA5,0x0D
0.016438660,1,0x2E,0x0D
0.016443940,1,0x93,0xE0
0.016449660,1,0x2F,0xE0
0.016454940,1,0xED,0x0D
0.016460840,1,0x2E,0x0D
0.016466140,1,0xF0,0xE0
0.016471840,1,0x2F,0xE0
0.016477140,1,0x00,0x0D
0.016482980,1,0x2E,0x0D
0.016488280,1,0x87,0xE0
0.016494000,1,0x2F,0xE0
0.016499280,1,0xE5,0x0D
0.016505120,1,0x2E,0x0D
0.016510400,1,0x21,0xE0
0.016516140,1,0x2F,0xE0
0.016521420,1,0x04,0x0D
0.016527260,1,0x2E,0x0D
0.016532540,1,0xF8,0xE0
0.016538260,1,0x2F,0xE0
0.016543560,1,0x03,0x0D
0.016549460,1,0x2E,0x0D
0.016554740,1,0x80,0xE0
0.016560460,1,0x2F,0xE0
0.016565760,1,0x17,0x0D
0.016571600,1,0x2E,0x0D
0.016576880,1,0xF0,0xE0
0.016582600,1,0x2F,0xE0
0.016587880,1,0x00,0x0D
0.016593720,1,0x2E,0x0D
0.016599000,1,0xF8,0xE0
0.016604720,1,0x2F,0xE0
0.016610020,1,0x03,0x0D
0.016615860,1,0x2E,0x0D
0.016621140,1,0x80,0xE0
0.016626860,1,0x2F,0xE0
0.016632140,1,0x29,0x0D
0.016638060,1,0x2E,0x0D
0.016643340,1,0xF0,0xE0
0.016649060,1,0x2F,0xE0
0.016654340,1,0x00,0x0D
0.016660200,1,0x2E,0x0D
0.016665480,1,0x80,0xE0
0.016671200,1,0x2F,0xE0
0.016676480,1,0x0E,0x0D
0.016682320,1,0x2E,0x0D
0.016687620,1,0xF0,0xE0
0.016693320,1,0x2F,0xE0
0.016698600,1,0x00,0x0D
0.016704460,1,0x2E,0x0D
0.016709740,1,0x80,0xE0
0.016715460,1,0x2F,0xE0
0.016720760,1,0x04,0x0D
0.016726660,1,0x2E,0x0D
0.016731940,1,0x20,0xE0
0.016737660,1,0x2F,0xE0
0.016742960,1,0xB0,0x0D
0.016748780,1,0x2E,0x0D
0.016754080,1,0xF8,0xE0
0.016759800,1,0x2F,0xE0
0.016765080,1,0x06,0x0D
0.016770920,1,0x2E,0x0D
0.016776200,1,0x84,0xE0
0.016781940,1,0x2F,0xE0
0.016787220,1,0xC3,0x0D
0.016793060,1,0x2E,0x0D
0.016798340,1,0xF0,0xE0
0.016804060,1,0x2F,0xE0
0.016809360,1,0x00,0x0D
0.016815260,1,0x2E,0x0D
0.016820540,1,0x41,0xE0
0.016826260,1,0x2F,0xE0
0.016831540,1,0x00,0x0D
0.016837400,1,0x2E,0x0D
0.016842660,1,0x88,0xE0
0.016848380,1,0x2F,0xE0
0.016853680,1,0x04,0x0D
0.016859520,1,0x2E,0x0D
0.016864800,1,0xF0,0xE0
0.016870520,1,0x2F,0xE0
0.016875800,1,0x00,0x0D
0.016881660,1,0x2E,0x0D
0.016886940,1,0xF8,0xE0
0.016892640,1,0x2F,0xE0
0.016897940,1,0x00,0x0D
0.016903840,1,0x2E,0x0D
0.016909120,1,0x84,0xE0
0.016914840,1,0x2F,0xE0
0.016920120,1,0x0A,0x0D
0.016925980,1,0x2E,0x0D
0.016931260,1,0xF0,0xE0
0.016936980,1,0x2F,0xE0
0.016942280,1,0x00,0x0D
0.016948120,1,0x2E,0x0D
0.016953400,1,0xBC,0xE0
0.016959120,1,0x2F,0xE0
0.016964420,1,0x00,0x0D
0.016970240,1,0x2E,0x0D
0.016975540,1,0xF0,0xE0
0.016981260,1,0x2F,0xE0
0.016986540,1,0x00,0x0D
0.016992440,1,0x2E,0x0D
0.016997740,1,0x28,0xE0
0.017003460,1,0x2F,0xE0
0.017008740,1,0x40,0x0D
0.017014580,1,0x2E,0x0D
0.017019860,1,0xF8,0xE0
0.017025580,1,0x2F,0xE0
0.017030880,1,0x02,0x0D
0.017036720,1,0x2E,0x0D
0.017042000,1,0x61,0xE0
0.017047720,1,0x2F,0xE0
0.017053000,1,0xF2,0x0D
0.017058860,1,0x2E,0x0D
0.017064140,1,0xF8,0xE0
0.017069860,1,0x2F,0xE0
0.017075140,1,0x02,0x0D
0.017081060,1,0x2E,0x0D
0.017086340,1,0x60,0xE0
0.017092060,1,0x2F,0xE0
0.017097340,1,0x04,0x0D
0.017103200,1,0x2E,0x0D
0.017108480,1,0xF8,0xE0
0.017114200,1,0x2F,0xE0
0.017119480,1,0x22,0x0D
0.017125340,1,0x2E,0x0D
0.017130620,1,0x6F,0xE0
0.017136340,1,0x2F,0xE0
0.017141620,1,0x8D,0x0D
0.017147460,1,0x2E,0x0D
0.017152760,1,0xD2,0xE0
0.017158480,1,0x2F,0xE0
0.017163760,1,0x02,0x0D
0.017169660,1,0x2E,0x0D
0.017174960,1,0xD4,0xE0
0.017180680,1,0x2F,0xE0
0.017185960,1,0x04,0x0D
0.017191800,1,0x2E,0x0D
0.017197080,1,0xCD,0xE0
0.017202800,1,0x2F,0xE0
0.017208100,1,0xD2,0x0D
0.017213940,1,0x2E,0x0D
0.017219220,1,0xBC,0xE0
0.017224940,1,0x2F,0xE0
0.017230240,1,0x00,0x0D
0.017236080,1,0x2E,0x0D
0.017241360,1,0xCD,0xE0
0.017247080,1,0x2F,0xE0
0.017252360,1,0xD4,0x0D
0.017258280,1,0x2E,0x0D
0.017263560,1,0x62,0xE0
0.017269260,1,0x2F,0xE0
0.017274560,1,0x01,0x0D
0.017280400,1,0x2E,0x0D
0.017285680,1,0x29,0xE0
0.017291400,1,0x2F,0xE0
0.017296680,1,0x20,0x0D
0.017302520,1,0x2E,0x0D
0.017307820,1,0xC8,0xE0
0.017313520,1,0x2F,0xE0
0.017318800,1,0x10,0x0D
0.017324640,1,0x2E,0x0D
0.017329940,1,0x39,0xE0
0.017335640,1,0x2F,0xE0
0.017340920,1,0x20,0x0D
0.017346820,1,0x2E,0x0D
0.017352100,1,0x83,0xE0
0.017357820,1,0x2F,0xE0
0.017363100,1,0xB0,0x0D
0.017368940,1,0x2E,0x0D
0.017374220,1,0x67,0xE0
0.017379940,1,0x2F,0xE0
0.017385240,1,0x6A,0x0D
0.017391060,1,0x2E,0x0D
0.017396340,1,0xC9,0xE0
0.017402060,1,0x2F,0xE0
0.017407360,1,0x00,0x0D
0.017413180,1,0x2E,0x0D
0.017418460,1,0xF8,0xE0
0.017424180,1,0x2F,0xE0
0.017429480,1,0x0B,0x0D
0.017435360,1,0x2E,0x0D
0.017440660,1,0x88,0xE0
0.017446380,1,0x2F,0xE0
0.017451660,1,0x80,0x0D
0.017457520,1,0x2E,0x0D
0.017462800,1,0xF0,0xE0
0.017468520,1,0x2F,0xE0
0.017473800,1,0x00,0x0D
0.017479660,1,0x2E,0x0D
0.017484940,1,0xF8,0xE0
0.017490660,1,0x2F,0xE0
0.017495940,1,0x0E,0x0D
0.017501800,1,0x2E,0x0D
0.017507080,1,0x80,0xE0
0.017512780,1,0x2F,0xE0
0.017518060,1,0x7E,0x0D
0.017523960,1,0x2E,0x0D
0.017529260,1,0xF0,0xE0
0.017534960,1,0x2F,0xE0
0.017540240,1,0x00,0x0D
0.017546080,1,0x2E,0x0D
0.017551360,1,0xF8,0xE0
0.017557080,1,0x2F,0xE0
0.017562360,1,0x0F,0x0D
0.017568200,1,0x2E,0x0D
0.017573480,1,0x80,0xE0
0.017579200,1,0x2F,0xE0
0.017584480,1,0x61,0x0D
0.017590320,1,0x2E,0x0D
0.017595600,1,0xF0,0xE0
0.017601320,1,0x2F,0xE0
0.017606600,1,0x00,0x0D
0.017612500,1,0x2E,0x0D
0.017617780,1,0xF8,0xE0
0.017623500,1,0x2F,0xE0
0.017628800,1,0x00,0x0D
0.017634620,1,0x2E,0x0D
0.017639920,1,0x80,0xE0
0.017645620,1,0x2F,0xE0
0.017650920,1,0xAB,0x0D
0.017656740,1,0x2E,0x0D
0.017662020,1,0xF0,0xE0
0.017667740,1,0x2F,0xE0
0.017673020,1,0x00,0x0D
0.017678860,1,0x2E,0x0D
0.017684140,1,0xF8,0xE0
0.017689860,1,0x2F,0xE0
0.017695140,1,0x05,0x0D
0.017701060,1,0x2E,0x0D
0.017706340,1,0x80,0xE0
0.017712040,1,0x2F,0xE0
0.017717320,1,0x10,0x0D
0.017723160,1,0x2E,0x0D
0.017728440,1,0xF0,0xE0
0.017734160,1,0x2F,0xE0
0.017739440,1,0x00,0x0D
0.017745280,1,0x2E,0x0D
0.017750580,1,0xF8,0xE0
0.017756300,1,0x2F,0xE0
0.017761580,1,0x02,0x0D
0.017767420,1,0x2E,0x0D
0.017772700,1,0x80,0xE0
0.017778420,1,0x2F,0xE0
0.017783700,1,0x66,0x0D
0.017789600,1,0x2E,0x0D
0.017794880,1,0xF0,0xE0
0.017800600,1,0x2F,0xE0
0.017805900,1,0x00,0x0D
0.017811740,1,0x2E,0x0D
0.017817020,1,0xC9,0xE0
0.017822740,1,0x2F,0xE0
0.017828040,1,0x00,0x0D
0.017833880,1,0x2E,0x0D
0.017839160,1,0x88,0xE0
0.017844880,1,0x2F,0xE0
0.017850180,1,0x83,0x0D
0.017856020,1,0x2E,0x0D
0.017861300,1,0xF0,0xE0
0.017867020,1,0x2F,0xE0
0.017872320,1,0x00,0x0D
0.017878220,1,0x2E,0x0D
0.017883500,1,0xF8,0xE0
0.017889220,1,0x2F,0xE0
0.017894500,1,0x05,0x0D
0.017900360,1,0x2E,0x0D
0.017905640,1,0x80,0xE0
0.017911360,1,0x2F,0xE0
0.017916640,1,0x24,0x0D
0.017922480,1,0x2E,0x0D
0.017927760,1,0xF0,0xE0
0.017933480,1,0x2F,0xE0
0.017938760,1,0x00,0x0D
0.017944600,1,0x2E,0x0D
0.017949900,1,0x84,0xE0
0.017955620,1,0x2F,0xE0
0.017960900,1,0x8A,0x0D
0.017966800,1,0x2E,0x0D
0.017972080,1,0xF0,0xE0
0.017977800,1,0x2F,0xE0
0.017983080,1,0x00,0x0D
0.017988920,1,0x2E,0x0D
0.017994200,1,0xF8,0xE0
0.017999920,1,0x2F,0xE0
0.018005220,1,0x04,0x0D
0.018011040,1,0x2E,0x0D
0.018016340,1,0x80,0xE0
0.018022060,1,0x2F,0xE0
0.018027340,1,0x52,0x0D
0.018033180,1,0x2E,0x0D
0.018038460,1,0xF0,0xE0
0.018044180,1,0x2F,0xE0
0.018049480,1,0x00,0x0D
0.018055380,1,0x2E,0x0D
0.018060660,1,0xC9,0xE0
0.018066380,1,0x2F,0xE0
0.018071660,1,0x00,0x0D
0.018077500,1,0x2E,0x0D
0.018082780,1,0x88,0xE0
0.018088500,1,0x2F,0xE0
0.018093780,1,0xA3,0x0D
0.018099640,1,0x2E,0x0D
0.018104920,1,0xF0,0xE0
0.018110620,1,0x2F,0xE0
0.018115920,1,0x00,0x0D
0.018121760,1,0x2E,0x0D
0.018127040,1,0xF8,0xE0
0.018132760,1,0x2F,0xE0
0.018138040,1,0x00,0x0D
0.018143940,1,0x2E,0x0D
0.018149240,1,0x80,0xE0
0.018154960,1,0x2F,0xE0
0.018160240,1,0xAB,0x0D
0.018166080,1,0x2E,0x0D
0.018171380,1,0xF0,0xE0
0.018177100,1,0x2F,0xE0
0.018182380,1,0x00,0x0D
0.018188220,1,0x2E,0x0D
0.018193520,1,0xF8,0xE0
0.018199240,1,0x2F,0xE0
0.018204520,1,0x04,0x0D
0.018210360,1,0x2E,0x0D
0.018215660,1,0x80,0xE0
0.018221380,1,0x2F,0xE0
0.018226660,1,0x70,0x0D
0.018232560,1,0x2E,0x0D
0.018237860,1,0xF0,0xE0
0.018243580,1,0x2F,0xE0
0.018248860,1,0x00,0x0D
0.018254700,1,0x2E,0x0D
0.018259980,1,0xC9,0xE0
0.018265700,1,0x2F,0xE0
0.018271000,1,0x00,0x0D
0.018276840,1,0x2E,0x0D
0.018282120,1,0x88,0xE0
0.018287840,1,0x2F,0xE0
0.018293120,1,0x9E,0x0D
0.018298980,1,0x2E,0x0D
0.018304260,1,0xF0,0xE0
0.018309980,1,0x2F,0xE0
0.018315260,1,0x00,0x0D
0.018321160,1,0x2E,0x0D
0.018326460,1,0xF8,0xE0
0.018332160,1,0x2F,0xE0
0.018337460,1,0x02,0x0D
0.018343300,1,0x2E,0x0D
0.018348600,1,0x80,0xE0
0.018354300,1,0x2F,0xE0
0.018359580,1,0x66,0x0D
0.018365420,1,0x2E,0x0D
0.018370720,1,0xF0,0xE0
0.018376440,1,0x2F,0xE0
0.018381720,1,0x00,0x0D
0.018387560,1,0x2E,0x0D
0.018392860,1,0xC9,0xE0
0.018398580,1,0x2F,0xE0
0.018403860,1,0x00,0x0D
0.018409760,1,0x2E,0x0D
0.018415040,1,0x88,0xE0
0.018420760,1,0x2F,0xE0
0.018426040,1,0x94,0x0D
0.018431880,1,0x2E,0x0D
0.018437160,1,0xF0,0xE0
0.018442880,1,0x2F,0xE0
0.018448180,1,0x00,0x0D
0.018454020,1,0x2E,0x0D
0.018459320,1,0xF8,0xE0
0.018465040,1,0x2F,0xE0
0.018470320,1,0x04,0x0D
0.018476160,1,0x2E,0x0D
0.018481460,1,0x80,0xE0
0.018487160,1,0x2F,0xE0
0.018492460,1,0x82,0x0D
0.018498360,1,0x2E,0x0D
0.018503640,1,0xF0,0xE0
0.018509360,1,0x2F,0xE0
0.018514640,1,0x00,0x0D
0.018520480,1,0x2E,0x0D
0.018525760,1,0x29,0xE0
0.018531480,1,0x2F,0xE0
0.018536780,1,0x20,0x0D
0.018542620,1,0x2E,0x0D
0.018547900,1,0x40,0xE0
0.018553620,1,0x2F,0xE0
0.018558900,1,0x60,0x0D
0.018564740,1,0x2E,0x0D
0.018570040,1,0x29,0xE0
0.018575740,1,0x2F,0xE0
0.018581020,1,0x20,0x0D
0.018586920,1,0x2E,0x0D
0.018592220,1,0x8C,0xE0
0.018597940,1,0x2F,0xE0
0.018603220,1,0x04,0x0D
0.018609060,1,0x2E,0x0D
0.018614340,1,0xF0,0xE0
0.018620060,1,0x2F,0xE0
0.018625340,1,0x00,0x0D
0.018631180,1,0x2E,0x0D
0.018636480,1,0xF8,0xE0
0.018642200,1,0x2F,0xE0
0.018647480,1,0x04,0x0D
0.018653320,1,0x2E,0x0D
0.018658600,1,0x80,0xE0
0.018664320,1,0x2F,0xE0
0.018669620,1,0xB0,0x0D
0.018675500,1,0x2E,0x0D
0.018680800,1,0xF0,0xE0
0.018686500,1,0x2F,0xE0
0.018691800,1,0x00,0x0D
0.018697640,1,0x2E,0x0D
0.018702920,1,0xF8,0xE0
0.018708640,1,0x2F,0xE0
0.018713940,1,0x04,0x0D
0.018719780,1,0x2E,0x0D
0.018725060,1,0x80,0xE0
0.018730780,1,0x2F,0xE0
0.018736080,1,0x8F,0x0D
0.018741920,1,0x2E,0x0D
0.018747200,1,0xF0,0xE0
0.018752920,1,0x2F,0xE0
0.018758200,1,0x00,0x0D
0.018764120,1,0x2E,0x0D
0.018769400,1,0xF8,0xE0
0.018775120,1,0x2F,0xE0
0.018780400,1,0x01,0x0D
0.018786240,1,0x2E,0x0D
0.018791540,1,0x80,0xE0
0.018797240,1,0x2F,0xE0
0.018802520,1,0x79,0x0D
0.018808360,1,0x2E,0x0D
0.018813660,1,0xF0,0xE0
0.018819380,1,0x2F,0xE0
0.018824660,1,0x00,0x0D
0.018830500,1,0x2E,0x0D
0.018835780,1,0xF8,0xE0
0.018841500,1,0x2F,0xE0
0.018846800,1,0x01,0x0D
0.018852700,1,0x2E,0x0D
0.018857980,1,0x80,0xE0
0.018863700,1,0x2F,0xE0
0.018869000,1,0x7E,0x0D
0.018874820,1,0x2E,0x0D
0.018880120,1,0xF0,0xE0
0.018885820,1,0x2F,0xE0
0.018891120,1,0x00,0x0D
0.018896960,1,0x2E,0x0D
0.018902240,1,0xF8,0xE0
0.018907960,1,0x2F,0xE0
0.018913260,1,0x04,0x0D
0.018919100,1,0x2E,0x0D
0.018924380,1,0x80,0xE0
0.018930100,1,0x2F,0xE0
0.018935400,1,0xA0,0x0D
0.018941300,1,0x2E,0x0D
0.018946580,1,0xF0,0xE0
0.018952300,1,0x2F,0xE0
0.018957580,1,0x00,0x0D
0.018963440,1,0x2E,0x0D
0.018968720,1,0xF8,0xE0
0.018974440,1,0x2F,0xE0
0.018979720,1,0x0E,0x0D
0.018985560,1,0x2E,0x0D
0.018990840,1,0x80,0xE0
0.018996560,1,0x2F,0xE0
0.019001840,1,0xDA,0x0D
0.019007680,1,0x2E,0x0D
0.019012980,1,0xF0,0xE0
0.019018700,1,0x2F,0xE0
0.019023980,1,0x00,0x0D
0.019029880,1,0x2E,0x0D
0.019035160,1,0xF8,0xE0
0.019040880,1,0x2F,0xE0
0.019046160,1,0x00,0x0D
0.019052000,1,0x2E,0x0D
0.019057300,1,0x6F,0xE0
0.019063020,1,0x2F,0xE0
0.019068300,1,0xF6,0x0D
0.019074140,1,0x2E,0x0D
0.019079420,1,0x60,0xE0
0.019085140,1,0x2F,0xE0
0.019090440,1,0x47,0x0D
0.019096260,1,0x2E,0x0D
0.019101560,1,0xF8,0xE0
0.019107280,1,0x2F,0xE0
0.019112560,1,0x0D,0x0D
0.019118460,1,0x2E,0x0D
0.019123760,1,0x80,0xE0
0.019129480,1,0x2F,0xE0
0.019134780,1,0xF7,0x0D
0.019140620,1,0x2E,0x0D
0.019145920,1,0x28,0xE0
0.019151640,1,0x2F,0xE0
0.019156920,1,0x58,0x0D
0.019162780,1,0x2E,0x0D
0.019168060,1,0xF8,0xE0
0.019173780,1,0x2F,0xE0
0.019179060,1,0x0E,0x0D
0.019184920,1,0x2E,0x0D
0.019190200,1,0x80,0xE0
0.019195920,1,0x2F,0xE0
0.019201220,1,0x4F,0x0D
0.019207140,1,0x2E,0x0D
0.019212420,1,0xF0,0xE0
0.019218140,1,0x2F,0xE0
0.019223440,1,0x00,0x0D
0.019229280,1,0x2E,0x0D
0.019234580,1,0xF8,0xE0
0.019240300,1,0x2F,0xE0
0.019245580,1,0x0F,0x0D
0.019251420,1,0x2E,0x0D
0.019256700,1,0x80,0xE0
0.019262440,1,0x2F,0xE0
0.019267720,1,0x5F,0x0D
0.019273560,1,0x2E,0x0D
0.019278840,1,0x29,0xE0
0.019284560,1,0x2F,0xE0
0.019289860,1,0x70,0x0D
0.019295760,1,0x2E,0x0D
0.019301040,1,0x29,0xE0
0.019306760,1,0x2F,0xE0
0.019312060,1,0x29,0x0D
0.019317900,1,0x2E,0x0D
0.019323180,1,0xC9,0xE0
0.019328900,1,0x2F,0xE0
0.019334200,1,0xB9,0x0D
0.019340020,1,0x2E,0x0D
0.019345320,1,0xF8,0xE0
0.019351040,1,0x2F,0xE0
0.019356320,1,0x0E,0x0D
0.019362180,1,0x2E,0x0D
0.019367460,1,0x80,0xE0
0.019373180,1,0x2F,0xE0
0.019378480,1,0x02,0x0D
0.019384380,1,0x2E,0x0D
0.019389660,1,0xCB,0xE0
0.019395380,1,0x2F,0xE0
0.019400680,1,0x9B,0x0D
0.019406520,1,0x2E,0x0D
0.019411820,1,0xCB,0xE0
0.019417540,1,0x2F,0xE0
0.019422820,1,0xB9,0x0D
0.019428660,1,0x2E,0x0D
0.019433960,1,0x42,0xE0
0.019439680,1,0x2F,0xE0
0.019444960,1,0x0B,0x0D
0.019450800,1,0x2E,0x0D
0.019456080,1,0xCB,0xE0
0.019461800,1,0x2F,0xE0
0.019467080,1,0x9B,0x0D
0.019472980,1,0x2E,0x0D
0.019478280,1,0x88,0xE0
0.019484000,1,0x2F,0xE0
0.019489280,1,0x6B,0x0D
0.019495120,1,0x2E,0x0D
0.019500420,1,0xF0,0xE0
0.019506140,1,0x2F,0xE0
0.019511420,1,0x00,0x0D
0.019517260,1,0x2E,0x0D
0.019522560,1,0x40,0xE0
0.019528280,1,0x2F,0xE0
0.019533560,1,0x19,0x0D
0.019539400,1,0x2E,0x0D
0.019544680,1,0x60,0xE0
0.019550400,1,0x2F,0xE0
0.019555700,1,0x09,0x0D
0.019561600,1,0x2E,0x0D
0.019566880,1,0x8C,0xE0
0.019572600,1,0x2F,0xE0
0.019577900,1,0x04,0x0D
0.019583740,1,0x2E,0x0D
0.019589020,1,0xF0,0xE0
0.019594740,1,0x2F,0xE0
0.019600020,1,0x00,0x0D
0.019605880,1,0x2E,0x0D
0.019611160,1,0xF8,0xE0
0.019616860,1,0x2F,0xE0
0.019622160,1,0x02,0x0D
0.019628000,1,0x2E,0x0D
0.019633280,1,0x80,0xE0
0.019639000,1,0x2F,0xE0
0.019644280,1,0xEF,0x0D
0.019650180,1,0x2E,0x0D
0.019655460,1,0xF0,0xE0
0.019661180,1,0x2F,0xE0
0.019666460,1,0x00,0x0D
0.019672300,1,0x2E,0x0D
0.019677580,1,0xF8,0xE0
0.019683300,1,0x2F,0xE0
0.019688600,1,0x0E,0x0D
0.019694420,1,0x2E,0x0D
0.019699720,1,0x80,0xE0
0.019705440,1,0x2F,0xE0
0.019710720,1,0x07,0x0D
0.019716560,1,0x2E,0x0D
0.019721840,1,0xF0,0xE0
0.019727560,1,0x2F,0xE0
0.019732860,1,0x00,0x0D
0.019738760,1,0x2E,0x0D
0.019744040,1,0xF8,0xE0
0.019749760,1,0x2F,0xE0
0.019755060,1,0x01,0x0D
0.019760900,1,0x2E,0x0D
0.019766180,1,0x80,0xE0
0.019771900,1,0x2F,0xE0
0.019777200,1,0xB8,0x0D
0.019783040,1,0x2E,0x0D
0.019788320,1,0xF0,0xE0
0.019794040,1,0x2F,0xE0
0.019799340,1,0x00,0x0D
0.019805180,1,0x2E,0x0D
0.019810460,1,0x80,0xE0
0.019816180,1,0x2F,0xE0
0.019821460,1,0x62,0x0D
0.019827380,1,0x2E,0x0D
0.019832660,1,0xF0,0xE0
0.019838380,1,0x2F,0xE0
0.019843660,1,0x00,0x0D
0.019849500,1,0x2E,0x0D
0.019854800,1,0x29,0xE0
0.019860500,1,0x2F,0xE0
0.019865800,1,0x20,0x0D
0.019871640,1,0x2E,0x0D
0.019876920,1,0x44,0xE0
0.019882640,1,0x2F,0xE0
0.019887940,1,0x00,0x0D
0.019893780,1,0x2E,0x0D
0.019899060,1,0x29,0xE0
0.019904780,1,0x2F,0xE0
0.019910060,1,0x20,0x0D
0.019915960,1,0x2E,0x0D
0.019921260,1,0x88,0xE0
0.019926980,1,0x2F,0xE0
0.019932260,1,0x17,0x0D
0.019938100,1,0x2E,0x0D
0.019943380,1,0x42,0xE0
0.019949100,1,0x2F,0xE0
0.019954400,1,0x00,0x0D
0.019960240,1,0x2E,0x0D
0.019965520,1,0x88,0xE0
0.019971240,1,0x2F,0xE0
0.019976520,1,0x0F,0x0D
0.019982360,1,0x2E,0x0D
0.019987660,1,0xF0,0xE0
0.019993380,1,0x2F,0xE0
0.019998660,1,0x00,0x0D
0.020004580,1,0x2E,0x0D
0.020009860,1,0xF8,0xE0
0.020015600,1,0x2F,0xE0
0.020020880,1,0x22,0x0D
0.020026740,1,0x2E,0x0D
0.020032020,1,0x6F,0xE0
0.020037740,1,0x2F,0xE0
0.020043040,1,0x0D,0x0D
0.020048880,1,0x2E,0x0D
0.020054160,1,0xCC,0xE0
0.020059880,1,0x2F,0xE0
0.020065160,1,0xD1,0x0D
0.020071000,1,0x2E,0x0D
0.020076300,1,0xCC,0xE0
0.020082020,1,0x2F,0xE0
0.020087300,1,0xD2,0x0D
0.020093200,1,0x2E,0x0D
0.020098480,1,0xF8,0xE0
0.020104200,1,0x2F,0xE0
0.020109500,1,0x03,0x0D
0.020115320,1,0x2E,0x0D
0.020120620,1,0xE1,0xE0
0.020126340,1,0x2F,0xE0
0.020131620,1,0xA1,0x0D
0.020137460,1,0x2E,0x0D
0.020142740,1,0xF8,0xE0
0.020148460,1,0x2F,0xE0
0.020153760,1,0x03,0x0D
0.020159600,1,0x2E,0x0D
0.020164880,1,0xE2,0xE0
0.020170600,1,0x2F,0xE0
0.020175880,1,0xA2,0x0D
0.020181780,1,0x2E,0x0D
0.020187080,1,0xF8,0xE0
0.020192800,1,0x2F,0xE0
0.020198080,1,0x0F,0x0D
0.020203920,1,0x2E,0x0D
0.020209200,1,0x80,0xE0
0.020214920,1,0x2F,0xE0
0.020220220,1,0x52,0x0D
0.020226060,1,0x2E,0x0D
0.020231360,1,0xF0,0xE0
0.020237060,1,0x2F,0xE0
0.020242360,1,0x00,0x0D
0.020248200,1,0x2E,0x0D
0.020253480,1,0x83,0xE0
0.020259200,1,0x2F,0xE0
0.020264480,1,0x64,0x0D
0.020270380,1,0x2E,0x0D
0.020275680,1,0x20,0xE0
0.020281400,1,0x2F,0xE0
0.020286680,1,0xB0,0x0D
0.020292520,1,0x2E,0x0D
0.020297800,1,0xE0,0xE0
0.020303520,1,0x2F,0xE0
0.020308820,1,0xF0,0x0D
0.020314660,1,0x2E,0x0D
0.020319940,1,0xF8,0xE0
0.020325660,1,0x2F,0xE0
0.020330960,1,0x01,0x0D
0.020336780,1,0x2E,0x0D
0.020342080,1,0x80,0xE0
0.020347800,1,0x2F,0xE0
0.020353080,1,0x8C,0x0D
0.020358980,1,0x2E,0x0D
0.020364280,1,0xF0,0xE0
0.020370000,1,0x2F,0xE0
0.020375300,1,0x00,0x0D
0.020381140,1,0x2E,0x0D
0.020386420,1,0xCB,0xE0
0.020392140,1,0x2F,0xE0
0.020397420,1,0x31,0x0D
0.020403260,1,0x2E,0x0D
0.020408560,1,0x87,0xE0
0.020414260,1,0x2F,0xE0
0.020419560,1,0xF5,0x0D
0.020425400,1,0x2E,0x0D
0.020430680,1,0xCB,0xE0
0.020436400,1,0x2F,0xE0
0.020441700,1,0x42,0x0D
0.020447600,1,0x2E,0x0D
0.020452900,1,0x28,0xE0
0.020458600,1,0x2F,0xE0
0.020463900,1,0x11,0x0D
0.020469740,1,0x2E,0x0D
0.020475020,1,0xF8,0xE0
0.020480740,1,0x2F,0xE0
0.020486020,1,0x08,0x0D
0.020491860,1,0x2E,0x0D
0.020497160,1,0xE1,0xE0
0.020502880,1,0x2F,0xE0
0.020508160,1,0xB1,0x0D
0.020514000,1,0x2E,0x0D
0.020519280,1,0x42,0xE0
0.020525000,1,0x2F,0xE0
0.020530280,1,0x01,0x0D
0.020536180,1,0x2E,0x0D
0.020541480,1,0x8C,0xE0
0.020547200,1,0x2F,0xE0
0.020552480,1,0x04,0x0D
0.020558320,1,0x2E,0x0D
0.020563600,1,0xF0,0xE0
0.020569340,1,0x2F,0xE0
0.020574620,1,0x00,0x0D
0.020580460,1,0x2E,0x0D
0.020585740,1,0xF8,0xE0
0.020591460,1,0x2F,0xE0
0.020596760,1,0x00,0x0D
0.020602600,1,0x2E,0x0D
0.020607880,1,0x80,0xE0
0.020613600,1,0x2F,0xE0
0.020618900,1,0x9E,0x0D
0.020624800,1,0x2E,0x0D
0.020630080,1,0xF0,0xE0
0.020635800,1,0x2F,0xE0
0.020641080,1,0x00,0x0D
0.020646920,1,0x2E,0x0D
0.020652220,1,0x2A,0xE0
0.020657940,1,0x2F,0xE0
0.020663220,1,0x01,0x0D
0.020669060,1,0x2E,0x0D
0.020674340,1,0x20,0xE0
0.020680060,1,0x2F,0xE0
0.020685340,1,0xB0,0x0D
0.020691180,1,0x2E,0x0D
0.020696460,1,0x83,0xE0
0.020702180,1,0x2F,0xE0
0.020707460,1,0x50,0x0D
0.020713360,1,0x2E,0x0D
0.020718660,1,0x3A,0xE0
0.020724380,1,0x2F,0xE0
0.020729660,1,0x01,0x0D
0.020735500,1,0x2E,0x0D
0.020740780,1,0xE0,0xE0
0.020746500,1,0x2F,0xE0
0.020751780,1,0xF0,0x0D
0.020757620,1,0x2E,0x0D
0.020762900,1,0x26,0xE0
0.020768620,1,0x2F,0xE0
0.020773920,1,0xEF,0x0D
0.020779740,1,0x2E,0x0D
0.020785040,1,0xF8,0xE0
0.020790760,1,0x2F,0xE0
0.020796040,1,0x0D,0x0D
0.020801940,1,0x2E,0x0D
0.020807220,1,0x80,0xE0
0.020812940,1,0x2F,0xE0
0.020818240,1,0x90,0x0D
0.020824080,1,0x2E,0x0D
0.020829360,1,0x11,0xE0
0.020835080,1,0x2F,0xE0
0.020840380,1,0xCF,0x0D
0.020846220,1,0x2E,0x0D
0.020851520,1,0xF8,0xE0
0.020857240,1,0x2F,0xE0
0.020862520,1,0x01,0x0D
0.020868380,1,0x2E,0x0D
0.020873680,1,0x60,0xE0
0.020879380,1,0x2F,0xE0
0.020884680,1,0x0D,0x0D
0.020890580,1,0x2E,0x0D
0.020895860,1,0xC8,0xE0
0.020901580,1,0x2F,0xE0
0.020906860,1,0x0D,0x0D
0.020912720,1,0x2E,0x0D
0.020918000,1,0x8A,0xE0
0.020923720,1,0x2F,0xE0
0.020929020,1,0xF9,0x0D
0.020934860,1,0x2E,0x0D
0.020940140,1,0xF0,0xE0
0.020945860,1,0x2F,0xE0
0.020951160,1,0x00,0x0D
0.020957000,1,0x2E,0x0D
0.020962280,1,0xF8,0xE0
0.020968020,1,0x2F,0xE0
0.020973300,1,0x05,0x0D
0.020979200,1,0x2E,0x0D
0.020984480,1,0x80,0xE0
0.020990200,1,0x2F,0xE0
0.020995500,1,0x24,0x0D
0.021001320,1,0x2E,0x0D
0.021006620,1,0xF0,0xE0
0.021012340,1,0x2F,0xE0
0.021017620,1,0x00,0x0D
0.021023460,1,0x2E,0x0D
0.021028740,1,0xF8,0xE0
0.021034460,1,0x2F,0xE0
0.021039760,1,0x05,0x0D
0.021045600,1,0x2E,0x0D
0.021050880,1,0x80,0xE0
0.021056600,1,0x2F,0xE0
0.021061900,1,0x31,0x0D
0.021067800,1,0x2E,0x0D
0.021073080,1,0xF0,0xE0
0.021078800,1,0x2F,0xE0
0.021084080,1,0x00,0x0D
0.021089920,1,0x2E,0x0D
0.021095220,1,0xC9,0xE0
0.021100940,1,0x2F,0xE0
0.021106220,1,0x00,0x0D
0.021112060,1,0x2E,0x0D
0.021117360,1,0x88,0xE0
0.021123080,1,0x2F,0xE0
0.021128360,1,0x15,0x0D
0.021134200,1,0x2E,0x0D
0.021139500,1,0xF0,0xE0
0.021145220,1,0x2F,0xE0
0.021150500,1,0x00,0x0D
0.021156400,1,0x2E,0x0D
0.021161680,1,0xF8,0xE0
0.021167420,1,0x2F,0xE0
0.021172700,1,0x00,0x0D
0.021178540,1,0x2E,0x0D
0.021183820,1,0x80,0xE0
0.021189540,1,0x2F,0xE0
0.021194820,1,0xAB,0x0D
0.021200660,1,0x2E,0x0D
0.021205940,1,0xF0,0xE0
0.021211660,1,0x2F,0xE0
0.021216960,1,0x00,0x0D
0.021222800,1,0x2E,0x0D
0.021228080,1,0xF8,0xE0
0.021233800,1,0x2F,0xE0
0.021239100,1,0x04,0x0D
0.021245000,1,0x2E,0x0D
0.021250280,1,0x80,0xE0
0.021256000,1,0x2F,0xE0
0.021261280,1,0x70,0x0D
0.021267140,1,0x2E,0x0D
0.021272420,1,0xF0,0xE0
0.021278140,1,0x2F,0xE0
0.021283420,1,0x00,0x0D
0.021289260,1,0x2E,0x0D
0.021294560,1,0xC9,0xE0
0.021300260,1,0x2F,0xE0
0.021305560,1,0x00,0x0D
0.021311400,1,0x2E,0x0D
0.021316680,1,0x88,0xE0
0.021322400,1,0x2F,0xE0
0.021327680,1,0x0C,0x0D
0.021333580,1,0x2E,0x0D
0.021338880,1,0x62,0xE0
0.021344600,1,0x2F,0xE0
0.021349880,1,0x00,0x0D
0.021355720,1,0x2E,0x0D
0.021361000,1,0xF8,0xE0
0.021366720,1,0x2F,0xE0
0.021372000,1,0x02,0x0D
0.021377840,1,0x2E,0x0D
0.021383140,1,0x80,0xE0
0.021388860,1,0x2F,0xE0
0.021394140,1,0x66,0x0D
0.021399980,1,0x2E,0x0D
0.021405260,1,0x34,0xE0
0.021410980,1,0x2F,0xE0
0.021416280,1,0x50,0x0D
0.021422160,1,0x2E,0x0D
0.021427460,1,0xC9,0xE0
0.021433180,1,0x2F,0xE0
0.021438460,1,0x00,0x0D
0.021444300,1,0x2E,0x0D
0.021449580,1,0x88,0xE0
0.021455300,1,0x2F,0xE0
0.021460600,1,0x06,0x0D
0.021466440,1,0x2E,0x0D
0.021471720,1,0xF0,0xE0
0.021477440,1,0x2F,0xE0
0.021482740,1,0x00,0x0D
0.021488580,1,0x2E,0x0D
0.021493860,1,0xF8,0xE0
0.021499580,1,0x2F,0xE0
0.021504880,1,0x05,0x0D
0.021510780,1,0x2E,0x0D
0.021516060,1,0x80,0xE0
0.021521780,1,0x2F,0xE0
0.021527060,1,0x54,0x0D
0.021532900,1,0x2E,0x0D
0.021538200,1,0xF0,0xE0
0.021543920,1,0x2F,0xE0
0.021549200,1,0x00,0x0D
0.021555040,1,0x2E,0x0D
0.021560340,1,0x87,0xE0
0.021566060,1,0x2F,0xE0
0.021571340,1,0x5E,0x0D
0.021577180,1,0x2E,0x0D
0.021582460,1,0xF0,0xE0
0.021588200,1,0x2F,0xE0
0.021593480,1,0x00,0x0D
0.021599380,1,0x2E,0x0D
0.021604680,1,0xF8,0xE0
0.021610400,1,0x2F,0xE0
0.021615680,1,0x0D,0x0D
0.021621520,1,0x2E,0x0D
0.021626820,1,0x80,0xE0
0.021632540,1,0x2F,0xE0
0.021637820,1,0xED,0x0D
0.021643680,1,0x2E,0x0D
0.021648960,1,0xF0,0xE0
0.021654680,1,0x2F,0xE0
0.021659980,1,0x00,0x0D
0.021665820,1,0x2E,0x0D
0.021671100,1,0x87,0xE0
0.021676820,1,0x2F,0xE0
0.021682120,1,0x59,0x0D
0.021688020,1,0x2E,0x0D
0.021693320,1,0xF0,0xE0
0.021699040,1,0x2F,0xE0
0.021704320,1,0x00,0x0D
0.021710180,1,0x2E,0x0D
0.021715480,1,0x29,0xE0
0.021721200,1,0x2F,0xE0
0.021726480,1,0x20,0x0D
0.021732320,1,0x2E,0x0D
0.021737620,1,0x50,0xE0
0.021743340,1,0x2F,0xE0
0.021748640,1,0x40,0x0D
0.021754480,1,0x2E,0x0D
0.021759780,1,0x87,0xE0
0.021765500,1,0x2F,0xE0
0.021770780,1,0x72,0x0D
0.021776680,1,0x2E,0x0D
0.021781980,1,0x39,0xE0
0.021787700,1,0x2F,0xE0
0.021792980,1,0x20,0x0D
0.021798820,1,0x2E,0x0D
0.021804120,1,0x60,0xE0
0.021809840,1,0x2F,0xE0
0.021815140,1,0x01,0x0D
0.021820980,1,0x2E,0x0D
0.021826260,1,0x87,0xE0
0.021831980,1,0x2F,0xE0
0.021837280,1,0x67,0x0D
0.021843120,1,0x2E,0x0D
0.021848400,1,0x60,0xE0
0.021854120,1,0x2F,0xE0
0.021859420,1,0x02,0x0D
0.021865320,1,0x2E,0x0D
0.021870620,1,0xF8,0xE0
0.021876340,1,0x2F,0xE0
0.021881620,1,0x0E,0x0D
0.021887480,1,0x2E,0x0D
0.021892760,1,0x80,0xE0
0.021898480,1,0x2F,0xE0
0.021903760,1,0x12,0x0D
0.021909620,1,0x2E,0x0D
0.021914900,1,0xF0,0xE0
0.021920620,1,0x2F,0xE0
0.021925920,1,0x00,0x0D
0.021931780,1,0x2E,0x0D
0.021937080,1,0xF0,0xE0
0.021942780,1,0x2F,0xE0
0.021948080,1,0x00,0x0D
0.021953980,1,0x2E,0x0D
0.021959280,1,0x87,0xE0
0.021965000,1,0x2F,0xE0
0.021970280,1,0x91,0x0D
0.021976140,1,0x2E,0x0D
0.021981420,1,0xF0,0xE0
0.021987140,1,0x2F,0xE0
0.021992440,1,0x00,0x0D
0.021998280,1,0x2E,0x0D
0.022003580,1,0x28,0xE0
0.022009300,1,0x2F,0xE0
0.022014600,1,0x11,0x0D
0.022020440,1,0x2E,0x0D
0.022025720,1,0xF8,0xE0
0.022031460,1,0x2F,0xE0
0.022036740,1,0x08,0x0D
0.022042640,1,0x2E,0x0D
0.022047920,1,0xE1,0xE0
0.022053660,1,0x2F,0xE0
0.022058940,1,0xB1,0x0D
0.022064780,1,0x2E,0x0D
0.022070060,1,0xCB,0xE0
0.022075780,1,0x2F,0xE0
0.022081080,1,0x02,0x0D
0.022086920,1,0x2E,0x0D
0.022092200,1,0x14,0xE0
0.022097920,1,0x2F,0xE0
0.022103220,1,0x00,0x0D
0.022109060,1,0x2E,0x0D
0.022114360,1,0xCB,0xE0
0.022120080,1,0x2F,0xE0
0.022125360,1,0x20,0x0D
0.022131280,1,0x2E,0x0D
0.022136560,1,0xCB,0xE0
0.022142280,1,0x2F,0xE0
0.022147560,1,0x13,0x0D
0.022153400,1,0x2E,0x0D
0.022158700,1,0x94,0xE0
0.022164420,1,0x2F,0xE0
0.022169700,1,0x30,0x0D
0.022175540,1,0x2E,0x0D
0.022180840,1,0x29,0xE0
0.022186560,1,0x2F,0xE0
0.022191840,1,0x22,0x0D
0.022197680,1,0x2E,0x0D
0.022202980,1,0x48,0xE0
0.022208700,1,0x2F,0xE0
0.022213980,1,0x01,0x0D
0.022219880,1,0x2E,0x0D
0.022225160,1,0xCB,0xE0
0.022230900,1,0x2F,0xE0
0.022236180,1,0x31,0x0D
0.022242000,1,0x2E,0x0D
0.022247300,1,0x88,0xE0
0.022253020,1,0x2F,0xE0
0.022258300,1,0x26,0x0D
0.022264140,1,0x2E,0x0D
0.022269420,1,0x44,0xE0
0.022275140,1,0x2F,0xE0
0.022280440,1,0x01,0x0D
0.022286280,1,0x2E,0x0D
0.022291580,1,0xCB,0xE0
0.022297300,1,0x2F,0xE0
0.022302580,1,0x31,0x0D
0.022308480,1,0x2E,0x0D
0.022313760,1,0x88,0xE0
0.022319480,1,0x2F,0xE0
0.022324760,1,0x2F,0x0D
0.022330600,1,0x2E,0x0D
0.022335880,1,0xC9,0xE0
0.022341600,1,0x2F,0xE0
0.022346880,1,0x00,0x0D
0.022352720,1,0x2E,0x0D
0.022358000,1,0x88,0xE0
0.022363720,1,0x2F,0xE0
0.022369000,1,0x02,0x0D
0.022374860,1,0x2E,0x0D
0.022380140,1,0x41,0xE0
0.022385860,1,0x2F,0xE0
0.022391140,1,0x81,0x0D
0.022397040,1,0x2E,0x0D
0.022402340,1,0x88,0xE0
0.022408060,1,0x2F,0xE0
0.022413340,1,0x13,0x0D
0.022419180,1,0x2E,0x0D
0.022424460,1,0x44,0xE0
0.022430200,1,0x2F,0xE0
0.022435480,1,0x02,0x0D
0.022441320,1,0x2E,0x0D
0.022446600,1,0xF8,0xE0
0.022452320,1,0x2F,0xE0
0.022457600,1,0x02,0x0D
0.022463440,1,0x2E,0x0D
0.022468740,1,0x68,0xE0
0.022474460,1,0x2F,0xE0
0.022479740,1,0x08,0x0D
0.022485640,1,0x2E,0x0D
0.022490920,1,0x8C,0xE0
0.022496660,1,0x2F,0xE0
0.022501940,1,0x1B,0x0D
0.022507780,1,0x2E,0x0D
0.022513080,1,0xF0,0xE0
0.022518780,1,0x2F,0xE0
0.022524080,1,0x00,0x0D
0.022529920,1,0x2E,0x0D
0.022535200,1,0xF8,0xE0
0.022540920,1,0x2F,0xE0
0.022546220,1,0x02,0x0D
0.022552060,1,0x2E,0x0D
0.022557360,1,0x80,0xE0
0.022563060,1,0x2F,0xE0
0.022568360,1,0xF3,0x0D
0.022574260,1,0x2E,0x0D
0.022579560,1,0xF0,0xE0
0.022585260,1,0x2F,0xE0
0.022590560,1,0x00,0x0D
0.022596400,1,0x2E,0x0D
0.022601680,1,0x41,0xE0
0.022607400,1,0x2F,0xE0
0.022612680,1,0x81,0x0D
0.022618540,1,0x2E,0x0D
0.022623820,1,0x88,0xE0
0.022629540,1,0x2F,0xE0
0.022634820,1,0x09,0x0D
0.022640660,1,0x2E,0x0D
0.022645960,1,0x28,0xE0
0.022651680,1,0x2F,0xE0
0.022656960,1,0x78,0x0D
0.022662860,1,0x2E,0x0D
0.022668160,1,0xF8,0xE0
0.022673880,1,0x2F,0xE0
0.022679160,1,0x01,0x0D
0.022684980,1,0x2E,0x0D
0.022690280,1,0x6E,0xE0
0.022696000,1,0x2F,0xE0
0.022701280,1,0x09,0x0D
0.022707120,1,0x2E,0x0D
0.022712400,1,0xD9,0xE0
0.022718120,1,0x2F,0xE0
0.022723400,1,0x98,0x0D
0.022729240,1,0x2E,0x0D
0.022734520,1,0xF8,0xE0
0.022740240,1,0x2F,0xE0
0.022745540,1,0x02,0x0D
0.022751440,1,0x2E,0x0D
0.022756720,1,0x80,0xE0
0.022762440,1,0x2F,0xE0
0.022767720,1,0xFB,0x0D
0.022773580,1,0x2E,0x0D
0.022778860,1,0xF0,0xE0
0.022784580,1,0x2F,0xE0
0.022789860,1,0x00,0x0D
0.022795700,1,0x2E,0x0D
0.022801000,1,0x8C,0xE0
0.022806720,1,0x2F,0xE0
0.022812000,1,0x0D,0x0D
0.022817840,1,0x2E,0x0D
0.022823140,1,0xF0,0xE0
0.022828860,1,0x2F,0xE0
0.022834140,1,0x00,0x0D
0.022840040,1,0x2E,0x0D
0.022845340,1,0xF8,0xE0
0.022851060,1,0x2F,0xE0
0.022856340,1,0x02,0x0D
0.022862180,1,0x2E,0x0D
0.022867480,1,0x80,0xE0
0.022873200,1,0x2F,0xE0
0.022878480,1,0xEF,0x0D
0.022884320,1,0x2E,0x0D
0.022889620,1,0x28,0xE0
0.022895340,1,0x2F,0xE0
0.022900640,1,0x61,0x0D
0.022906480,1,0x2E,0x0D
0.022911760,1,0x60,0xE0
0.022917480,1,0x2F,0xE0
0.022922780,1,0x42,0x0D
0.022928680,1,0x2E,0x0D
0.022933960,1,0xF8,0xE0
0.022939700,1,0x2F,0xE0
0.022944980,1,0x0C,0x0D
0.022950840,1,0x2E,0x0D
0.022956120,1,0x6E,0xE0
0.022961840,1,0x2F,0xE0
0.022967120,1,0x60,0x0D
0.022972980,1,0x2E,0x0D
0.022978260,1,0xF8,0xE0
0.022983980,1,0x2F,0xE0
0.022989280,1,0x02,0x0D
0.022995120,1,0x2E,0x0D
0.023000420,1,0xE1,0xE0
0.023006120,1,0x2F,0xE0
0.023011420,1,0xA1,0x0D
0.023017320,1,0x2E,0x0D
0.023022620,1,0x3A,0xE0
0.023028340,1,0x2F,0xE0
0.023033620,1,0x02,0x0D
0.023039460,1,0x2E,0x0D
0.023044760,1,0x3B,0xE0
0.023050480,1,0x2F,0xE0
0.023055780,1,0x01,0x0D
0.023061620,1,0x2E,0x0D
0.023066900,1,0xBC,0xE0
0.023072620,1,0x2F,0xE0
0.023077920,1,0x00,0x0D
0.023083760,1,0x2E,0x0D
0.023089040,1,0x3F,0xE0
0.023094780,1,0x2F,0xE0
0.023100060,1,0x00,0x0D
0.023105960,1,0x2E,0x0D
0.023111260,1,0x60,0xE0
0.023116980,1,0x2F,0xE0
0.023122280,1,0x21,0x0D
0.023128120,1,0x2E,0x0D
0.023133400,1,0xF8,0xE0
0.023139120,1,0x2F,0xE0
0.023144400,1,0x09,0x0D
0.023150240,1,0x2E,0x0D
0.023155540,1,0x6F,0xE0
0.023161260,1,0x2F,0xE0
0.023166540,1,0xA0,0x0D
0.023172380,1,0x2E,0x0D
0.023177680,1,0x3A,0xE0
0.023183380,1,0x2F,0xE0
0.023188680,1,0x01,0x0D
0.023194580,1,0x2E,0x0D
0.023199880,1,0xBC,0xE0
0.023205600,1,0x2F,0xE0
0.023210880,1,0x00,0x0D
0.023216720,1,0x2E,0x0D
0.023222020,1,0x3F,0xE0
0.023227740,1,0x2F,0xE0
0.023233020,1,0x00,0x0D
0.023238860,1,0x2E,0x0D
0.023244160,1,0x60,0xE0
0.023249880,1,0x2F,0xE0
0.023255160,1,0x01,0x0D
0.023261000,1,0x2E,0x0D
0.023266280,1,0xF8,0xE0
0.023272020,1,0x2F,0xE0
0.023277300,1,0x08,0x0D
0.023283200,1,0x2E,0x0D
0.023288480,1,0x6D,0xE0
0.023294200,1,0x2F,0xE0
0.023299500,1,0xD0,0x0D
0.023305340,1,0x2E,0x0D
0.023310620,1,0x3A,0xE0
0.023316340,1,0x2F,0xE0
0.023321640,1,0x01,0x0D
0.023327480,1,0x2E,0x0D
0.023332760,1,0xBC,0xE0
0.023338480,1,0x2F,0xE0
0.023343760,1,0x00,0x0D
0.023349620,1,0x2E,0x0D
0.023354900,1,0x3F,0xE0
0.023360600,1,0x2F,0xE0
0.023365900,1,0x00,0x0D
0.023371800,1,0x2E,0x0D
0.023377080,1,0x60,0xE0
0.023382800,1,0x2F,0xE0
0.023388100,1,0x01,0x0D
0.023393940,1,0x2E,0x0D
0.023399240,1,0xF8,0xE0
0.023404960,1,0x2F,0xE0
0.023410240,1,0x0B,0x0D
0.023416100,1,0x2E,0x0D
0.023421400,1,0x6E,0xE0
0.023427120,1,0x2F,0xE0
0.023432400,1,0x10,0x0D
0.023438260,1,0x2E,0x0D
0.023443540,1,0x3A,0xE0
0.023449280,1,0x2F,0xE0
0.023454560,1,0x01,0x0D
0.023460460,1,0x2E,0x0D
0.023465760,1,0xBC,0xE0
0.023471480,1,0x2F,0xE0
0.023476760,1,0x00,0x0D
0.023482600,1,0x2E,0x0D
0.023487880,1,0x3F,0xE0
0.023493620,1,0x2F,0xE0
0.023498900,1,0x00,0x0D
0.023504740,1,0x2E,0x0D
0.023510040,1,0xF8,0xE0
0.023515760,1,0x2F,0xE0
0.023521060,1,0x04,0x0D
0.023526900,1,0x2E,0x0D
0.023532180,1,0x80,0xE0
0.023537900,1,0x2F,0xE0
0.023543200,1,0xE8,0x0D
0.023549100,1,0x2E,0x0D
0.023554380,1,0xF0,0xE0
0.023560100,1,0x2F,0xE0
0.023565400,1,0x00,0x0D
0.023571240,1,0x2E,0x0D
0.023576520,1,0x82,0xE0
0.023582240,1,0x2F,0xE0
0.023587520,1,0x97,0x0D
0.023593360,1,0x2E,0x0D
0.023598660,1,0x67,0xE0
0.023604360,1,0x2F,0xE0
0.023609660,1,0x6A,0x0D
0.023615500,1,0x2E,0x0D
0.023620800,1,0xF8,0xE0
0.023626500,1,0x2F,0xE0
0.023631780,1,0x22,0x0D
0.023637700,1,0x2E,0x0D
0.023642980,1,0x6F,0xE0
0.023648700,1,0x2F,0xE0
0.023653980,1,0x0D,0x0D
0.023659820,1,0x2E,0x0D
0.023665100,1,0xC9,0xE0
0.023670820,1,0x2F,0xE0
0.023676100,1,0x00,0x0D
0.023681940,1,0x2E,0x0D
0.023687240,1,0xF8,0xE0
0.023692960,1,0x2F,0xE0
0.023698240,1,0x0B,0x0D
0.023704080,1,0x2E,0x0D
0.023709380,1,0x88,0xE0
0.023715100,1,0x2F,0xE0
0.023720400,1,0x80,0x0D
0.023726300,1,0x2E,0x0D
0.023731580,1,0xF0,0xE0
0.023737300,1,0x2F,0xE0
0.023742600,1,0x00,0x0D
0.023748440,1,0x2E,0x0D
0.023753720,1,0xCC,0xE0
0.023759440,1,0x2F,0xE0
0.023764740,1,0xD1,0x0D
0.023770580,1,0x2E,0x0D
0.023775860,1,0xF8,0xE0
0.023781580,1,0x2F,0xE0
0.023786860,1,0x03,0x0D
0.023792720,1,0x2E,0x0D
0.023798000,1,0x80,0xE0
0.023803720,1,0x2F,0xE0
0.023809020,1,0xB8,0x0D
0.023814920,1,0x2E,0x0D
0.023820200,1,0xCC,0xE0
0.023825920,1,0x2F,0xE0
0.023831220,1,0xD2,0x0D
0.023837060,1,0x2E,0x0D
0.023842360,1,0xCB,0xE0
0.023848080,1,0x2F,0xE0
0.023853360,1,0x31,0x0D
0.023859200,1,0x2E,0x0D
0.023864500,1,0xCB,0xE0
0.023870220,1,0x2F,0xE0
0.023875500,1,0x42,0x0D
0.023881340,1,0x2E,0x0D
0.023886640,1,0x60,0xE0
0.023892360,1,0x2F,0xE0
0.023897640,1,0x23,0x0D
0.023903540,1,0x2E,0x0D
0.023908840,1,0xF8,0xE0
0.023914560,1,0x2F,0xE0
0.023919840,1,0x03,0x0D
0.023925680,1,0x2E,0x0D
0.023930960,1,0x80,0xE0
0.023936680,1,0x2F,0xE0
0.023941980,1,0x3B,0x0D
0.023947800,1,0x2E,0x0D
0.023953100,1,0x60,0xE0
0.023958820,1,0x2F,0xE0
0.023964100,1,0x14,0x0D
0.023969940,1,0x2E,0x0D
0.023975220,1,0xF8,0xE0
0.023980940,1,0x2F,0xE0
0.023986240,1,0x0F,0x0D
0.023992140,1,0x2E,0x0D
0.023997420,1,0x80,0xE0
0.024003140,1,0x2F,0xE0
0.024008420,1,0x61,0x0D
0.024014280,1,0x2E,0x0D
0.024019560,1,0xF0,0xE0
0.024025280,1,0x2F,0xE0
0.024030560,1,0x00,0x0D
0.024036400,1,0x2E,0x0D
0.024041700,1,0xF8,0xE0
0.024047400,1,0x2F,0xE0
0.024052680,1,0x00,0x0D
0.024058540,1,0x2E,0x0D
0.024063820,1,0x80,0xE0
0.024069540,1,0x2F,0xE0
0.024074820,1,0xAB,0x0D
0.024080740,1,0x2E,0x0D
0.024086020,1,0xF0,0xE0
0.024091740,1,0x2F,0xE0
0.024097020,1,0x00,0x0D
0.024102860,1,0x2E,0x0D
0.024108160,1,0xF8,0xE0
0.024113880,1,0x2F,0xE0
0.024119160,1,0x04,0x0D
0.024125000,1,0x2E,0x0D
0.024130280,1,0x80,0xE0
0.024136020,1,0x2F,0xE0
0.024141300,1,0x70,0x0D
0.024147140,1,0x2E,0x0D
0.024152420,1,0xF0,0xE0
0.024158140,1,0x2F,0xE0
0.024163440,1,0x00,0x0D
0.024169320,1,0x2E,0x0D
0.024174620,1,0xC9,0xE0
0.024180340,1,0x2F,0xE0
0.024185620,1,0x00,0x0D
0.024191460,1,0x2E,0x0D
0.024196760,1,0x88,0xE0
0.024202460,1,0x2F,0xE0
0.024207760,1,0x2D,0x0D
0.024213600,1,0x2E,0x0D
0.024218900,1,0xF0,0xE0
0.024224600,1,0x2F,0xE0
0.024229900,1,0x00,0x0D
0.024235740,1,0x2E,0x0D
0.024241040,1,0xF8,0xE0
0.024246760,1,0x2F,0xE0
0.024252040,1,0x02,0x0D
0.024257960,1,0x2E,0x0D
0.024263240,1,0x80,0xE0
0.024268960,1,0x2F,0xE0
0.024274260,1,0x66,0x0D
0.024280100,1,0x2E,0x0D
0.024285400,1,0xF0,0xE0
0.024291100,1,0x2F,0xE0
0.024296400,1,0x00,0x0D
0.024302240,1,0x2E,0x0D
0.024307520,1,0xC9,0xE0
0.024313240,1,0x2F,0xE0
0.024318540,1,0x00,0x0D
0.024324360,1,0x2E,0x0D
0.024329660,1,0x88,0xE0
0.024335380,1,0x2F,0xE0
0.024340660,1,0x2D,0x0D
0.024346560,1,0x2E,0x0D
0.024351840,1,0xF0,0xE0
0.024357580,1,0x2F,0xE0
0.024362860,1,0x00,0x0D
0.024368700,1,0x2E,0x0D
0.024373980,1,0xF8,0xE0
0.024379700,1,0x2F,0xE0
0.024385000,1,0x05,0x0D
0.024390840,1,0x2E,0x0D
0.024396120,1,0x80,0xE0
0.024401840,1,0x2F,0xE0
0.024407140,1,0x24,0x0D
0.024412980,1,0x2E,0x0D
0.024418280,1,0x60,0xE0
0.024424000,1,0x2F,0xE0
0.024429280,1,0x00,0x0D
0.024435200,1,0x2E,0x0D
0.024440480,1,0xF8,0xE0
0.024446200,1,0x2F,0xE0
0.024451480,1,0x01,0x0D
0.024457340,1,0x2E,0x0D
0.024462620,1,0x80,0xE0
0.024468340,1,0x2F,0xE0
0.024473640,1,0x79,0x0D
0.024479480,1,0x2E,0x0D
0.024484780,1,0x3A,0xE0
0.024490500,1,0x2F,0xE0
0.024495780,1,0x00,0x0D
0.024501620,1,0x2E,0x0D
0.024506920,1,0xF8,0xE0
0.024512640,1,0x2F,0xE0
0.024517920,1,0x04,0x0D
0.024523820,1,0x2E,0x0D
0.024529120,1,0x80,0xE0
0.024534840,1,0x2F,0xE0
0.024540120,1,0x00,0x0D
0.024545960,1,0x2E,0x0D
0.024551260,1,0xF0,0xE0
0.024556980,1,0x2F,0xE0
0.024562260,1,0x00,0x0D
0.024568100,1,0x2E,0x0D
0.024573400,1,0x39,0xE0
0.024579120,1,0x2F,0xE0
0.024584420,1,0x73,0x0D
0.024590260,1,0x2E,0x0D
0.024595540,1,0xF8,0xE0
0.024601260,1,0x2F,0xE0
0.024606560,1,0x03,0x0D
0.024612460,1,0x2E,0x0D
0.024617740,1,0xE1,0xE0
0.024623460,1,0x2F,0xE0
0.024628760,1,0xA1,0x0D
0.024634600,1,0x2E,0x0D
0.024639880,1,0xF8,0xE0
0.024645600,1,0x2F,0xE0
0.024650900,1,0x03,0x0D
0.024656740,1,0x2E,0x0D
0.024662040,1,0xE2,0xE0
0.024667760,1,0x2F,0xE0
0.024673040,1,0xA2,0x0D
0.024678900,1,0x2E,0x0D
0.024684180,1,0xF8,0xE0
0.024689900,1,0x2F,0xE0
0.024695200,1,0x0F,0x0D
0.024701100,1,0x2E,0x0D
0.024706400,1,0x80,0xE0
0.024712120,1,0x2F,0xE0
0.024717400,1,0x52,0x0D
0.024723240,1,0x2E,0x0D
0.024728540,1,0xF0,0xE0
0.024734260,1,0x2F,0xE0
0.024739540,1,0x00,0x0D
0.024745400,1,0x2E,0x0D
0.024750680,1,0x29,0xE0
0.024756420,1,0x2F,0xE0
0.024761700,1,0x73,0x0D
0.024767540,1,0x2E,0x0D
0.024772840,1,0xF8,0xE0
0.024778560,1,0x2F,0xE0
0.024783840,1,0x00,0x0D
0.024789760,1,0x2E,0x0D
0.024795040,1,0x68,0xE0
0.024800780,1,0x2F,0xE0
0.024806080,1,0x84,0x0D
0.024811900,1,0x2E,0x0D
0.024817200,1,0xCB,0xE0
0.024822920,1,0x2F,0xE0
0.024828220,1,0x30,0x0D
0.024834060,1,0x2E,0x0D
0.024839360,1,0xC2,0xE0
0.024845080,1,0x2F,0xE0
0.024850380,1,0x43,0x0D
0.024856220,1,0x2E,0x0D
0.024861500,1,0xCB,0xE0
0.024867220,1,0x2F,0xE0
0.024872500,1,0x03,0x0D
0.024878420,1,0x2E,0x0D
0.024883700,1,0x90,0xE0
0.024889420,1,0x2F,0xE0
0.024894720,1,0x20,0x0D
0.024900560,1,0x2E,0x0D
0.024905860,1,0xF0,0xE0
0.024911580,1,0x2F,0xE0
0.024916880,1,0x00,0x0D
0.024922720,1,0x2E,0x0D
0.024928000,1,0xF8,0xE0
0.024933720,1,0x2F,0xE0
0.024939020,1,0x0B,0x0D
0.024944860,1,0x2E,0x0D
0.024950160,1,0x61,0xE0
0.024955880,1,0x2F,0xE0
0.024961160,1,0x40,0x0D
0.024967060,1,0x2E,0x0D
0.024972360,1,0x3F,0xE0
0.024978080,1,0x2F,0xE0
0.024983380,1,0x00,0x0D
0.024989220,1,0x2E,0x0D
0.024994500,1,0xF8,0xE0
0.025000240,1,0x2F,0xE0
0.025005540,1,0x02,0x0D
0.025011380,1,0x2E,0x0D
0.025016680,1,0x80,0xE0
0.025022400,1,0x2F,0xE0
0.025027700,1,0x34,0x0D
0.025033540,1,0x2E,0x0D
0.025038820,1,0xF0,0xE0
0.025044540,1,0x2F,0xE0
0.025049840,1,0x00,0x0D
0.025055740,1,0x2E,0x0D
0.025061040,1,0x2B,0xE0
0.025066760,1,0x2F,0xE0
0.025072060,1,0x03,0x0D
0.025077900,1,0x2E,0x0D
0.025083200,1,0x10,0xE0
0.025088920,1,0x2F,0xE0
0.025094200,1,0x33,0x0D
0.025100060,1,0x2E,0x0D
0.025105340,1,0x2B,0xE0
0.025111060,1,0x2F,0xE0
0.025116360,1,0x03,0x0D
0.025122200,1,0x2E,0x0D
0.025127500,1,0x88,0xE0
0.025133220,1,0x2F,0xE0
0.025138500,1,0x19,0x0D
0.025144420,1,0x2E,0x0D
0.025149720,1,0x60,0xE0
0.025155440,1,0x2F,0xE0
0.025160720,1,0x34,0x0D
0.025166560,1,0x2E,0x0D
0.025171860,1,0xE0,0xE0
0.025177580,1,0x2F,0xE0
0.025182880,1,0xF0,0x0D
0.025188720,1,0x2E,0x0D
0.025194020,1,0xF0,0xE0
0.025199740,1,0x2F,0xE0
0.025205040,1,0x00,0x0D
0.025210880,1,0x2E,0x0D
0.025216160,1,0x60,0xE0
0.025221900,1,0x2F,0xE0
0.025227180,1,0x01,0x0D
0.025233100,1,0x2E,0x0D
0.025238380,1,0xF8,0xE0
0.025244120,1,0x2F,0xE0
0.025249420,1,0x05,0x0D
0.025255260,1,0x2E,0x0D
0.025260560,1,0x80,0xE0
0.025266280,1,0x2F,0xE0
0.025271580,1,0x24,0x0D
0.025277440,1,0x2E,0x0D
0.025282720,1,0x60,0xE0
0.025288440,1,0x2F,0xE0
0.025293740,1,0x02,0x0D
0.025299580,1,0x2E,0x0D
0.025304880,1,0x87,0xE0
0.025310600,1,0x2F,0xE0
0.025315880,1,0xD8,0x0D
0.025321800,1,0x2E,0x0D
0.025327100,1,0x64,0xE0
0.025332820,1,0x2F,0xE0
0.025338100,1,0x00,0x0D
0.025343960,1,0x2E,0x0D
0.025349260,1,0xF8,0xE0
0.025354980,1,0x2F,0xE0
0.025360260,1,0x22,0x0D
0.025366120,1,0x2E,0x0D
0.025371400,1,0x6F,0xE0
0.025377120,1,0x2F,0xE0
0.025382420,1,0x0D,0x0D
0.025388260,1,0x2E,0x0D
0.025393560,1,0xCC,0xE0
0.025399280,1,0x2F,0xE0
0.025404580,1,0xD1,0x0D
0.025410480,1,0x2E,0x0D
0.025415780,1,0xCC,0xE0
0.025421520,1,0x2F,0xE0
0.025426800,1,0xD2,0x0D
0.025432640,1,0x2E,0x0D
0.025437940,1,0xF8,0xE0
0.025443660,1,0x2F,0xE0
0.025448960,1,0x22,0x0D
0.025454800,1,0x2E,0x0D
0.025460100,1,0x6F,0xE0
0.025465840,1,0x2F,0xE0
0.025471120,1,0x2D,0x0D
0.025476980,1,0x2E,0x0D
0.025482260,1,0xCD,0xE0
0.025488000,1,0x2F,0xE0
0.025493300,1,0xD1,0x0D
0.025499200,1,0x2E,0x0D
0.025504500,1,0xCD,0xE0
0.025510220,1,0x2F,0xE0
0.025515520,1,0xD2,0x0D
0.025521380,1,0x2E,0x0D
0.025526660,1,0x60,0xE0
0.025532380,1,0x2F,0xE0
0.025537680,1,0x23,0x0D
0.025543520,1,0x2E,0x0D
0.025548820,1,0x60,0xE0
0.025554540,1,0x2F,0xE0
0.025559840,1,0x00,0x0D
0.025565680,1,0x2E,0x0D
0.025570980,1,0x87,0xE0
0.025576700,1,0x2F,0xE0
0.025581980,1,0xCC,0x0D
0.025587880,1,0x2E,0x0D
0.025593180,1,0x39,0xE0
0.025598920,1,0x2F,0xE0
0.025604200,1,0x23,0x0D
0.025610040,1,0x2E,0x0D
0.025615340,1,0xF8,0xE0
0.025621060,1,0x2F,0xE0
0.025626360,1,0x08,0x0D
0.025632200,1,0x2E,0x0D
0.025637500,1,0x6D,0xE0
0.025643220,1,0x2F,0xE0
0.025648520,1,0xD0,0x0D
0.025654360,1,0x2E,0x0D
0.025659660,1,0x87,0xE0
0.025665380,1,0x2F,0xE0
0.025670680,1,0xE1,0x0D
0.025676580,1,0x2E,0x0D
0.025681880,1,0x3F,0xE0
0.025687600,1,0x2F,0xE0
0.025692900,1,0x00,0x0D
0.025698760,1,0x2E,0x0D
0.025704040,1,0xF8,0xE0
0.025709760,1,0x2F,0xE0
0.025715060,1,0x05,0x0D
0.025720920,1,0x2E,0x0D
0.025726200,1,0x80,0xE0
0.025731920,1,0x2F,0xE0
0.025737220,1,0x67,0x0D
0.025743060,1,0x2E,0x0D
0.025748360,1,0x3B,0xE0
0.025754080,1,0x2F,0xE0
0.025759360,1,0x04,0x0D
0.025765280,1,0x2E,0x0D
0.025770560,1,0xF8,0xE0
0.025776280,1,0x2F,0xE0
0.025781580,1,0x03,0x0D
0.025787420,1,0x2E,0x0D
0.025792720,1,0x80,0xE0
0.025798440,1,0x2F,0xE0
0.025803740,1,0xD2,0x0D
0.025809580,1,0x2E,0x0D
0.025814880,1,0x10,0xE0
0.025820600,1,0x2F,0xE0
0.025825880,1,0x2D,0x0D
0.025831740,1,0x2E,0x0D
0.025837020,1,0xCD,0xE0
0.025842760,1,0x2F,0xE0
0.025848040,1,0xD1,0x0D
0.025853940,1,0x2E,0x0D
0.025859240,1,0xCD,0xE0
0.025864960,1,0x2F,0xE0
0.025870260,1,0xD2,0x0D
0.025876100,1,0x2E,0x0D
0.025881380,1,0xE0,0xE0
0.025887120,1,0x2F,0xE0
0.025892400,1,0xF0,0x0D
0.025898240,1,0x2E,0x0D
0.025903540,1,0xF8,0xE0
0.025909260,1,0x2F,0xE0
0.025914560,1,0x02,0x0D
0.025920400,1,0x2E,0x0D
0.025925700,1,0x80,0xE0
0.025931420,1,0x2F,0xE0
0.025936720,1,0xEF,0x0D
0.025942640,1,0x2E,0x0D
0.025947920,1,0x60,0xE0
0.025953640,1,0x2F,0xE0
0.025958940,1,0x0C,0x0D
0.025964780,1,0x2E,0x0D
0.025970080,1,0xF8,0xE0
0.025975800,1,0x2F,0xE0
0.025981080,1,0x06,0x0D
0.025986940,1,0x2E,0x0D
0.025992240,1,0x80,0xE0
0.025997940,1,0x2F,0xE0
0.026003240,1,0xE1,0x0D
0.026009080,1,0x2E,0x0D
0.026014380,1,0xF0,0xE0
0.026020120,1,0x2F,0xE0
0.026025400,1,0x00,0x0D
0.026031320,1,0x2E,0x0D
0.026036600,1,0xF8,0xE0
0.026042340,1,0x2F,0xE0
0.026047620,1,0x02,0x0D
0.026053480,1,0x2E,0x0D
0.026058780,1,0x68,0xE0
0.026064520,1,0x2F,0xE0
0.026069800,1,0x01,0x0D
0.026075660,1,0x2E,0x0D
0.026080960,1,0x30,0xE0
0.026086680,1,0x2F,0xE0
0.026091980,1,0xC1,0x0D
0.026097820,1,0x2E,0x0D
0.026103120,1,0xF8,0xE0
0.026108840,1,0x2F,0xE0
0.026114160,1,0x0B,0x0D
0.026120060,1,0x2E,0x0D
0.026125360,1,0x68,0xE0
0.026131080,1,0x2F,0xE0
0.026136380,1,0xE1,0x0D
0.026142220,1,0x2E,0x0D
0.026147500,1,0x3A,0xE0
0.026153240,1,0x2F,0xE0
0.026158520,1,0x00,0x0D
0.026164380,1,0x2E,0x0D
0.026169660,1,0x3F,0xE0
0.026175400,1,0x2F,0xE0
0.026180680,1,0x01,0x0D
0.026186540,1,0x2E,0x0D
0.026191840,1,0xE0,0xE0
0.026197560,1,0x2F,0xE0
0.026202860,1,0xF0,0x0D
0.026208760,1,0x2E,0x0D
0.026214060,1,0x82,0xE0
0.026219780,1,0x2F,0xE0
0.026225060,1,0x3A,0x0D
0.026230920,1,0x2E,0x0D
0.026236220,1,0x67,0xE0
0.026241940,1,0x2F,0xE0
0.026247220,1,0x6A,0x0D
0.026253080,1,0x2E,0x0D
0.026258380,1,0xC9,0xE0
0.026264100,1,0x2F,0xE0
0.026269400,1,0x00,0x0D
0.026275240,1,0x2E,0x0D
0.026280540,1,0x8C,0xE0
0.026286260,1,0x2F,0xE0
0.026291560,1,0x11,0x0D
0.026297460,1,0x2E,0x0D
0.026302760,1,0x2A,0xE0
0.026308500,1,0x2F,0xE0
0.026313780,1,0x09,0x0D
0.026319640,1,0x2E,0x0D
0.026324920,1,0x40,0xE0
0.026330660,1,0x2F,0xE0
0.026335940,1,0x49,0x0D
0.026341800,1,0x2E,0x0D
0.026347080,1,0x28,0xE0
0.026352820,1,0x2F,0xE0
0.026358100,1,0x1A,0x0D
0.026363960,1,0x2E,0x0D
0.026369240,1,0x88,0xE0
0.026374960,1,0x2F,0xE0
0.026380260,1,0x2F,0x0D
0.026386180,1,0x2E,0x0D
0.026391460,1,0x2A,0xE0
0.026397180,1,0x2F,0xE0
0.026402480,1,0x09,0x0D
0.026408340,1,0x2E,0x0D
0.026413620,1,0xF8,0xE0
0.026419340,1,0x2F,0xE0
0.026424640,1,0x08,0x0D
0.026430500,1,0x2E,0x0D
0.026435800,1,0xEA,0xE0
0.026441520,1,0x2F,0xE0
0.026446800,1,0xBA,0x0D
0.026452660,1,0x2E,0x0D
0.026457940,1,0x41,0xE0
0.026463680,1,0x2F,0xE0
0.026468960,1,0x8A,0x0D
0.026474880,1,0x2E,0x0D
0.026480160,1,0x2B,0xE0
0.026485900,1,0x2F,0xE0
0.026491180,1,0x09,0x0D
0.026497020,1,0x2E,0x0D
0.026502320,1,0x88,0xE0
0.026508040,1,0x2F,0xE0
0.026513340,1,0x1B,0x0D
0.026519180,1,0x2E,0x0D
0.026524480,1,0xC0,0xE0
0.026530200,1,0x2F,0xE0
0.026535500,1,0x9C,0x0D
0.026541340,1,0x2E,0x0D
0.026546640,1,0xCB,0xE0
0.026552360,1,0x2F,0xE0
0.026557660,1,0xCB,0x0D
0.026563560,1,0x2E,0x0D
0.026568840,1,0x13,0xE0
0.026574560,1,0x2F,0xE0
0.026579860,1,0x2C,0x0D
0.026585720,1,0x2E,0x0D
0.026591000,1,0x94,0xE0
0.026596720,1,0x2F,0xE0
0.026602020,1,0x0F,0x0D
0.026607860,1,0x2E,0x0D
0.026613160,1,0x62,0xE0
0.026618880,1,0x2F,0xE0
0.026624160,1,0x00,0x0D
0.026630020,1,0x2E,0x0D
0.026635320,1,0x87,0xE0
0.026641040,1,0x2F,0xE0
0.026646320,1,0xE1,0x0D
0.026652240,1,0x2E,0x0D
0.026657540,1,0xCB,0xE0
0.026663260,1,0x2F,0xE0
0.026668540,1,0xBC,0x0D
0.026674400,1,0x2E,0x0D
0.026679680,1,0xF8,0xE0
0.026685400,1,0x2F,0xE0
0.026690700,1,0x22,0x0D
0.026696540,1,0x2E,0x0D
0.026701820,1,0x6F,0xE0
0.026707560,1,0x2F,0xE0
0.026712840,1,0x7C,0x0D
0.026718680,1,0x2E,0x0D
0.026723980,1,0xF8,0xE0
0.026729700,1,0x2F,0xE0
0.026735000,1,0x06,0x0D
0.026740900,1,0x2E,0x0D
0.026746200,1,0x80,0xE0
0.026751920,1,0x2F,0xE0
0.026757220,1,0xE8,0x0D
0.026763060,1,0x2E,0x0D
0.026768360,1,0xF0,0xE0
0.026774080,1,0x2F,0xE0
0.026779380,1,0x00,0x0D
0.026785240,1,0x2E,0x0D
0.026790520,1,0xF8,0xE0
0.026796240,1,0x2F,0xE0
0.026801540,1,0x08,0x0D
0.026807400,1,0x2E,0x0D
0.026812680,1,0x60,0xE0
0.026818400,1,0x2F,0xE0
0.026823700,1,0x11,0x0D
0.026829600,1,0x2E,0x0D
0.026834900,1,0x3A,0xE0
0.026840620,1,0x2F,0xE0
0.026845900,1,0x00,0x0D
0.026851760,1,0x2E,0x0D
0.026857060,1,0x60,0xE0
0.026862780,1,0x2F,0xE0
0.026868060,1,0x50,0x0D
0.026873920,1,0x2E,0x0D
0.026879220,1,0x3F,0xE0
0.026884940,1,0x2F,0xE0
0.026890220,1,0x01,0x0D
0.026896080,1,0x2E,0x0D
0.026901360,1,0x3B,0xE0
0.026907100,1,0x2F,0xE0
0.026912380,1,0x00,0x0D
0.026918300,1,0x2E,0x0D
0.026923580,1,0xE0,0xE0
0.026929320,1,0x2F,0xE0
0.026934600,1,0xF0,0x0D
0.026940440,1,0x2E,0x0D
0.026945740,1,0x28,0xE0
0.026951460,1,0x2F,0xE0
0.026956760,1,0x78,0x0D
0.026962600,1,0x2E,0x0D
0.026967880,1,0xF8,0xE0
0.026973620,1,0x2F,0xE0
0.026978920,1,0x01,0x0D
0.026984760,1,0x2E,0x0D
0.026990040,1,0x6E,0xE0
0.026995780,1,0x2F,0xE0
0.027001060,1,0x09,0x0D
0.027006980,1,0x2E,0x0D
0.027012260,1,0xD9,0xE0
0.027017980,1,0x2F,0xE0
0.027023280,1,0x98,0x0D
0.027029140,1,0x2E,0x0D
0.027034420,1,0xF8,0xE0
0.027040140,1,0x2F,0xE0
0.027045440,1,0x02,0x0D
0.027051280,1,0x2E,0x0D
0.027056580,1,0x80,0xE0
0.027062300,1,0x2F,0xE0
0.027067600,1,0xFB,0x0D
0.027073440,1,0x2E,0x0D
0.027078740,1,0xF0,0xE0
0.027084460,1,0x2F,0xE0
0.027089740,1,0x00,0x0D
0.027095660,1,0x2E,0x0D
0.027100960,1,0x8C,0xE0
0.027106680,1,0x2F,0xE0
0.027111960,1,0x09,0x0D
0.027117800,1,0x2E,0x0D
0.027123100,1,0x28,0xE0
0.027128840,1,0x2F,0xE0
0.027134140,1,0x61,0x0D
0.027139980,1,0x2E,0x0D
0.027145280,1,0xF8,0xE0
0.027151000,1,0x2F,0xE0
0.027156300,1,0x02,0x0D
0.027162140,1,0x2E,0x0D
0.027167440,1,0xE1,0xE0
0.027173160,1,0x2F,0xE0
0.027178460,1,0xA1,0x0D
0.027184360,1,0x2E,0x0D
0.027189640,1,0xF8,0xE0
0.027195360,1,0x2F,0xE0
0.027200660,1,0x02,0x0D
0.027206500,1,0x2E,0x0D
0.027211800,1,0x80,0xE0
0.027217520,1,0x2F,0xE0
0.027222820,1,0xEF,0x0D
0.027228660,1,0x2E,0x0D
0.027233960,1,0x60,0xE0
0.027239680,1,0x2F,0xE0
0.027244960,1,0x0C,0x0D
0.027250820,1,0x2E,0x0D
0.027256120,1,0x62,0xE0
0.027261840,1,0x2F,0xE0
0.027267120,1,0x40,0x0D
0.027273040,1,0x2E,0x0D
0.027278340,1,0x87,0xE0
0.027284060,1,0x2F,0xE0
0.027289340,1,0xC4,0x0D
0.027295180,1,0x2E,0x0D
0.027300480,1,0x3B,0xE0
0.027306200,1,0x2F,0xE0
0.027311500,1,0x01,0x0D
0.027317340,1,0x2E,0x0D
0.027322640,1,0xF8,0xE0
0.027328360,1,0x2F,0xE0
0.027333640,1,0x02,0x0D
0.027339480,1,0x2E,0x0D
0.027344780,1,0x80,0xE0
0.027350500,1,0x2F,0xE0
0.027355800,1,0xF3,0x0D
0.027361700,1,0x2E,0x0D
0.027367000,1,0x60,0xE0
0.027372740,1,0x2F,0xE0
0.027378040,1,0x18,0x0D
0.027383880,1,0x2E,0x0D
0.027389180,1,0x87,0xE0
0.027394900,1,0x2F,0xE0
0.027400200,1,0xBF,0x0D
0.027406040,1,0x2E,0x0D
0.027411340,1,0x62,0xE0
0.027417060,1,0x2F,0xE0
0.027422360,1,0x00,0x0D
0.027428200,1,0x2E,0x0D
0.027433480,1,0xF8,0xE0
0.027439220,1,0x2F,0xE0
0.027444500,1,0x08,0x0D
0.027450420,1,0x2E,0x0D
0.027455720,1,0xEA,0xE0
0.027461440,1,0x2F,0xE0
0.027466720,1,0xBA,0x0D
0.027472580,1,0x2E,0x0D
0.027477880,1,0x40,0xE0
0.027483600,1,0x2F,0xE0
0.027488880,1,0x8A,0x0D
0.027494740,1,0x2E,0x0D
0.027500040,1,0x88,0xE0
0.027505740,1,0x2F,0xE0
0.027511040,1,0x14,0x0D
0.027516880,1,0x2E,0x0D
0.027522180,1,0x40,0xE0
0.027527920,1,0x2F,0xE0
0.027533200,1,0x29,0x0D
0.027539100,1,0x2E,0x0D
0.027544400,1,0x2B,0xE0
0.027550140,1,0x2F,0xE0
0.027555420,1,0x09,0x0D
0.027561260,1,0x2E,0x0D
0.027566560,1,0x88,0xE0
0.027572280,1,0x2F,0xE0
0.027577580,1,0x11,0x0D
0.027583420,1,0x2E,0x0D
0.027588700,1,0x61,0xE0
0.027594440,1,0x2F,0xE0
0.027599720,1,0x58,0x0D
0.027605560,1,0x2E,0x0D
0.027610860,1,0xD8,0xE0
0.027616580,1,0x2F,0xE0
0.027621880,1,0x89,0x0D
0.027627780,1,0x2E,0x0D
0.027633060,1,0xF8,0xE0
0.027638800,1,0x2F,0xE0
0.027644080,1,0x0A,0x0D
0.027649940,1,0x2E,0x0D
0.027655220,1,0xE8,0xE0
0.027660960,1,0x2F,0xE0
0.027666240,1,0xB8,0x0D
0.027672100,1,0x2E,0x0D
0.027677380,1,0xF8,0xE0
0.027683100,1,0x2F,0xE0
0.027688400,1,0x0F,0x0D
0.027694260,1,0x2E,0x0D
0.027699540,1,0x6A,0xE0
0.027705260,1,0x2F,0xE0
0.027710560,1,0x09,0x0D
0.027716460,1,0x2E,0x0D
0.027721760,1,0xF8,0xE0
0.027727480,1,0x2F,0xE0
0.027732780,1,0x03,0x0D
0.027738620,1,0x2E,0x0D
0.027743920,1,0x80,0xE0
0.027749640,1,0x2F,0xE0
0.027754940,1,0x04,0x0D
0.027760780,1,0x2E,0x0D
0.027766080,1,0xF0,0xE0
0.027771800,1,0x2F,0xE0
0.027777100,1,0x00,0x0D
0.027782940,1,0x2E,0x0D
0.027788240,1,0x60,0xE0
0.027793960,1,0x2F,0xE0
0.027799260,1,0x01,0x0D
0.027805160,1,0x2E,0x0D
0.027810440,1,0xF8,0xE0
0.027816180,1,0x2F,0xE0
0.027821460,1,0x03,0x0D
0.027827300,1,0x2E,0x0D
0.027832600,1,0x80,0xE0
0.027838320,1,0x2F,0xE0
0.027843620,1,0x10,0x0D
0.027849460,1,0x2E,0x0D
0.027854740,1,0x28,0xE0
0.027860460,1,0x2F,0xE0
0.027865760,1,0x88,0x0D
0.027871600,1,0x2E,0x0D
0.027876900,1,0xC9,0xE0
0.027882620,1,0x2F,0xE0
0.027887920,1,0x11,0x0D
0.027893820,1,0x2E,0x0D
0.027899120,1,0xF0,0xE0
0.027904840,1,0x2F,0xE0
0.027910140,1,0x00,0x0D
0.027915980,1,0x2E,0x0D
0.027921280,1,0x8F,0xE0
0.027927000,1,0x2F,0xE0
0.027932300,1,0xA7,0x0D
0.027938140,1,0x2E,0x0D
0.027943440,1,0x62,0xE0
0.027949160,1,0x2F,0xE0
0.027954460,1,0x40,0x0D
0.027960300,1,0x2E,0x0D
0.027965600,1,0x60,0xE0
0.027971340,1,0x2F,0xE0
0.027976620,1,0x21,0x0D
0.027982540,1,0x2E,0x0D
0.027987820,1,0x3B,0xE0
0.027993560,1,0x2F,0xE0
0.027998840,1,0x11,0x0D
0.028004700,1,0x2E,0x0D
0.028009980,1,0x87,0xE0
0.028015720,1,0x2F,0xE0
0.028021020,1,0xA3,0x0D
0.028026860,1,0x2E,0x0D
0.028032160,1,0x62,0xE0
0.028037880,1,0x2F,0xE0
0.028043180,1,0x60,0x0D
0.028049020,1,0x2E,0x0D
0.028054320,1,0x63,0xE0
0.028060040,1,0x2F,0xE0
0.028065340,1,0x01,0x0D
0.028071240,1,0x2E,0x0D
0.028076540,1,0x29,0xE0
0.028082260,1,0x2F,0xE0
0.028087560,1,0x20,0x0D
0.028093420,1,0x2E,0x0D
0.028098720,1,0xC8,0xE0
0.028104440,1,0x2F,0xE0
0.028109740,1,0x10,0x0D
0.028115600,1,0x2E,0x0D
0.028120880,1,0x39,0xE0
0.028126620,1,0x2F,0xE0
0.028131900,1,0x20,0x0D
0.028137760,1,0x2E,0x0D
0.028143060,1,0x80,0xE0
0.028148780,1,0x2F,0xE0
0.028154080,1,0xF6,0x0D
0.028159980,1,0x2E,0x0D
0.028165280,1,0xF0,0xE0
0.028171000,1,0x2F,0xE0
0.028176280,1,0x00,0x0D
0.028182120,1,0x2E,0x0D
0.028187440,1,0xF8,0xE0
0.028193160,1,0x2F,0xE0
0.028198460,1,0x09,0x0D
0.028204300,1,0x2E,0x0D
0.028209600,1,0x80,0xE0
0.028215340,1,0x2F,0xE0
0.028220640,1,0xAF,0x0D
0.028226480,1,0x2E,0x0D
0.028231760,1,0x67,0xE0
0.028237500,1,0x2F,0xE0
0.028242780,1,0x6A,0x0D
0.028248700,1,0x2E,0x0D
0.028253980,1,0xC9,0xE0
0.028259700,1,0x2F,0xE0
0.028265000,1,0x00,0x0D
0.028270840,1,0x2E,0x0D
0.028276140,1,0xF8,0xE0
0.028281860,1,0x2F,0xE0
0.028287160,1,0x0B,0x0D
0.028293000,1,0x2E,0x0D
0.028298300,1,0x88,0xE0
0.028304020,1,0x2F,0xE0
0.028309320,1,0x80,0x0D
0.028315160,1,0x2E,0x0D
0.028320460,1,0xF0,0xE0
0.028326180,1,0x2F,0xE0
0.028331460,1,0x00,0x0D
0.028337380,1,0x2E,0x0D
0.028342680,1,0xF8,0xE0
0.028348400,1,0x2F,0xE0
0.028353700,1,0x0E,0x0D
0.028359540,1,0x2E,0x0D
0.028364840,1,0x80,0xE0
0.028370560,1,0x2F,0xE0
0.028375860,1,0xB4,0x0D
0.028381700,1,0x2E,0x0D
0.028387000,1,0xF0,0xE0
0.028392740,1,0x2F,0xE0
0.028398020,1,0x00,0x0D
0.028403880,1,0x2E,0x0D
0.028409180,1,0xF8,0xE0
0.028414900,1,0x2F,0xE0
0.028420200,1,0x0F,0x0D
0.028426100,1,0x2E,0x0D
0.028431400,1,0x80,0xE0
0.028437120,1,0x2F,0xE0
0.028442420,1,0x61,0x0D
0.028448260,1,0x2E,0x0D
0.028453560,1,0xF0,0xE0
0.028459280,1,0x2F,0xE0
0.028464580,1,0x00,0x0D
0.028470420,1,0x2E,0x0D
0.028475720,1,0xF8,0xE0
0.028481440,1,0x2F,0xE0
0.028486740,1,0x00,0x0D
0.028492600,1,0x2E,0x0D
0.028497880,1,0x80,0xE0
0.028503600,1,0x2F,0xE0
0.028508900,1,0xAB,0x0D
0.028514820,1,0x2E,0x0D
0.028520100,1,0xF0,0xE0
0.028525820,1,0x2F,0xE0
0.028531120,1,0x00,0x0D
0.028536980,1,0x2E,0x0D
0.028542280,1,0xF8,0xE0
0.028548000,1,0x2F,0xE0
0.028553300,1,0x05,0x0D
0.028559140,1,0x2E,0x0D
0.028564440,1,0x80,0xE0
0.028570160,1,0x2F,0xE0
0.028575460,1,0x10,0x0D
0.028581300,1,0x2E,0x0D
0.028586600,1,0xF0,0xE0
0.028592320,1,0x2F,0xE0
0.028597620,1,0x00,0x0D
0.028603540,1,0x2E,0x0D
0.028608820,1,0xF8,0xE0
0.028614560,1,0x2F,0xE0
0.028619840,1,0x02,0x0D
0.028625680,1,0x2E,0x0D
0.028630980,1,0x80,0xE0
0.028636720,1,0x2F,0xE0
0.028642000,1,0x66,0x0D
0.028647860,1,0x2E,0x0D
0.028653140,1,0xF0,0xE0
0.028658880,1,0x2F,0xE0
0.028664160,1,0x00,0x0D
0.028670020,1,0x2E,0x0D
0.028675300,1,0xC9,0xE0
0.028681040,1,0x2F,0xE0
0.028686340,1,0x00,0x0D
0.028692240,1,0x2E,0x0D
0.028697520,1,0x88,0xE0
0.028703260,1,0x2F,0xE0
0.028708560,1,0x7E,0x0D
0.028714400,1,0x2E,0x0D
0.028719700,1,0xF0,0xE0
0.028725420,1,0x2F,0xE0
0.028730720,1,0x00,0x0D
0.028736560,1,0x2E,0x0D
0.028741860,1,0xF8,0xE0
0.028747580,1,0x2F,0xE0
0.028752880,1,0x05,0x0D
0.028758720,1,0x2E,0x0D
0.028764020,1,0x80,0xF0
0.028769740,1,0x2F,0xF0
0.028775020,1,0x24,0x01
0.028780940,1,0x2E,0x01
0.028786240,1,0xF0,0xF0
0.028791960,1,0x2F,0xF0
0.028797260,1,0x00,0x01
0.028803100,1,0x2E,0x01
0.028808400,1,0xF8,0xF0
0.028814120,1,0x2F,0xF0
0.028819420,1,0x04,0x01
0.028825260,1,0x2E,0x01
0.028830560,1,0x80,0xF0
0.028836280,1,0x2F,0xF0
0.028841580,1,0x52,0x01
0.028847420,1,0x2E,0x01
0.028852720,1,0xF0,0xF0
0.028858440,1,0x2F,0xF0
0.028863740,1,0x00,0x01
0.028869640,1,0x2E,0x01
0.028874920,1,0xC9,0xF0
0.028880660,1,0x2F,0xF0
0.028885960,1,0x00,0x01
0.028891800,1,0x2E,0x01
0.028897080,1,0x88,0xF0
0.028902820,1,0x2F,0xF0
0.028908100,1,0x84,0x01
0.028913960,1,0x2E,0x01
0.028919240,1,0xF0,0xF0
0.028924980,1,0x2F,0xF0
0.028930260,1,0x00,0x01
0.028936120,1,0x2E,0x01
0.028941400,1,0xF8,0xF0
0.028947140,1,0x2F,0xF0
0.028952420,1,0x00,0x01
0.028958340,1,0x2E,0x01
0.028963640,1,0x80,0xF0
0.028969360,1,0x2F,0xF0
0.028974640,1,0xAB,0x01
0.028980500,1,0x2E,0x01
0.028985780,1,0xF0,0xF0
0.028991500,1,0x2F,0xF0
0.028996800,1,0x00,0x01
0.029002640,1,0x2E,0x01
0.029007940,1,0xF8,0xF0
0.029013680,1,0x2F,0xF0
0.029018960,1,0x04,0x01
0.029024800,1,0x2E,0x01
0.029030100,1,0x80,0xF0
0.029035820,1,0x2F,0xF0
0.029041120,1,0x70,0x01
0.029047020,1,0x2E,0x01
0.029052320,1,0xF0,0xF0
0.029058060,1,0x2F,0xF0
0.029063360,1,0x00,0x01
0.029069200,1,0x2E,0x01
0.029074500,1,0xC9,0xF0
0.029080220,1,0x2F,0xF0
0.029085520,1,0x00,0x01
0.029091360,1,0x2E,0x01
0.029096660,1,0x88,0xF0
0.029102380,1,0x2F,0xF0
0.029107680,1,0x7F,0x01
0.029113520,1,0x2E,0x01
0.029118800,1,0xF0,0xF0
0.029124520,1,0x2F,0xF0
0.029129820,1,0x00,0x01
0.029135740,1,0x2E,0x01
0.029141020,1,0xF8,0xF0
0.029146740,1,0x2F,0xF0
0.029152040,1,0x02,0x01
0.029157880,1,0x2E,0x01
0.029163180,1,0x80,0xF0
0.029168900,1,0x2F,0xF0
0.029174180,1,0x66,0x01
0.029180040,1,0x2E,0x01
0.029185340,1,0xF0,0xF0
0.029191040,1,0x2F,0xF0
0.029196340,1,0x00,0x01
0.029202180,1,0x2E,0x01
0.029207480,1,0xC9,0xF0
0.029213200,1,0x2F,0xF0
0.029218500,1,0x00,0x01
0.029224400,1,0x2E,0x01
0.029229700,1,0x88,0xF0
0.029235420,1,0x2F,0xF0
0.029240720,1,0x75,0x01
0.029246560,1,0x2E,0x01
0.029251860,1,0xF0,0xF0
0.029257580,1,0x2F,0xF0
0.029262880,1,0x00,0x01
0.029268720,1,0x2E,0x01
0.029274020,1,0xF8,0xF0
0.029279760,1,0x2F,0xF0
0.029285040,1,0x04,0x01
0.029290880,1,0x2E,0x01
0.029296180,1,0x80,0xF0
0.029301900,1,0x2F,0xF0
0.029307200,1,0x82,0x01
0.029313100,1,0x2E,0x01
0.029318400,1,0xF0,0xF0
0.029324120,1,0x2F,0xF0
0.029329420,1,0x00,0x01
0.029335260,1,0x2E,0x01
0.029340560,1,0x29,0xF0
0.029346280,1,0x2F,0xF0
0.029351560,1,0x20,0x01
0.029357420,1,0x2E,0x01
0.029362700,1,0x40,0xF0
0.029368420,1,0x2F,0xF0
0.029373720,1,0x60,0x01
0.029379560,1,0x2E,0x01
0.029384860,1,0x29,0xF0
0.029390580,1,0x2F,0xF0
0.029395880,1,0x20,0x01
0.029401800,1,0x2E,0x01
0.029407080,1,0x8C,0xF0
0.029412800,1,0x2F,0xF0
0.029418100,1,0x04,0x01
0.029423960,1,0x2E,0x01
0.029429260,1,0xF0,0xF0
0.029434980,1,0x2F,0xF0
0.029440260,1,0x00,0x01
0.029446100,1,0x2E,0x01
0.029451400,1,0xF8,0xF0
0.029457120,1,0x2F,0xF0
0.029462420,1,0x04,0x01
0.029468260,1,0x2E,0x01
0.029473560,1,0x80,0xF0
0.029479280,1,0x2F,0xF0
0.029484580,1,0xB0,0x01
0.029490480,1,0x2E,0x01
0.029495760,1,0xF0,0xF0
0.029501480,1,0x2F,0xF0
0.029506780,1,0x00,0x01
0.029512620,1,0x2E,0x01
0.029517920,1,0xF8,0xF0
0.029523640,1,0x2F,0xF0
0.029528940,1,0x04,0x01
0.029534780,1,0x2E,0x01
0.029540080,1,0x80,0xF0
0.029545800,1,0x2F,0xF0
0.029551100,1,0x8F,0x01
0.029556940,1,0x2E,0x01
0.029562220,1,0xF0,0xF0
0.029567940,1,0x2F,0xF0
0.029573240,1,0x00,0x01
0.029579140,1,0x2E,0x01
0.029584440,1,0xF8,0xF0
0.029590160,1,0x2F,0xF0
0.029595440,1,0x01,0x01
0.029601300,1,0x2E,0x01
0.029606580,1,0x80,0xF0
0.029612300,1,0x2F,0xF0
0.029617600,1,0x79,0x01
0.029623440,1,0x2E,0x01
0.029628740,1,0xF0,0xF0
0.029634460,1,0x2F,0xF0
0.029639740,1,0x00,0x01
0.029645600,1,0x2E,0x01
0.029650900,1,0xF8,0xF0
0.029656620,1,0x2F,0xF0
0.029661900,1,0x01,0x01
0.029667820,1,0x2E,0x01
0.029673120,1,0x80,0xF0
0.029678840,1,0x2F,0xF0
0.029684140,1,0x7E,0x01
0.029689980,1,0x2E,0x01
0.029695260,1,0xF0,0xF0
0.029701000,1,0x2F,0xF0
0.029706300,1,0x00,0x01
0.029712140,1,0x2E,0x01
0.029717440,1,0xF8,0xF0
0.029723160,1,0x2F,0xF0
0.029728460,1,0x04,0x01
0.029734300,1,0x2E,0x01
0.029739600,1,0x80,0xF0
0.029745320,1,0x2F,0xF0
0.029750620,1,0xA0,0x01
0.029756520,1,0x2E,0x01
0.029761800,1,0xF0,0xF0
0.029767540,1,0x2F,0xF0
0.029772840,1,0x00,0x01
0.029778680,1,0x2E,0x01
0.029783960,1,0xF8,0xF0
0.029789680,1,0x2F,0xF0
0.029794980,1,0x0E,0x01
0.029800840,1,0x2E,0x01
0.029806120,1,0x80,0xF0
0.029811840,1,0x2F,0xF0
0.029817140,1,0xDA,0x01
0.029822980,1,0x2E,0x01
0.029828280,1,0xF0,0xF0
0.029834000,1,0x2F,0xF0
0.029839280,1,0x00,0x01
0.029845200,1,0x2E,0x01
0.029850480,1,0x28,0xF0
0.029856200,1,0x2F,0xF0
0.029861500,1,0xF7,0x01
0.029867340,1,0x2E,0x01
0.029872640,1,0xF8,0xF0
0.029878360,1,0x2F,0xF0
0.029883640,1,0x00,0x01
0.029889480,1,0x2E,0x01
0.029894780,1,0x6F,0xF0
0.029900500,1,0x2F,0xF0
0.029905780,1,0xF6,0x01
0.029911620,1,0x2E,0x01
0.029916920,1,0x00,0xF0
0.029922640,1,0x2F,0xF0
0.029927920,1,0x47,0x01
0.029933820,1,0x2E,0x01
0.029939120,1,0x28,0xF0
0.029944840,1,0x2F,0xF0
0.029950140,1,0x58,0x01
0.029955980,1,0x2E,0x01
0.029961260,1,0xE2,0xF0
0.029966980,1,0x2F,0xF0
0.029972280,1,0x08,0x01
0.029978120,1,0x2E,0x01
0.029983420,1,0xF8,0xF0
0.029989140,1,0x2F,0xF0
0.029994420,1,0x0D,0x01
0.030000280,1,0x2E,0x01
0.030005560,1,0x80,0xF0
0.030011280,1,0x2F,0xF0
0.030016580,1,0xF7,0x01
0.030022480,1,0x2E,0x01
0.030027780,1,0xE2,0xF0
0.030033500,1,0x2F,0xF0
0.030038780,1,0x08,0x01
0.030044620,1,0x2E,0x01
0.030049920,1,0xF8,0xF0
0.030055640,1,0x2F,0xF0
0.030060940,1,0x0E,0x01
0.030066780,1,0x2E,0x01
0.030072080,1,0x80,0xF0
0.030077800,1,0x2F,0xF0
0.030083080,1,0x75,0x01
0.030088920,1,0x2E,0x01
0.030094220,1,0xF0,0xF0
0.030099940,1,0x2F,0xF0
0.030105220,1,0x00,0x01
0.030111120,1,0x2E,0x01
0.030116420,1,0xF8,0xF0
0.030122140,1,0x2F,0xF0
0.030127440,1,0x0F,0x01
0.030133280,1,0x2E,0x01
0.030138560,1,0x80,0xF0
0.030144300,1,0x2F,0xF0
0.030149580,1,0x5F,0x01
0.030155440,1,0x2E,0x01
0.030160720,1,0x29,0xF0
0.030166440,1,0x2F,0xF0
0.030171740,1,0x70,0x01
0.030177600,1,0x2E,0x01
0.030182880,1,0x29,0xF0
0.030188600,1,0x2F,0xF0
0.030193900,1,0x29,0x01
0.030199800,1,0x2E,0x01
0.030205100,1,0xC9,0xF0
0.030210820,1,0x2F,0xF0
0.030216100,1,0xB9,0x01
0.030221960,1,0x2E,0x01
0.030227240,1,0xF8,0xF0
0.030232960,1,0x2F,0xF0
0.030238260,1,0x0E,0x01
0.030244120,1,0x2E,0x01
0.030249400,1,0x80,0xF0
0.030255120,1,0x2F,0xF0
0.030260420,1,0x02,0x01
0.030266260,1,0x2E,0x01
0.030271560,1,0xCB,0xF0
0.030277280,1,0x2F,0xF0
0.030282560,1,0x9B,0x01
0.030288460,1,0x2E,0x01
0.030293760,1,0xCB,0xF0
0.030299480,1,0x2F,0xF0
0.030304760,1,0xB9,0x01
0.030310600,1,0x2E,0x01
0.030315900,1,0x42,0xF0
0.030321620,1,0x2F,0xF0
0.030326920,1,0x0B,0x01
0.030332760,1,0x2E,0x01
0.030338060,1,0xCB,0xF0
0.030343780,1,0x2F,0xF0
0.030349080,1,0x9B,0x01
0.030354920,1,0x2E,0x01
0.030360200,1,0x88,0xF0
0.030365940,1,0x2F,0xF0
0.030371240,1,0x49,0x01
0.030377140,1,0x2E,0x01
0.030382420,1,0xF0,0xF0
0.030388140,1,0x2F,0xF0
0.030393440,1,0x00,0x01
0.030399280,1,0x2E,0x01
0.030404560,1,0x40,0xF0
0.030410280,1,0x2F,0xF0
0.030415580,1,0x19,0x01
0.030421440,1,0x2E,0x01
0.030426720,1,0x60,0xF0
0.030432440,1,0x2F,0xF0
0.030437740,1,0x09,0x01
0.030443580,1,0x2E,0x01
0.030448880,1,0x8C,0xF0
0.030454600,1,0x2F,0xF0
0.030459880,1,0x04,0x01
0.030465800,1,0x2E,0x01
0.030471100,1,0xF0,0xF0
0.030476820,1,0x2F,0xF0
0.030482100,1,0x00,0x01
0.030487960,1,0x2E,0x01
0.030493260,1,0xF8,0xF0
0.030498980,1,0x2F,0xF0
0.030504260,1,0x02,0x01
0.030510100,1,0x2E,0x01
0.030515400,1,0x80,0xF0
0.030521120,1,0x2F,0xF0
0.030526420,1,0xEF,0x01
0.030532260,1,0x2E,0x01
0.030537540,1,0xF0,0xF0
0.030543280,1,0x2F,0xF0
0.030548560,1,0x00,0x01
0.030554460,1,0x2E,0x01
0.030559760,1,0xF8,0xF0
0.030565480,1,0x2F,0xF0
0.030570780,1,0x0E,0x01
0.030576620,1,0x2E,0x01
0.030581920,1,0x80,0xF0
0.030587640,1,0x2F,0xF0
0.030592940,1,0x07,0x01
0.030598780,1,0x2E,0x01
0.030604060,1,0xF0,0xF0
0.030609780,1,0x2F,0xF0
0.030615080,1,0x00,0x01
0.030620920,1,0x2E,0x01
0.030626220,1,0xF8,0xF0
0.030631920,1,0x2F,0xF0
0.030637220,1,0x01,0x01
0.030643120,1,0x2E,0x01
0.030648420,1,0x80,0xF0
0.030654140,1,0x2F,0xF0
0.030659440,1,0xB8,0x01
0.030665280,1,0x2E,0x01
0.030670580,1,0xF0,0xF0
0.030676300,1,0x2F,0xF0
0.030681580,1,0x00,0x01
0.030687440,1,0x2E,0x01
0.030692720,1,0x80,0xF0
0.030698440,1,0x2F,0xF0
0.030703740,1,0x3F,0x01
0.030709580,1,0x2E,0x01
0.030714880,1,0xF0,0xF0
0.030720600,1,0x2F,0xF0
0.030725880,1,0x00,0x01
0.030731800,1,0x2E,0x01
0.030737080,1,0x29,0xF0
0.030742820,1,0x2F,0xF0
0.030748100,1,0x20,0x01
0.030753940,1,0x2E,0x01
0.030759220,1,0x44,0xF0
0.030764960,1,0x2F,0xF0
0.030770240,1,0x00,0x01
0.030776080,1,0x2E,0x01
0.030781380,1,0x29,0xF0
0.030787100,1,0x2F,0xF0
0.030792380,1,0x20,0x01
0.030798220,1,0x2E,0x01
0.030803500,1,0x88,0xF0
0.030809220,1,0x2F,0xF0
0.030814520,1,0x1A,0x01
0.030820420,1,0x2E,0x01
0.030825720,1,0x42,0xF0
0.030831420,1,0x2F,0xF0
0.030836720,1,0x00,0x01
0.030842580,1,0x2E,0x01
0.030847860,1,0x88,0xF0
0.030853580,1,0x2F,0xF0
0.030858860,1,0x12,0x01
0.030864720,1,0x2E,0x01
0.030870000,1,0xF0,0xF0
0.030875720,1,0x2F,0xF0
0.030881000,1,0x00,0x01
0.030886840,1,0x2E,0x01
0.030892140,1,0xF8,0xF0
0.030897860,1,0x2F,0xF0
0.030903140,1,0x22,0x01
0.030909060,1,0x2E,0x01
0.030914360,1,0x6F,0xF0
0.030920080,1,0x2F,0xF0
0.030925360,1,0x0D,0x01
0.030931220,1,0x2E,0x01
0.030936500,1,0xCC,0xF0
0.030942240,1,0x2F,0xF0
0.030947520,1,0xD1,0x01
0.030953360,1,0x2E,0x01
0.030958660,1,0xCC,0xF0
0.030964380,1,0x2F,0xF0
0.030969680,1,0xD2,0x01
0.030975520,1,0x2E,0x01
0.030980800,1,0xF8,0xF0
0.030986540,1,0x2F,0xF0
0.030991820,1,0x03,0x01
0.030997720,1,0x2E,0x01
0.031003020,1,0xE1,0xF0
0.031008740,1,0x2F,0xF0
0.031014040,1,0xA1,0x01
0.031019880,1,0x2E,0x01
0.031025160,1,0xF8,0xF0
0.031030880,1,0x2F,0xF0
0.031036180,1,0x03,0x01
0.031042020,1,0x2E,0x01
0.031047320,1,0xE2,0xF0
0.031053040,1,0x2F,0xF0
0.031058340,1,0xA2,0x01
0.031064180,1,0x2E,0x01
0.031069480,1,0xF8,0xF0
0.031075180,1,0x2F,0xF0
0.031080480,1,0x0F,0x01
0.031086380,1,0x2E,0x01
0.031091680,1,0x80,0xF0
0.031097400,1,0x2F,0xF0
0.031102680,1,0x52,0x01
0.031108520,1,0x2E,0x01
0.031113820,1,0xF0,0xF0
0.031119540,1,0x2F,0xF0
0.031124820,1,0x00,0x01
0.031130660,1,0x2E,0x01
0.031135960,1,0xF8,0xF0
0.031141680,1,0x2F,0xF0
0.031146980,1,0x09,0x01
0.031152820,1,0x2E,0x01
0.031158120,1,0x80,0xF0
0.031163840,1,0x2F,0xF0
0.031169120,1,0xE6,0x01
0.031175020,1,0x2E,0x01
0.031180320,1,0x20,0xF0
0.031186040,1,0x2F,0xF0
0.031191340,1,0xB0,0x01
0.031197180,1,0x2E,0x01
0.031202480,1,0x2A,0xF0
0.031208200,1,0x2F,0xF0
0.031213480,1,0x01,0x01
0.031219320,1,0x2E,0x01
0.031224620,1,0x3A,0xF0
0.031230340,1,0x2F,0xF0
0.031235640,1,0x01,0x01
0.031241480,1,0x2E,0x01
0.031246780,1,0xE0,0xF0
0.031252500,1,0x2F,0xF0
0.031257780,1,0xF0,0x01
0.031263680,1,0x2E,0x01
0.031268980,1,0xF8,0xF0
0.031274700,1,0x2F,0xF0
0.031280000,1,0x01,0x01
0.031285860,1,0x2E,0x01
0.031291140,1,0x80,0xF0
0.031296860,1,0x2F,0xF0
0.031302160,1,0x8C,0x01
0.031308020,1,0x2E,0x01
0.031313320,1,0xF0,0xF0
0.031319040,1,0x2F,0xF0
0.031324340,1,0x00,0x01
0.031330180,1,0x2E,0x01
0.031335480,1,0xCB,0xF0
0.031341200,1,0x2F,0xF0
0.031346480,1,0x31,0x01
0.031352400,1,0x2E,0x01
0.031357680,1,0x87,0xF0
0.031363420,1,0x2F,0xF0
0.031368700,1,0xF2,0x01
0.031374540,1,0x2E,0x01
0.031379840,1,0xCB,0xF0
0.031385560,1,0x2F,0xF0
0.031390860,1,0x42,0x01
0.031396700,1,0x2E,0x01
0.031401980,1,0xF8,0xF0
0.031407700,1,0x2F,0xF0
0.031413000,1,0x00,0x01
0.031418840,1,0x2E,0x01
0.031424120,1,0x80,0xF0
0.031429840,1,0x2F,0xF0
0.031435140,1,0x9E,0x01
0.031441040,1,0x2E,0x01
0.031446320,1,0xF0,0xF0
0.031452040,1,0x2F,0xF0
0.031457340,1,0x00,0x01
0.031463180,1,0x2E,0x01
0.031468460,1,0x87,0xF0
0.031474180,1,0x2F,0xF0
0.031479480,1,0xF0,0x01
0.031485320,1,0x2E,0x01
0.031490620,1,0xF0,0xF0
0.031496340,1,0x2F,0xF0
0.031501620,1,0x00,0x01
0.031507480,1,0x2E,0x01
0.031512760,1,0x26,0xF0
0.031518480,1,0x2F,0xF0
0.031523760,1,0xEF,0x01
0.031529680,1,0x2E,0x01
0.031534980,1,0xF8,0xF0
0.031540700,1,0x2F,0xF0
0.031545980,1,0x0D,0x01
0.031551840,1,0x2E,0x01
0.031557140,1,0x80,0xF0
0.031562860,1,0x2F,0xF0
0.031568140,1,0x90,0x01
0.031574000,1,0x2E,0x01
0.031579280,1,0x11,0xF0
0.031585020,1,0x2F,0xF0
0.031590300,1,0xCF,0x01
0.031596140,1,0x2E,0x01
0.031601420,1,0xF8,0xF0
0.031607160,1,0x2F,0xF0
0.031612440,1,0x01,0x01
0.031618340,1,0x2E,0x01
0.031623640,1,0x60,0xF0
0.031629380,1,0x2F,0xF0
0.031634660,1,0x0D,0x01
0.031640520,1,0x2E,0x01
0.031645800,1,0xC8,0xF0
0.031651540,1,0x2F,0xF0
0.031656840,1,0x0D,0x01
0.031662680,1,0x2E,0x01
0.031667980,1,0xF8,0xF0
0.031673700,1,0x2F,0xF0
0.031678980,1,0x0D,0x01
0.031684840,1,0x2E,0x01
0.031690120,1,0x88,0xF0
0.031695840,1,0x2F,0xF0
0.031701140,1,0x40,0x01
0.031707040,1,0x2E,0x01
0.031712340,1,0xF0,0xF0
0.031718060,1,0x2F,0xF0
0.031723340,1,0x00,0x01
0.031729200,1,0x2E,0x01
0.031734480,1,0xF8,0xF0
0.031740200,1,0x2F,0xF0
0.031745500,1,0x05,0x01
0.031751360,1,0x2E,0x01
0.031756660,1,0x80,0xF0
0.031762380,1,0x2F,0xF0
0.031767660,1,0x24,0x01
0.031773520,1,0x2E,0x01
0.031778800,1,0xF0,0xF0
0.031784520,1,0x2F,0xF0
0.031789820,1,0x00,0x01
0.031795720,1,0x2E,0x01
0.031801020,1,0x87,0xF0
0.031806740,1,0x2F,0xF0
0.031812020,1,0x78,0x01
0.031817860,1,0x2E,0x01
0.031823160,1,0xF0,0xF0
0.031828880,1,0x2F,0xF0
0.031834180,1,0x00,0x01
0.031840020,1,0x2E,0x01
0.031845320,1,0x29,0xF0
0.031851040,1,0x2F,0xF0
0.031856340,1,0x20,0x01
0.031862180,1,0x2E,0x01
0.031867460,1,0x50,0xF0
0.031873200,1,0x2F,0xF0
0.031878500,1,0x40,0x01
0.031884400,1,0x2E,0x01
0.031889680,1,0x87,0xF0
0.031895400,1,0x2F,0xF0
0.031900700,1,0x91,0x01
0.031906560,1,0x2E,0x01
0.031911840,1,0x39,0xF0
0.031917560,1,0x2F,0xF0
0.031922860,1,0x20,0x01
0.031928700,1,0x2E,0x01
0.031933980,1,0x60,0xF0
0.031939700,1,0x2F,0xF0
0.031945000,1,0x01,0x01
0.031950860,1,0x2E,0x01
0.031956140,1,0x87,0xF0
0.031961860,1,0x2F,0xF0
0.031967160,1,0x86,0x01
0.031973080,1,0x2E,0x01
0.031978360,1,0x60,0xF0
0.031984100,1,0x2F,0xF0
0.031989380,1,0x02,0x01
0.031995240,1,0x2E,0x01
0.032000540,1,0xF8,0xF0
0.032006260,1,0x2F,0xF0
0.032011540,1,0x0E,0x01
0.032017400,1,0x2E,0x01
0.032022680,1,0x80,0xF0
0.032028420,1,0x2F,0xF0
0.032033700,1,0x12,0x01
0.032039540,1,0x2E,0x01
0.032044840,1,0xF0,0xF0
0.032050560,1,0x2F,0xF0
0.032055860,1,0x00,0x01
0.032061760,1,0x2E,0x01
0.032067060,1,0x87,0xF0
0.032072780,1,0x2F,0xF0
0.032078080,1,0xB4,0x01
0.032083920,1,0x2E,0x01
0.032089200,1,0xF0,0xF0
0.032094940,1,0x2F,0xF0
0.032100220,1,0x00,0x01
0.032106080,1,0x2E,0x01
0.032111360,1,0x28,0xF0
0.032117080,1,0x2F,0xF0
0.032122380,1,0x12,0x01
0.032128240,1,0x2E,0x01
0.032133520,1,0xF8,0xF0
0.032139240,1,0x2F,0xF0
0.032144540,1,0x08,0x01
0.032150440,1,0x2E,0x01
0.032155740,1,0xE2,0xF0
0.032161460,1,0x2F,0xF0
0.032166740,1,0xB2,0x01
0.032172600,1,0x2E,0x01
0.032177900,1,0xCB,0xF0
0.032183620,1,0x2F,0xF0
0.032188900,1,0x20,0x01
0.032194760,1,0x2E,0x01
0.032200060,1,0x48,0xF0
0.032205780,1,0x2F,0xF0
0.032211060,1,0x02,0x01
0.032216900,1,0x2E,0x01
0.032222200,1,0xCB,0xF0
0.032227940,1,0x2F,0xF0
0.032233220,1,0x02,0x01
0.032239140,1,0x2E,0x01
0.032244440,1,0x88,0xF0
0.032250160,1,0x2F,0xF0
0.032255460,1,0x34,0x01
0.032261300,1,0x2E,0x01
0.032266600,1,0x44,0xF0
0.032272320,1,0x2F,0xF0
0.032277600,1,0x02,0x01
0.032283440,1,0x2E,0x01
0.032288740,1,0x8C,0xF0
0.032294460,1,0x2F,0xF0
0.032299760,1,0x32,0x01
0.032305600,1,0x2E,0x01
0.032310880,1,0x28,0xF0
0.032316620,1,0x2F,0xF0
0.032321900,1,0x58,0x01
0.032327800,1,0x2E,0x01
0.032333100,1,0xF8,0xF0
0.032338820,1,0x2F,0xF0
0.032344120,1,0x02,0x01
0.032349960,1,0x2E,0x01
0.032355240,1,0xE8,0xF0
0.032360960,1,0x2F,0xF0
0.032366260,1,0xA8,0x01
0.032372100,1,0x2E,0x01
0.032377400,1,0xCB,0xF0
0.032383120,1,0x2F,0xF0
0.032388400,1,0x12,0x01
0.032394260,1,0x2E,0x01
0.032399560,1,0xC2,0xF0
0.032405280,1,0x2F,0xF0
0.032410560,1,0x81,0x01
0.032416480,1,0x2E,0x01
0.032421760,1,0xCB,0xF0
0.032427480,1,0x2F,0xF0
0.032432780,1,0x21,0x01
0.032438620,1,0x2E,0x01
0.032443920,1,0x8C,0xF0
0.032449640,1,0x2F,0xF0
0.032454940,1,0x06,0x01
0.032460780,1,0x2E,0x01
0.032466060,1,0x60,0xF0
0.032471800,1,0x2F,0xF0
0.032477080,1,0x01,0x01
0.032482920,1,0x2E,0x01
0.032488220,1,0xF8,0xF0
0.032493960,1,0x2F,0xF0
0.032499260,1,0x0B,0x01
0.032505160,1,0x2E,0x01
0.032510440,1,0x6E,0xF0
0.032516160,1,0x2F,0xF0
0.032521460,1,0x10,0x01
0.032527320,1,0x2E,0x01
0.032532600,1,0x3A,0xF0
0.032538320,1,0x2F,0xF0
0.032543620,1,0x01,0x01
0.032549480,1,0x2E,0x01
0.032554760,1,0xBC,0xF0
0.032560480,1,0x2F,0xF0
0.032565760,1,0x00,0x01
0.032571620,1,0x2E,0x01
0.032576900,1,0x3F,0xF0
0.032582640,1,0x2F,0xF0
0.032587920,1,0x00,0x01
0.032593840,1,0x2E,0x01
0.032599140,1,0x29,0xF0
0.032604840,1,0x2F,0xF0
0.032610140,1,0x22,0x01
0.032615980,1,0x2E,0x01
0.032621280,1,0x60,0xF0
0.032627000,1,0x2F,0xF0
0.032632300,1,0x21,0x01
0.032638140,1,0x2E,0x01
0.032643440,1,0x44,0xF0
0.032649160,1,0x2F,0xF0
0.032654440,1,0x02,0x01
0.032660300,1,0x2E,0x01
0.032665580,1,0xF8,0xF0
0.032671320,1,0x2F,0xF0
0.032676600,1,0x02,0x01
0.032682500,1,0x2E,0x01
0.032687800,1,0x68,0xF0
0.032693520,1,0x2F,0xF0
0.032698800,1,0x08,0x01
0.032704660,1,0x2E,0x01
0.032709940,1,0x8F,0xF0
0.032715660,1,0x2F,0xF0
0.032720960,1,0xF5,0x01
0.032726800,1,0x2E,0x01
0.032732080,1,0x28,0xF0
0.032737820,1,0x2F,0xF0
0.032743100,1,0x12,0x01
0.032748940,1,0x2E,0x01
0.032754240,1,0xF8,0xF0
0.032759960,1,0x2F,0xF0
0.032765260,1,0x08,0x01
0.032771160,1,0x2E,0x01
0.032776460,1,0xE2,0xF0
0.032782180,1,0x2F,0xF0
0.032787460,1,0xB2,0x01
0.032793320,1,0x2E,0x01
0.032798600,1,0xF8,0xF0
0.032804320,1,0x2F,0xF0
0.032809620,1,0x02,0x01
0.032815460,1,0x2E,0x01
0.032820740,1,0x80,0xF0
0.032826460,1,0x2F,0xF0
0.032831760,1,0xF3,0x01
0.032837600,1,0x2E,0x01
0.032842900,1,0xF0,0xF0
0.032848620,1,0x2F,0xF0
0.032853900,1,0x00,0x01
0.032859800,1,0x2E,0x01
0.032865100,1,0x41,0xF0
0.032870820,1,0x2F,0xF0
0.032876100,1,0x82,0x01
0.032881960,1,0x2E,0x01
0.032887240,1,0x88,0xF0
0.032892980,1,0x2F,0xF0
0.032898260,1,0x08,0x01
0.032904100,1,0x2E,0x01
0.032909400,1,0x28,0xF0
0.032915120,1,0x2F,0xF0
0.032920400,1,0x78,0x01
0.032926240,1,0x2E,0x01
0.032931540,1,0xF8,0xF0
0.032937260,1,0x2F,0xF0
0.032942560,1,0x01,0x01
0.032948460,1,0x2E,0x01
0.032953760,1,0x6E,0xF0
0.032959480,1,0x2F,0xF0
0.032964780,1,0x09,0x01
0.032970620,1,0x2E,0x01
0.032975920,1,0xD9,0xF0
0.032981640,1,0x2F,0xF0
0.032986940,1,0x98,0x01
0.032992780,1,0x2E,0x01
0.032998080,1,0xF8,0xF0
0.033003800,1,0x2F,0xF0
0.033009100,1,0x02,0x01
0.033014940,1,0x2E,0x01
0.033020240,1,0x80,0xF0
0.033025960,1,0x2F,0xF0
0.033031240,1,0xFB,0x01
0.033037140,1,0x2E,0x01
0.033042440,1,0xF0,0xF0
0.033048160,1,0x2F,0xF0
0.033053440,1,0x00,0x01
0.033059300,1,0x2E,0x01
0.033064600,1,0x8F,0xF0
0.033070320,1,0x2F,0xF0
0.033075600,1,0xE5,0x01
0.033081440,1,0x2E,0x01
0.033086740,1,0x28,0xF0
0.033092480,1,0x2F,0xF0
0.033097760,1,0x62,0x01
0.033103600,1,0x2E,0x01
0.033108900,1,0xF8,0xF0
0.033114620,1,0x2F,0xF0
0.033119920,1,0x08,0x01
0.033125820,1,0x2E,0x01
0.033131100,1,0x80,0xF0
0.033136840,1,0x2F,0xF0
0.033142120,1,0xB5,0x01
0.033147960,1,0x2E,0x01
0.033153260,1,0xF0,0xF0
0.033158980,1,0x2F,0xF0
0.033164280,1,0x00,0x01
0.033170120,1,0x2E,0x01
0.033175420,1,0x60,0xF0
0.033181140,1,0x2F,0xF0
0.033186440,1,0x41,0x01
0.033192300,1,0x2E,0x01
0.033197580,1,0xF8,0xF0
0.033203300,1,0x2F,0xF0
0.033208600,1,0x02,0x01
0.033214520,1,0x2E,0x01
0.033219820,1,0xE2,0xF0
0.033225540,1,0x2F,0xF0
0.033230840,1,0xA2,0x01
0.033236700,1,0x2E,0x01
0.033242000,1,0xF8,0xF0
0.033247720,1,0x2F,0xF0
0.033253000,1,0x0C,0x01
0.033258860,1,0x2E,0x01
0.033264160,1,0x6E,0xF0
0.033269880,1,0x2F,0xF0
0.033275160,1,0x60,0x01
0.033281020,1,0x2E,0x01
0.033286320,1,0x3B,0xF0
0.033292040,1,0x2F,0xF0
0.033297320,1,0x02,0x01
0.033303240,1,0x2E,0x01
0.033308540,1,0xF8,0xF0
0.033314260,1,0x2F,0xF0
0.033319540,1,0x02,0x01
0.033325400,1,0x2E,0x01
0.033330680,1,0x80,0xF0
0.033336420,1,0x2F,0xF0
0.033341700,1,0xEF,0x01
0.033347540,1,0x2E,0x01
0.033352840,1,0x3A,0xF0
0.033358580,1,0x2F,0xF0
0.033363860,1,0x01,0x01
0.033369720,1,0x2E,0x01
0.033375000,1,0xBC,0xF0
0.033380740,1,0x2F,0xF0
0.033386040,1,0x00,0x01
0.033391960,1,0x2E,0x01
0.033397240,1,0x3F,0xF0
0.033402960,1,0x2F,0xF0
0.033408260,1,0x00,0x01
0.033414120,1,0x2E,0x01
0.033419400,1,0xF8,0xF0
0.033425120,1,0x2F,0xF0
0.033430420,1,0x08,0x01
0.033436280,1,0x2E,0x01
0.033441560,1,0x80,0xF0
0.033447280,1,0x2F,0xF0
0.033452580,1,0xB5,0x01
0.033458420,1,0x2E,0x01
0.033463720,1,0xF0,0xF0
0.033469440,1,0x2F,0xF0
0.033474720,1,0x00,0x01
0.033480640,1,0x2E,0x01
0.033485940,1,0x28,0xF0
0.033491660,1,0x2F,0xF0
0.033496940,1,0x58,0x01
0.033502800,1,0x2E,0x01
0.033508100,1,0xF8,0xF0
0.033513820,1,0x2F,0xF0
0.033519100,1,0x08,0x01
0.033524940,1,0x2E,0x01
0.033530240,1,0x6D,0xF0
0.033535960,1,0x2F,0xF0
0.033541240,1,0xD0,0x01
0.033547100,1,0x2E,0x01
0.033552380,1,0x3B,0xF0
0.033558120,1,0x2F,0xF0
0.033563400,1,0x08,0x01
0.033569300,1,0x2E,0x01
0.033574600,1,0xBC,0xF0
0.033580320,1,0x2F,0xF0
0.033585620,1,0x00,0x01
0.033591460,1,0x2E,0x01
0.033596760,1,0x3F,0xF0
0.033602480,1,0x2F,0xF0
0.033607780,1,0x00,0x01
0.033613620,1,0x2E,0x01
0.033618900,1,0xF8,0xF0
0.033624620,1,0x2F,0xF0
0.033629920,1,0x00,0x01
0.033635780,1,0x2E,0x01
0.033641060,1,0x60,0xF0
0.033646780,1,0x2F,0xF0
0.033652080,1,0x00,0x01
0.033657980,1,0x2E,0x01
0.033663280,1,0x35,0xF0
0.033669000,1,0x2F,0xF0
0.033674300,1,0x50,0x01
0.033680140,1,0x2E,0x01
0.033685420,1,0xF8,0xF0
0.033691140,1,0x2F,0xF0
0.033696440,1,0x05,0x01
0.033702280,1,0x2E,0x01
0.033707580,1,0x60,0xF0
0.033713300,1,0x2F,0xF0
0.033718580,1,0x50,0x01
0.033724420,1,0x2E,0x01
0.033729720,1,0x35,0xF0
0.033735440,1,0x2F,0xF0
0.033740740,1,0x60,0x01
0.033746640,1,0x2E,0x01
0.033751940,1,0xF8,0xF0
0.033757660,1,0x2F,0xF0
0.033762940,1,0x01,0x01
0.033768780,1,0x2E,0x01
0.033774080,1,0x60,0xF0
0.033779800,1,0x2F,0xF0
0.033785100,1,0x40,0x01
0.033790940,1,0x2E,0x01
0.033796220,1,0xBC,0xF0
0.033801940,1,0x2F,0xF0
0.033807240,1,0x00,0x01
0.033813080,1,0x2E,0x01
0.033818380,1,0x35,0xF0
0.033824100,1,0x2F,0xF0
0.033829400,1,0x80,0x01
0.033835300,1,0x2E,0x01
0.033840580,1,0x60,0xF0
0.033846300,1,0x2F,0xF0
0.033851600,1,0x00,0x01
0.033857440,1,0x2E,0x01
0.033862720,1,0x39,0xF0
0.033868440,1,0x2F,0xF0
0.033873720,1,0x20,0x01
0.033879580,1,0x2E,0x01
0.033884860,1,0xF8,0xF0
0.033890580,1,0x2F,0xF0
0.033895860,1,0x09,0x01
0.033901720,1,0x2E,0x01
0.033907000,1,0x80,0xF0
0.033912720,1,0x2F,0xF0
0.033918020,1,0xAF,0x01
0.033923920,1,0x2E,0x01
0.033929220,1,0x67,0xF0
0.033934940,1,0x2F,0xF0
0.033940220,1,0x6A,0x01
0.033946080,1,0x2E,0x01
0.033951380,1,0xC9,0xF0
0.033957100,1,0x2F,0xF0
0.033962380,1,0x00,0x01
0.033968220,1,0x2E,0x01
0.033973520,1,0xF8,0xF0
0.033979240,1,0x2F,0xF0
0.033984540,1,0x0B,0x01
0.033990380,1,0x2E,0x01
0.033995660,1,0x88,0xF0
0.034001400,1,0x2F,0xF0
0.034006700,1,0x80,0x01
0.034012600,1,0x2E,0x01
0.034017880,1,0xF0,0xF0
0.034023600,1,0x2F,0xF0
0.034028900,1,0x00,0x01
0.034034740,1,0x2E,0x01
0.034040040,1,0xF8,0xF0
0.034045760,1,0x2F,0xF0
0.034051060,1,0x03,0x01
0.034056900,1,0x2E,0x01
0.034062200,1,0x80,0xF0
0.034067920,1,0x2F,0xF0
0.034073200,1,0x98,0x01
0.034079060,1,0x2E,0x01
0.034084340,1,0xF0,0xF0
0.034090060,1,0x2F,0xF0
0.034095360,1,0x00,0x01
0.034101260,1,0x2E,0x01
0.034106560,1,0xF8,0xF0
0.034112280,1,0x2F,0xF0
0.034117560,1,0x00,0x01
0.034123400,1,0x2E,0x01
0.034128700,1,0x80,0xF0
0.034134420,1,0x2F,0xF0
0.034139700,1,0xAB,0x01
0.034145540,1,0x2E,0x01
0.034150840,1,0xF0,0xF0
0.034156560,1,0x2F,0xF0
0.034161860,1,0x00,0x01
0.034167700,1,0x2E,0x01
0.034172980,1,0xF8,0xF0
0.034178720,1,0x2F,0xF0
0.034184000,1,0x04,0x01
0.034189900,1,0x2E,0x01
0.034195200,1,0x80,0xF0
0.034200920,1,0x2F,0xF0
0.034206220,1,0x3B,0x01
0.034212060,1,0x2E,0x01
0.034217340,1,0xF0,0xF0
0.034223060,1,0x2F,0xF0
0.034228360,1,0x00,0x01
0.034234200,1,0x2E,0x01
0.034239480,1,0x88,0xF0
0.034245200,1,0x2F,0xF0
0.034250500,1,0x47,0x01
0.034256360,1,0x2E,0x01
0.034261640,1,0xF0,0xF0
0.034267360,1,0x2F,0xF0
0.034272640,1,0x00,0x01
0.034278560,1,0x2E,0x01
0.034283840,1,0xF8,0xF0
0.034289580,1,0x2F,0xF0
0.034294860,1,0x05,0x01
0.034300720,1,0x2E,0x01
0.034306000,1,0x80,0xF0
0.034311720,1,0x2F,0xF0
0.034317020,1,0x1B,0x01
0.034322860,1,0x2E,0x01
0.034328160,1,0xF0,0xF0
0.034333880,1,0x2F,0xF0
0.034339160,1,0x00,0x01
0.034345000,1,0x2E,0x01
0.034350300,1,0xF8,0xF0
0.034356020,1,0x2F,0xF0
0.034361300,1,0x02,0x01
0.034367200,1,0x2E,0x01
0.034372500,1,0x80,0xF0
0.034378240,1,0x2F,0xF0
0.034383520,1,0x66,0x01
0.034389360,1,0x2E,0x01
0.034394660,1,0xF0,0xF0
0.034400380,1,0x2F,0xF0
0.034405680,1,0x00,0x01
0.034411520,1,0x2E,0x01
0.034416800,1,0xC9,0xF0
0.034422520,1,0x2F,0xF0
0.034427820,1,0x00,0x01
0.034433680,1,0x2E,0x01
0.034438960,1,0x8C,0xF0
0.034444680,1,0x2F,0xF0
0.034449980,1,0x03,0x01
0.034455880,1,0x2E,0x01
0.034461180,1,0xF0,0xF0
0.034466880,1,0x2F,0xF0
0.034472180,1,0x00,0x01
0.034478020,1,0x2E,0x01
0.034483320,1,0x60,0xF0
0.034489040,1,0x2F,0xF0
0.034494320,1,0x01,0x01
0.034500180,1,0x2E,0x01
0.034505460,1,0x60,0xF0
0.034511180,1,0x2F,0xF0
0.034516480,1,0x02,0x01
0.034522320,1,0x2E,0x01
0.034527620,1,0xF8,0xF0
0.034533340,1,0x2F,0xF0
0.034538620,1,0x05,0x01
0.034544520,1,0x2E,0x01
0.034549820,1,0x80,0xF0
0.034555540,1,0x2F,0xF0
0.034560840,1,0x24,0x01
0.034566680,1,0x2E,0x01
0.034571980,1,0xF0,0xF0
0.034577700,1,0x2F,0xF0
0.034582980,1,0x00,0x01
0.034588820,1,0x2E,0x01
0.034594120,1,0xF8,0xF0
0.034599840,1,0x2F,0xF0
0.034605140,1,0x04,0x01
0.034610980,1,0x2E,0x01
0.034616280,1,0x80,0xF0
0.034622000,1,0x2F,0xF0
0.034627300,1,0x00,0x01
0.034633200,1,0x2E,0x01
0.034638480,1,0xF0,0xF0
0.034644200,1,0x2F,0xF0
0.034649500,1,0x00,0x01
0.034655340,1,0x2E,0x01
0.034660640,1,0x39,0xF0
0.034666360,1,0x2F,0xF0
0.034671660,1,0x73,0x01
0.034677500,1,0x2E,0x01
0.034682780,1,0x11,0xF0
0.034688500,1,0x2F,0xF0
0.034693800,1,0x03,0x01
0.034699660,1,0x2E,0x01
0.034704940,1,0x60,0xF0
0.034710660,1,0x2F,0xF0
0.034715960,1,0x40,0x01
0.034721860,1,0x2E,0x01
0.034727160,1,0x94,0xF0
0.034732880,1,0x2F,0xF0
0.034738180,1,0x37,0x01
0.034744020,1,0x2E,0x01
0.034749320,1,0x39,0xF0
0.034755040,1,0x2F,0xF0
0.034760320,1,0x20,0x01
0.034766160,1,0x2E,0x01
0.034771460,1,0xF8,0xF0
0.034777180,1,0x2F,0xF0
0.034782460,1,0x04,0x01
0.034788300,1,0x2E,0x01
0.034793600,1,0x80,0xF0
0.034799320,1,0x2F,0xF0
0.034804600,1,0xB0,0x01
0.034810520,1,0x2E,0x01
0.034815800,1,0xF0,0xF0
0.034821540,1,0x2F,0xF0
0.034826820,1,0x00,0x01
0.034832660,1,0x2E,0x01
0.034837960,1,0xF8,0xF0
0.034843680,1,0x2F,0xF0
0.034848980,1,0x04,0x01
0.034854820,1,0x2E,0x01
0.034860100,1,0x80,0xF0
0.034865820,1,0x2F,0xF0
0.034871120,1,0x8F,0x01
0.034876960,1,0x2E,0x01
0.034882240,1,0xF0,0xF0
0.034887960,1,0x2F,0xF0
0.034893260,1,0x00,0x01
0.034899160,1,0x2E,0x01
0.034904440,1,0xF8,0xF0
0.034910160,1,0x2F,0xF0
0.034915460,1,0x01,0x01
0.034921320,1,0x2E,0x01
0.034926600,1,0x80,0xF0
0.034932320,1,0x2F,0xF0
0.034937600,1,0x79,0x01
0.034943460,1,0x2E,0x01
0.034948740,1,0xF0,0xF0
0.034954460,1,0x2F,0xF0
0.034959740,1,0x00,0x01
0.034965600,1,0x2E,0x01
0.034970880,1,0xF8,0xF0
0.034976600,1,0x2F,0xF0
0.034981900,1,0x04,0x01
0.034987800,1,0x2E,0x01
0.034993100,1,0x80,0xF0
0.034998820,1,0x2F,0xF0
0.035004100,1,0xA0,0x01
0.035009960,1,0x2E,0x01
0.035015240,1,0xF0,0xF0
0.035020980,1,0x2F,0xF0
0.035026260,1,0x00,0x01
0.035032100,1,0x2E,0x01
0.035037400,1,0xF8,0xF0
0.035043120,1,0x2F,0xF0
0.035048420,1,0x00,0x01
0.035054260,1,0x2E,0x01
0.035059540,1,0x68,0xF0
0.035065260,1,0x2F,0xF0
0.035070560,1,0x86,0x01
0.035076460,1,0x2E,0x01
0.035081740,1,0x28,0xF0
0.035087460,1,0x2F,0xF0
0.035092760,1,0x68,0x01
0.035098600,1,0x2E,0x01
0.035103880,1,0xF8,0xF0
0.035109600,1,0x2F,0xF0
0.035114880,1,0x02,0x01
0.035120720,1,0x2E,0x01
0.035126020,1,0xE8,0xF0
0.035131720,1,0x2F,0xF0
0.035137020,1,0xA8,0x01
0.035142860,1,0x2E,0x01
0.035148160,1,0xCB,0xF0
0.035153860,1,0x2F,0xF0
0.035159160,1,0x29,0x01
0.035165060,1,0x2E,0x01
0.035170360,1,0xCB,0xF0
0.035176080,1,0x2F,0xF0
0.035181360,1,0x8A,0x01
0.035187200,1,0x2E,0x01
0.035192500,1,0xC2,0xF0
0.035198220,1,0x2F,0xF0
0.035203500,1,0x62,0x01
0.035209340,1,0x2E,0x01
0.035214640,1,0xCB,0xF0
0.035220360,1,0x2F,0xF0
0.035225640,1,0x92,0x01
0.035231480,1,0x2E,0x01
0.035236780,1,0x60,0xF0
0.035242500,1,0x2F,0xF0
0.035247780,1,0x09,0x01
0.035253680,1,0x2E,0x01
0.035258980,1,0x90,0xF0
0.035264700,1,0x2F,0xF0
0.035270000,1,0x06,0x01
0.035275840,1,0x2E,0x01
0.035281120,1,0x60,0xF0
0.035286840,1,0x2F,0xF0
0.035292140,1,0x0B,0x01
0.035297980,1,0x2E,0x01
0.035303260,1,0xF8,0xF0
0.035308980,1,0x2F,0xF0
0.035314280,1,0x22,0x01
0.035320120,1,0x2E,0x01
0.035325400,1,0x6F,0xF0
0.035331120,1,0x2F,0xF0
0.035336420,1,0x0D,0x01
0.035342320,1,0x2E,0x01
0.035347620,1,0xCC,0xF0
0.035353320,1,0x2F,0xF0
0.035358620,1,0xD1,0x01
0.035364460,1,0x2E,0x01
0.035369760,1,0x84,0xF0
0.035375480,1,0x2F,0xF0
0.035380760,1,0x1A,0x01
0.035386600,1,0x2E,0x01
0.035391900,1,0xCC,0xF0
0.035397620,1,0x2F,0xF0
0.035402900,1,0xD2,0x01
0.035408760,1,0x2E,0x01
0.035414040,1,0xF8,0xF0
0.035419760,1,0x2F,0xF0
0.035425060,1,0x01,0x01
0.035430960,1,0x2E,0x01
0.035436260,1,0x80,0xF0
0.035441980,1,0x2F,0xF0
0.035447280,1,0x58,0x01
0.035453120,1,0x2E,0x01
0.035458420,1,0xF0,0xF0
0.035464140,1,0x2F,0xF0
0.035469440,1,0x00,0x01
0.035475280,1,0x2E,0x01
0.035480560,1,0xF8,0xF0
0.035486300,1,0x2F,0xF0
0.035491600,1,0x01,0x01
0.035497440,1,0x2E,0x01
0.035502720,1,0x80,0xF0
0.035508440,1,0x2F,0xF0
0.035513740,1,0xB8,0x01
0.035519640,1,0x2E,0x01
0.035524940,1,0xF0,0xF0
0.035530660,1,0x2F,0xF0
0.035535940,1,0x00,0x01
0.035541800,1,0x2E,0x01
0.035547080,1,0x80,0xF0
0.035552800,1,0x2F,0xF0
0.035558100,1,0x30,0x01
0.035563940,1,0x2E,0x01
0.035569240,1,0xF0,0xF0
0.035574960,1,0x2F,0xF0
0.035580240,1,0x00,0x01
0.035586100,1,0x2E,0x01
0.035591400,1,0x29,0xF0
0.035597120,1,0x2F,0xF0
0.035602400,1,0x20,0x01
0.035608320,1,0x2E,0x01
0.035613600,1,0x44,0xF0
0.035619320,1,0x2F,0xF0
0.035624620,1,0x00,0x01
0.035630460,1,0x2E,0x01
0.035635760,1,0x88,0xF0
0.035641500,1,0x2F,0xF0
0.035646780,1,0x4E,0x01
0.035652620,1,0x2E,0x01
0.035657920,1,0x60,0xF0
0.035663640,1,0x2F,0xF0
0.035668940,1,0x01,0x01
0.035674780,1,0x2E,0x01
0.035680080,1,0xF8,0xF0
0.035685820,1,0x2F,0xF0
0.035691120,1,0x00,0x01
0.035697020,1,0x2E,0x01
0.035702320,1,0x80,0xF0
0.035708040,1,0x2F,0xF0
0.035713340,1,0x5F,0x01
0.035719180,1,0x2E,0x01
0.035724460,1,0x60,0xF0
0.035730200,1,0x2F,0xF0
0.035735480,1,0x02,0x01
0.035741320,1,0x2E,0x01
0.035746620,1,0xF8,0xF0
0.035752340,1,0x2F,0xF0
0.035757640,1,0x0C,0x01
0.035763480,1,0x2E,0x01
0.035768780,1,0x6E,0xF0
0.035774500,1,0x2F,0xF0
0.035779780,1,0x60,0x01
0.035785700,1,0x2E,0x01
0.035790980,1,0x3F,0xF0
0.035796700,1,0x2F,0xF0
0.035802000,1,0x00,0x01
0.035807840,1,0x2E,0x01
0.035813140,1,0xE0,0xF0
0.035818860,1,0x2F,0xF0
0.035824140,1,0xF0,0x01
0.035829980,1,0x2E,0x01
0.035835280,1,0x60,0xF0
0.035841000,1,0x2F,0xF0
0.035846300,1,0x01,0x01
0.035852140,1,0x2E,0x01
0.035857440,1,0xF8,0xF0
0.035863160,1,0x2F,0xF0
0.035868440,1,0x22,0x01
0.035874340,1,0x2E,0x01
0.035879640,1,0x6F,0xF0
0.035885360,1,0x2F,0xF0
0.035890660,1,0x2D,0x01
0.035896500,1,0x2E,0x01
0.035901780,1,0x60,0xF0
0.035907520,1,0x2F,0xF0
0.035912800,1,0x02,0x01
0.035918640,1,0x2E,0x01
0.035923920,1,0xCD,0xF0
0.035929660,1,0x2F,0xF0
0.035934940,1,0xD1,0x01
0.035940780,1,0x2E,0x01
0.035946080,1,0xCD,0xF0
0.035951800,1,0x2F,0xF0
0.035957080,1,0xD2,0x01
0.035963000,1,0x2E,0x01
0.035968280,1,0xF8,0xF0
0.035974000,1,0x2F,0xF0
0.035979300,1,0x03,0x01
0.035985140,1,0x2E,0x01
0.035990420,1,0xE1,0xF0
0.035996140,1,0x2F,0xF0
0.036001420,1,0xA1,0x01
0.036007280,1,0x2E,0x01
0.036012560,1,0xF8,0xF0
0.036018280,1,0x2F,0xF0
0.036023560,1,0x03,0x01
0.036029420,1,0x2E,0x01
0.036034720,1,0xE2,0xF0
0.036040420,1,0x2F,0xF0
0.036045720,1,0xA2,0x01
0.036051640,1,0x2E,0x01
0.036056920,1,0xF8,0xF0
0.036062640,1,0x2F,0xF0
0.036067940,1,0x00,0x01
0.036073780,1,0x2E,0x01
0.036079080,1,0x80,0xF0
0.036084800,1,0x2F,0xF0
0.036090080,1,0x5F,0x01
0.036095920,1,0x2E,0x01
0.036101220,1,0xF0,0xF0
0.036106940,1,0x2F,0xF0
0.036112240,1,0x00,0x01
0.036118080,1,0x2E,0x01
0.036123380,1,0xF8,0xF0
0.036129100,1,0x2F,0xF0
0.036134400,1,0x03,0x01
0.036140300,1,0x2E,0x01
0.036145580,1,0x80,0xF0
0.036151300,1,0x2F,0xF0
0.036156600,1,0x17,0x01
0.036162440,1,0x2E,0x01
0.036167720,1,0xF0,0xF0
0.036173440,1,0x2F,0xF0
0.036178740,1,0x00,0x01
0.036184580,1,0x2E,0x01
0.036189860,1,0xF8,0xF0
0.036195580,1,0x2F,0xF0
0.036200880,1,0x09,0x01
0.036206720,1,0x2E,0x01
0.036212000,1,0x80,0xF0
0.036217720,1,0x2F,0xF0
0.036223020,1,0xEE,0x01
0.036228920,1,0x2E,0x01
0.036234220,1,0xF0,0xF0
0.036239920,1,0x2F,0xF0
0.036245220,1,0x00,0x01
0.036251060,1,0x2E,0x01
0.036256360,1,0xF8,0xF0
0.036262080,1,0x2F,0xF0
0.036267360,1,0x08,0x01
0.036273220,1,0x2E,0x01
0.036278520,1,0x80,0xF0
0.036284240,1,0x2F,0xF0
0.036289520,1,0xB5,0x01
0.036295360,1,0x2E,0x01
0.036300660,1,0xF0,0xF0
0.036306380,1,0x2F,0xF0
0.036311660,1,0x00,0x01
0.036317560,1,0x2E,0x01
0.036322840,1,0x60,0xF0
0.036328560,1,0x2F,0xF0
0.036333860,1,0xA0,0x01
0.036339700,1,0x2E,0x01
0.036344980,1,0x64,0xF0
0.036350720,1,0x2F,0xF0
0.036356000,1,0x01,0x01
0.036361840,1,0x2E,0x01
0.036367140,1,0x3B,0xF0
0.036372860,1,0x2F,0xF0
0.036378160,1,0x00,0x01
0.036384000,1,0x2E,0x01
0.036389280,1,0x3A,0xF0
0.036395000,1,0x2F,0xF0
0.036400300,1,0x01,0x01
0.036406200,1,0x2E,0x01
0.036411480,1,0x60,0xF0
0.036417200,1,0x2F,0xF0
0.036422500,1,0x41,0x01
0.036428340,1,0x2E,0x01
0.036433640,1,0xF8,0xF0
0.036439360,1,0x2F,0xF0
0.036444640,1,0x08,0x01
0.036450500,1,0x2E,0x01
0.036455800,1,0x60,0xF0
0.036461500,1,0x2F,0xF0
0.036466800,1,0xD0,0x01
0.036472640,1,0x2E,0x01
0.036477940,1,0x3B,0xF0
0.036483660,1,0x2F,0xF0
0.036488940,1,0x11,0x01
0.036494860,1,0x2E,0x01
0.036500140,1,0xF8,0xF0
0.036505860,1,0x2F,0xF0
0.036511140,1,0x22,0x01
0.036516980,1,0x2E,0x01
0.036522280,1,0x6F,0xF0
0.036528000,1,0x2F,0xF0
0.036533280,1,0x7C,0x01
0.036539120,1,0x2E,0x01
0.036544400,1,0xF8,0xF0
0.036550120,1,0x2F,0xF0
0.036555420,1,0x02,0x01
0.036561260,1,0x2E,0x01
0.036566540,1,0x80,0xF0
0.036572280,1,0x2F,0xF0
0.036577560,1,0x4A,0x01
0.036583460,1,0x2E,0x01
0.036588760,1,0x3F,0xF0
0.036594480,1,0x2F,0xF0
0.036599780,1,0x00,0x01
0.036605620,1,0x2E,0x01
0.036610900,1,0xE0,0xF0
0.036616620,1,0x2F,0xF0
0.036621920,1,0xF0,0x01
0.036627780,1,0x2E,0x01
0.036633060,1,0x2A,0xF0
0.036638780,1,0x2F,0xF0
0.036644080,1,0x00,0x01
0.036649920,1,0x2E,0x01
0.036655220,1,0x40,0xF0
0.036660920,1,0x2F,0xF0
0.036666220,1,0x20,0x01
0.036672140,1,0x2E,0x01
0.036677420,1,0x88,0xF0
0.036683140,1,0x2F,0xF0
0.036688440,1,0x1A,0x01
0.036694280,1,0x2E,0x01
0.036699580,1,0x28,0xF0
0.036705300,1,0x2F,0xF0
0.036710580,1,0x11,0x01
0.036716420,1,0x2E,0x01
0.036721720,1,0x29,0xF0
0.036727440,1,0x2F,0xF0
0.036732740,1,0x20,0x01
0.036738580,1,0x2E,0x01
0.036743880,1,0xF8,0xF0
0.036749600,1,0x2F,0xF0
0.036754900,1,0x08,0x01
0.036760800,1,0x2E,0x01
0.036766100,1,0xE1,0xF0
0.036771820,1,0x2F,0xF0
0.036777120,1,0xB1,0x01
0.036782960,1,0x2E,0x01
0.036788260,1,0x40,0xF0
0.036793980,1,0x2F,0xF0
0.036799280,1,0x81,0x01
0.036805120,1,0x2E,0x01
0.036810420,1,0x88,0xF0
0.036816140,1,0x2F,0xF0
0.036821440,1,0x14,0x01
0.036827280,1,0x2E,0x01
0.036832580,1,0x44,0xF0
0.036838300,1,0x2F,0xF0
0.036843600,1,0x00,0x01
0.036849520,1,0x2E,0x01
0.036854800,1,0xF8,0xF0
0.036860540,1,0x2F,0xF0
0.036865840,1,0x01,0x01
0.036871680,1,0x2E,0x01
0.036876980,1,0x65,0xF0
0.036882700,1,0x2F,0xF0
0.036888000,1,0x48,0x01
0.036893860,1,0x2E,0x01
0.036899140,1,0x8C,0xF0
0.036904860,1,0x2F,0xF0
0.036910160,1,0x0D,0x01
0.036916000,1,0x2E,0x01
0.036921300,1,0xF0,0xF0
0.036927020,1,0x2F,0xF0
0.036932300,1,0x00,0x01
0.036938220,1,0x2E,0x01
0.036943500,1,0xF8,0xF0
0.036949240,1,0x2F,0xF0
0.036954520,1,0x0F,0x01
0.036960360,1,0x2E,0x01
0.036965660,1,0x6A,0xF0
0.036971380,1,0x2F,0xF0
0.036976680,1,0x09,0x01
0.036982520,1,0x2E,0x01
0.036987800,1,0xF8,0xF0
0.036993540,1,0x2F,0xF0
0.036998820,1,0x03,0x01
0.037004660,1,0x2E,0x01
0.037009960,1,0x80,0xF0
0.037015680,1,0x2F,0xF0
0.037020980,1,0x04,0x01
0.037026880,1,0x2E,0x01
0.037032160,1,0xF0,0xF0
0.037037880,1,0x2F,0xF0
0.037043180,1,0x00,0x01
0.037049020,1,0x2E,0x01
0.037054320,1,0x60,0xF0
0.037060040,1,0x2F,0xF0
0.037065340,1,0x01,0x01
0.037071180,1,0x2E,0x01
0.037076480,1,0xF8,0xF0
0.037082200,1,0x2F,0xF0
0.037087480,1,0x03,0x01
0.037093340,1,0x2E,0x01
0.037098620,1,0x80,0xF0
0.037104340,1,0x2F,0xF0
0.037109640,1,0x10,0x01
0.037115560,1,0x2E,0x01
0.037120840,1,0x28,0xF0
0.037126580,1,0x2F,0xF0
0.037131860,1,0x88,0x01
0.037137700,1,0x2E,0x01
0.037143000,1,0xC9,0xF0
0.037148720,1,0x2F,0xF0
0.037154020,1,0x11,0x01
0.037159860,1,0x2E,0x01
0.037165160,1,0x88,0xF0
0.037170880,1,0x2F,0xF0
0.037176160,1,0x04,0x01
0.037182020,1,0x2E,0x01
0.037187300,1,0xF0,0xF0
0.037193020,1,0x2F,0xF0
0.037198320,1,0x00,0x01
0.037204220,1,0x2E,0x01
0.037209520,1,0x60,0xF0
0.037215240,1,0x2F,0xF0
0.037220520,1,0x40,0x01
0.037226360,1,0x2E,0x01
0.037231660,1,0xBC,0xF0
0.037237380,1,0x2F,0xF0
0.037242680,1,0x00,0x01
0.037248520,1,0x2E,0x01
0.037253820,1,0x3A,0xF0
0.037259540,1,0x2F,0xF0
0.037264840,1,0x00,0x01
0.037270680,1,0x2E,0x01
0.037275960,1,0x60,0xF0
0.037281700,1,0x2F,0xF0
0.037287000,1,0x60,0x01
0.037292900,1,0x2E,0x01
0.037298200,1,0x60,0xF0
0.037303920,1,0x2F,0xF0
0.037309200,1,0x21,0x01
0.037315060,1,0x2E,0x01
0.037320340,1,0x3A,0xF0
0.037326060,1,0x2F,0xF0
0.037331360,1,0x00,0x01
0.037337200,1,0x2E,0x01
0.037342500,1,0xBC,0xF0
0.037348220,1,0x2F,0xF0
0.037353500,1,0x00,0x01
0.037359360,1,0x2E,0x01
0.037364660,1,0x3B,0xF0
0.037370380,1,0x2F,0xF0
0.037375660,1,0x11,0x01
0.037381560,1,0x2E,0x01
0.037386860,1,0xF8,0xF0
0.037392600,1,0x2F,0xF0
0.037397880,1,0x00,0x01
0.037403720,1,0x2E,0x01
0.037409020,1,0x80,0xF0
0.037414740,1,0x2F,0xF0
0.037420040,1,0x9E,0x01
0.037425880,1,0x2E,0x01
0.037431160,1,0xF0,0xF0
0.037436900,1,0x2F,0xF0
0.037442200,1,0x00,0x01
0.037448040,1,0x2E,0x01
0.037453340,1,0xF8,0xF0
0.037459060,1,0x2F,0xF0
0.037464360,1,0x0C,0x01
0.037470260,1,0x2E,0x01
0.037475560,1,0x6E,0xF0
0.037481280,1,0x2F,0xF0
0.037486580,1,0x61,0x01
0.037492420,1,0x2E,0x01
0.037497700,1,0x20,0xF0
0.037503420,1,0x2F,0xF0
0.037508720,1,0xB0,0x01
0.037514580,1,0x2E,0x01
0.037519860,1,0xF8,0xF0
0.037525580,1,0x2F,0xF0
0.037530880,1,0x09,0x01
0.037536740,1,0x2E,0x01
0.037542020,1,0x80,0xF0
0.037547740,1,0x2F,0xF0
0.037553040,1,0xE6,0x01
0.037558960,1,0x2E,0x01
0.037564260,1,0x3F,0xF0
0.037569980,1,0x2F,0xF0
0.037575280,1,0x01,0x01
0.037581140,1,0x2E,0x01
0.037586440,1,0xE0,0xF0
0.037592160,1,0x2F,0xF0
0.037597440,1,0xF0,0x01
0.037603280,1,0x2E,0x01
0.037608580,1,0x29,0xF0
0.037614300,1,0x2F,0xF0
0.037619600,1,0x20,0x01
0.037625440,1,0x2E,0x01
0.037630720,1,0x26,0xF0
0.037636460,1,0x2F,0xF0
0.037641740,1,0xBD,0x01
0.037647640,1,0x2E,0x01
0.037652940,1,0xCC,0xF0
0.037658660,1,0x2F,0xF0
0.037663960,1,0xF4,0x01
0.037669800,1,0x2E,0x01
0.037675080,1,0x50,0xF0
0.037680820,1,0x2F,0xF0
0.037686100,1,0x80,0x01
0.037691940,1,0x2E,0x01
0.037697240,1,0xCC,0xF0
0.037702960,1,0x2F,0xF0
0.037708260,1,0xF5,0x01
0.037714100,1,0x2E,0x01
0.037719380,1,0x39,0xF0
0.037725100,1,0x2F,0xF0
0.037730400,1,0x20,0x01
0.037736300,1,0x2E,0x01
0.037741600,1,0xCC,0xF0
0.037747320,1,0x2F,0xF0
0.037752600,1,0xF6,0x01
0.037758460,1,0x2E,0x01
0.037763760,1,0xC2,0xF0
0.037769480,1,0x2F,0xF0
0.037774760,1,0x4D,0x01
0.037780600,1,0x2E,0x01
0.037785900,1,0x26,0xF0
0.037791620,1,0x2F,0xF0
0.037796920,1,0xBD,0x01
0.037802760,1,0x2E,0x01
0.037808060,1,0xAC,0xF0
0.037813780,1,0x2F,0xF0
0.037819060,1,0x58,0x01
0.037824980,1,0x2E,0x01
0.037830260,1,0x01,0xF0
0.037836000,1,0x2F,0xF0
0.037841280,1,0x8F,0x01
0.037847120,1,0x2E,0x01
0.037852400,1,0xC2,0xF0
0.037858120,1,0x2F,0xF0
0.037863420,1,0x5D,0x01
0.037869260,1,0x2E,0x01
0.037874560,1,0x26,0xF0
0.037880280,1,0x2F,0xF0
0.037885580,1,0xBD,0x01
0.037891420,1,0x2E,0x01
0.037896700,1,0xAC,0xF0
0.037902440,1,0x2F,0xF0
0.037907720,1,0x54,0x01
0.037913640,1,0x2E,0x01
0.037918920,1,0xC0,0xF0
0.037924640,1,0x2F,0xF0
0.037929940,1,0x54,0x01
0.037935800,1,0x2E,0x01
0.037941080,1,0xC2,0xF0
0.037946800,1,0x2F,0xF0
0.037952080,1,0x6D,0x01
0.037957940,1,0x2E,0x01
0.037963220,1,0x26,0xF0
0.037968940,1,0x2F,0xF0
0.037974240,1,0xBD,0x01
0.037980080,1,0x2E,0x01
0.037985380,1,0xAC,0xF0
0.037991100,1,0x2F,0xF0
0.037996400,1,0x50,0x01
0.038002300,1,0x2E,0x01
0.038007600,1,0xC0,0xF0
0.038013320,1,0x2F,0xF0
0.038018600,1,0x56,0x01
0.038024460,1,0x2E,0x01
0.038029740,1,0xCC,0xF0
0.038035480,1,0x2F,0xF0
0.038040760,1,0xF7,0x01
0.038046600,1,0x2E,0x01
0.038051900,1,0xCC,0xF0
0.038057620,1,0x2F,0xF0
0.038062900,1,0xF8,0x01
0.038068740,1,0x2E,0x01
0.038074040,1,0xC2,0xF0
0.038079760,1,0x2F,0xF0
0.038085040,1,0x7D,0x01
0.038090940,1,0x2E,0x01
0.038096240,1,0x26,0xF0
0.038101960,1,0x2F,0xF0
0.038107240,1,0xBD,0x01
0.038113080,1,0x2E,0x01
0.038118380,1,0xAC,0xF0
0.038124100,1,0x2F,0xF0
0.038129380,1,0x4A,0x01
0.038135220,1,0x2E,0x01
0.038140520,1,0xCC,0xF0
0.038146240,1,0x2F,0xF0
0.038151520,1,0xF9,0x01
0.038157380,1,0x2E,0x01
0.038162660,1,0x01,0xF0
0.038168380,1,0x2F,0xF0
0.038173660,1,0x8F,0x01
0.038179580,1,0x2E,0x01
0.038184860,1,0xC2,0xF0
0.038190580,1,0x2F,0xF0
0.038195860,1,0x9D,0x01
0.038201720,1,0x2E,0x01
0.038207000,1,0x26,0xF0
0.038212720,1,0x2F,0xF0
0.038218020,1,0xBD,0x01
0.038223860,1,0x2E,0x01
0.038229160,1,0xAC,0xF0
0.038234860,1,0x2F,0xF0
0.038240160,1,0x45,0x01
0.038246000,1,0x2E,0x01
0.038251300,1,0xC0,0xF0
0.038257020,1,0x2F,0xF0
0.038262300,1,0x74,0x01
0.038268220,1,0x2E,0x01
0.038273500,1,0xC0,0xF0
0.038279240,1,0x2F,0xF0
0.038284520,1,0x96,0x01
0.038290360,1,0x2E,0x01
0.038295660,1,0xCC,0xF0
0.038301380,1,0x2F,0xF0
0.038306680,1,0xFA,0x01
0.038312520,1,0x2E,0x01
0.038317800,1,0xCC,0xF0
0.038323520,1,0x2F,0xF0
0.038328820,1,0xFB,0x01
0.038334660,1,0x2E,0x01
0.038339940,1,0xC2,0xF0
0.038345660,1,0x2F,0xF0
0.038350960,1,0xAD,0x01
0.038356880,1,0x2E,0x01
0.038362160,1,0x26,0xF0
0.038367880,1,0x2F,0xF0
0.038373180,1,0xBD,0x01
0.038379040,1,0x2E,0x01
0.038384320,1,0xAC,0xF0
0.038390040,1,0x2F,0xF0
0.038395340,1,0x3E,0x01
0.038401180,1,0x2E,0x01
0.038406480,1,0xCC,0xF0
0.038412200,1,0x2F,0xF0
0.038417480,1,0xFC,0x01
0.038423320,1,0x2E,0x01
0.038428620,1,0xC2,0xF0
0.038434340,1,0x2F,0xF0
0.038439620,1,0xBD,0x01
0.038445520,1,0x2E,0x01
0.038450820,1,0x26,0xF0
0.038456540,1,0x2F,0xF0
0.038461820,1,0xBD,0x01
0.038467660,1,0x2E,0x01
0.038472960,1,0xAC,0xF0
0.038478680,1,0x2F,0xF0
0.038483960,1,0x3A,0x01
0.038489800,1,0x2E,0x01
0.038495080,1,0xC0,0xF0
0.038500820,1,0x2F,0xF0
0.038506100,1,0x7A,0x01
0.038511940,1,0x2E,0x01
0.038517240,1,0xC2,0xF0
0.038522960,1,0x2F,0xF0
0.038528260,1,0xCD,0x01
0.038534160,1,0x2E,0x01
0.038539440,1,0x26,0xF0
0.038545160,1,0x2F,0xF0
0.038550460,1,0xBD,0x01
0.038556300,1,0x2E,0x01
0.038561600,1,0xAC,0xF0
0.038567320,1,0x2F,0xF0
0.038572600,1,0x36,0x01
0.038578460,1,0x2E,0x01
0.038583740,1,0xC0,0xF0
0.038589460,1,0x2F,0xF0
0.038594760,1,0x9C,0x01
0.038600600,1,0x2E,0x01
0.038605900,1,0xC0,0xF0
0.038611620,1,0x2F,0xF0
0.038616920,1,0xBA,0x01
0.038622820,1,0x2E,0x01
0.038628120,1,0xC0,0xF0
0.038633840,1,0x2F,0xF0
0.038639120,1,0xBC,0x01
0.038644980,1,0x2E,0x01
0.038650260,1,0xCB,0xF0
0.038655980,1,0x2F,0xF0
0.038661260,1,0x45,0x01
0.038667120,1,0x2E,0x01
0.038672400,1,0xC2,0xF0
0.038678140,1,0x2F,0xF0
0.038683420,1,0x64,0x01
0.038689260,1,0x2E,0x01
0.038694560,1,0xCB,0xF0
0.038700300,1,0x2F,0xF0
0.038705580,1,0x54,0x01
0.038711480,1,0x2E,0x01
0.038716780,1,0xA8,0xF0
0.038722500,1,0x2F,0xF0
0.038727800,1,0x0C,0x01
0.038733640,1,0x2E,0x01
0.038738920,1,0xCB,0xF0
0.038744660,1,0x2F,0xF0
0.038749940,1,0xA5,0x01
0.038755780,1,0x2E,0x01
0.038761080,1,0xC2,0xF0
0.038766800,1,0x2F,0xF0
0.038772100,1,0xCA,0x01
0.038777940,1,0x2E,0x01
0.038783240,1,0xCB,0xF0
0.038788960,1,0x2F,0xF0
0.038794240,1,0x5A,0x01
0.038800160,1,0x2E,0x01
0.038805440,1,0xA8,0xF0
0.038811160,1,0x2F,0xF0
0.038816460,1,0x14,0x01
0.038822300,1,0x2E,0x01
0.038827600,1,0xCB,0xF0
0.038833300,1,0x2F,0xF0
0.038838600,1,0x65,0x01
0.038844440,1,0x2E,0x01
0.038849740,1,0xC2,0xF0
0.038855440,1,0x2F,0xF0
0.038860740,1,0xC6,0x01
0.038866580,1,0x2E,0x01
0.038871880,1,0xCB,0xF0
0.038877600,1,0x2F,0xF0
0.038882880,1,0x56,0x01
0.038888780,1,0x2E,0x01
0.038894080,1,0xA8,0xF0
0.038899800,1,0x2F,0xF0
0.038905100,1,0x1E,0x01
0.038910940,1,0x2E,0x01
0.038916240,1,0x60,0xF0
0.038921960,1,0x2F,0xF0
0.038927240,1,0x01,0x01
0.038933080,1,0x2E,0x01
0.038938380,1,0x62,0xF0
0.038944100,1,0x2F,0xF0
0.038949380,1,0x02,0x01
0.038955220,1,0x2E,0x01
0.038960520,1,0xBC,0xF0
0.038966240,1,0x2F,0xF0
0.038971540,1,0x00,0x01
0.038977440,1,0x2E,0x01
0.038982720,1,0x12,0xF0
0.038988440,1,0x2F,0xF0
0.038993740,1,0x01,0x01
0.038999580,1,0x2E,0x01
0.039004860,1,0xC2,0xF0
0.039010600,1,0x2F,0xF0
0.039015880,1,0xCA,0x01
0.039021740,1,0x2E,0x01
0.039027020,1,0xCB,0xF0
0.039032740,1,0x2F,0xF0
0.039038040,1,0x5A,0x01
0.039043880,1,0x2E,0x01
0.039049180,1,0xA8,0xF0
0.039054900,1,0x2F,0xF0
0.039060180,1,0x10,0x01
0.039066100,1,0x2E,0x01
0.039071400,1,0xCB,0xF0
0.039077100,1,0x2F,0xF0
0.039082400,1,0x45,0x01
0.039088240,1,0x2E,0x01
0.039093540,1,0xC2,0xF0
0.039099260,1,0x2F,0xF0
0.039104540,1,0xC4,0x01
0.039110380,1,0x2E,0x01
0.039115680,1,0xCB,0xF0
0.039121400,1,0x2F,0xF0
0.039126680,1,0x54,0x01
0.039132520,1,0x2E,0x01
0.039137820,1,0xAF,0xF0
0.039143540,1,0x2F,0xF0
0.039148840,1,0xF6,0x01
0.039154740,1,0x2E,0x01
0.039160020,1,0x60,0xF0
0.039165760,1,0x2F,0xF0
0.039171040,1,0x01,0x01
0.039176900,1,0x2E,0x01
0.039182180,1,0x60,0xF0
0.039187900,1,0x2F,0xF0
0.039193200,1,0x02,0x01
0.039199040,1,0x2E,0x01
0.039204340,1,0x62,0xF0
0.039210060,1,0x2F,0xF0
0.039215360,1,0x01,0x01
0.039221200,1,0x2E,0x01
0.039226500,1,0xBC,0xF0
0.039232220,1,0x2F,0xF0
0.039237500,1,0x00,0x01
0.039243420,1,0x2E,0x01
0.039248700,1,0x12,0xF0
0.039254420,1,0x2F,0xF0
0.039259720,1,0x02,0x01
0.039265580,1,0x2E,0x01
0.039270860,1,0xC2,0xF0
0.039276580,1,0x2F,0xF0
0.039281880,1,0xA6,0x01
0.039287740,1,0x2E,0x01
0.039293040,1,0xCB,0xF0
0.039298760,1,0x2F,0xF0
0.039304040,1,0x56,0x01
0.039309900,1,0x2E,0x01
0.039315200,1,0xA8,0xF0
0.039320920,1,0x2F,0xF0
0.039326200,1,0x0B,0x01
0.039332100,1,0x2E,0x01
0.039337400,1,0x60,0xF0
0.039343120,1,0x2F,0xF0
0.039348420,1,0x01,0x01
0.039354260,1,0x2E,0x01
0.039359540,1,0x62,0xF0
0.039365260,1,0x2F,0xF0
0.039370560,1,0x01,0x01
0.039376400,1,0x2E,0x01
0.039381680,1,0xBC,0xF0
0.039387420,1,0x2F,0xF0
0.039392700,1,0x00,0x01
0.039398540,1,0x2E,0x01
0.039403840,1,0x62,0xF0
0.039409560,1,0x2F,0xF0
0.039414860,1,0x02,0x01
0.039420760,1,0x2E,0x01
0.039426040,1,0xC2,0xF0
0.039431760,1,0x2F,0xF0
0.039437060,1,0xA4,0x01
0.039442900,1,0x2E,0x01
0.039448200,1,0xCB,0xF0
0.039453920,1,0x2F,0xF0
0.039459200,1,0x54,0x01
0.039465060,1,0x2E,0x01
0.039470340,1,0xAB,0xF0
0.039476060,1,0x2F,0xF0
0.039481360,1,0xF3,0x01
0.039487200,1,0x2E,0x01
0.039492480,1,0x60,0xF0
0.039498200,1,0x2F,0xF0
0.039503500,1,0x02,0x01
0.039509400,1,0x2E,0x01
0.039514700,1,0x62,0xF0
0.039520420,1,0x2F,0xF0
0.039525700,1,0x01,0x01
0.039531560,1,0x2E,0x01
0.039536840,1,0xBC,0xF0
0.039542580,1,0x2F,0xF0
0.039547860,1,0x00,0x01
0.039553700,1,0x2E,0x01
0.039559000,1,0x62,0xF0
0.039564740,1,0x2F,0xF0
0.039570020,1,0x02,0x01
0.039575860,1,0x2E,0x01
0.039581160,1,0x60,0xF0
0.039586880,1,0x2F,0xF0
0.039592180,1,0x02,0x01
0.039598080,1,0x2E,0x01
0.039603380,1,0x12,0xF0
0.039609100,1,0x2F,0xF0
0.039614400,1,0x01,0x01
0.039620240,1,0x2E,0x01
0.039625520,1,0xBC,0xF0
0.039631260,1,0x2F,0xF0
0.039636540,1,0x00,0x01
0.039642380,1,0x2E,0x01
0.039647660,1,0x12,0xF0
0.039653380,1,0x2F,0xF0
0.039658680,1,0x02,0x01
0.039664520,1,0x2E,0x01
0.039669820,1,0xF8,0xF0
0.039675540,1,0x2F,0xF0
0.039680820,1,0x22,0x01
0.039686740,1,0x2E,0x01
0.039692020,1,0x6F,0xF0
0.039697740,1,0x2F,0xF0
0.039703040,1,0x2D,0x01
0.039708880,1,0x2E,0x01
0.039714160,1,0xCC,0xF0
0.039719880,1,0x2F,0xF0
0.039725180,1,0xD1,0x01
0.039731020,1,0x2E,0x01
0.039736320,1,0xBC,0xF0
0.039742040,1,0x2F,0xF0
0.039747320,1,0x00,0x01
0.039753160,1,0x2E,0x01
0.039758460,1,0xCC,0xF0
0.039764180,1,0x2F,0xF0
0.039769460,1,0xD2,0x01
0.039775360,1,0x2E,0x01
0.039780660,1,0xF8,0xF0
0.039786380,1,0x2F,0xF0
0.039791680,1,0x01,0x01
0.039797520,1,0x2E,0x01
0.039802800,1,0x60,0xF0
0.039808540,1,0x2F,0xF0
0.039813820,1,0x0D,0x01
0.039819660,1,0x2E,0x01
0.039824960,1,0xC9,0xF0
0.039830680,1,0x2F,0xF0
0.039835980,1,0xD0,0x01
0.039841820,1,0x2E,0x01
0.039847100,1,0xBC,0xF0
0.039852840,1,0x2F,0xF0
0.039858120,1,0x00,0x01
0.039864040,1,0x2E,0x01
0.039869320,1,0x39,0xF0
0.039875040,1,0x2F,0xF0
0.039880340,1,0x20,0x01
0.039886200,1,0x2E,0x01
0.039891480,1,0xCB,0xF0
0.039897200,1,0x2F,0xF0
0.039902480,1,0x1A,0x01
0.039908340,1,0x2E,0x01
0.039913620,1,0xF8,0xF0
0.039919340,1,0x2F,0xF0
0.039924620,1,0x02,0x01
0.039930480,1,0x2E,0x01
0.039935780,1,0xEA,0xF0
0.039941480,1,0x2F,0xF0
0.039946780,1,0xAA,0x01
0.039952680,1,0x2E,0x01
0.039957980,1,0xCB,0xF0
0.039963700,1,0x2F,0xF0
0.039969000,1,0x8B,0x01
0.039974840,1,0x2E,0x01
0.039980140,1,0xC2,0xF0
0.039985860,1,0x2F,0xF0
0.039991160,1,0xA8,0x01
0.039997000,1,0x2E,0x01
0.040002300,1,0xCB,0xF0
0.040008020,1,0x2F,0xF0
0.040013320,1,0xB8,0x01
0.040019160,1,0x2E,0x01
0.040024460,1,0x90,0xF0
0.040030180,1,0x2F,0xF0
0.040035480,1,0x02,0x01
0.040041380,1,0x2E,0x01
0.040046680,1,0xF0,0xF0
0.040052400,1,0x2F,0xF0
0.040057700,1,0x00,0x01
0.040063540,1,0x2E,0x01
0.040068820,1,0xCB,0xF0
0.040074540,1,0x2F,0xF0
0.040079840,1,0xA8,0x01
0.040085680,1,0x2E,0x01
0.040090960,1,0xBC,0xF0
0.040096680,1,0x2F,0xF0
0.040101980,1,0x00,0x01
0.040107820,1,0x2E,0x01
0.040113100,1,0xF0,0xF0
0.040118820,1,0x2F,0xF0
0.040124100,1,0x00,0x01
0.040130020,1,0x2E,0x01
0.040135300,1,0xF8,0xF0
0.040141020,1,0x2F,0xF0
0.040146300,1,0x13,0x01
0.040152140,1,0x2E,0x01
0.040157440,1,0x6E,0xF0
0.040163160,1,0x2F,0xF0
0.040168440,1,0xC9,0x01
0.040174280,1,0x2E,0x01
0.040179580,1,0xF8,0xF0
0.040185300,1,0x2F,0xF0
0.040190580,1,0x01,0x01
0.040196420,1,0x2E,0x01
0.040201720,1,0x84,0xF0
0.040207440,1,0x2F,0xF0
0.040212720,1,0x4F,0x01
0.040218620,1,0x2E,0x01
0.040223900,1,0xC2,0xF0
0.040229640,1,0x2F,0xF0
0.040234920,1,0x39,0x01
0.040240760,1,0x2E,0x01
0.040246040,1,0xF8,0xF0
0.040251780,1,0x2F,0xF0
0.040257060,1,0x7D,0x01
0.040262900,1,0x2E,0x01
0.040268180,1,0x60,0xF0
0.040273900,1,0x2F,0xF0
0.040279200,1,0x09,0x01
0.040285040,1,0x2E,0x01
0.040290320,1,0xC2,0xF0
0.040296040,1,0x2F,0xF0
0.040301340,1,0x39,0x01
0.040307240,1,0x2E,0x01
0.040312540,1,0x97,0xF0
0.040318260,1,0x2F,0xF0
0.040323540,1,0xF5,0x01
0.040329400,1,0x2E,0x01
0.040334680,1,0xCB,0xF0
0.040340400,1,0x2F,0xF0
0.040345680,1,0x29,0x01
0.040351540,1,0x2E,0x01
0.040356820,1,0x50,0xF0
0.040362540,1,0x2F,0xF0
0.040367820,1,0x1B,0x01
0.040373680,1,0x2E,0x01
0.040378980,1,0x12,0xF0
0.040384700,1,0x2F,0xF0
0.040389980,1,0x09,0x01
0.040395880,1,0x2E,0x01
0.040401180,1,0x97,0xF0
0.040406900,1,0x2F,0xF0
0.040412180,1,0xF1,0x01
0.040418020,1,0x2E,0x01
0.040423320,1,0xF0,0xF0
0.040429040,1,0x2F,0xF0
0.040434320,1,0x00,0x01
0.040440160,1,0x2E,0x01
0.040445440,1,0xBC,0xF0
0.040451160,1,0x2F,0xF0
0.040456460,1,0x00,0x01
0.040462280,1,0x2E,0x01
0.040467580,1,0x54,0xF0
0.040473300,1,0x2F,0xF0
0.040478580,1,0x0B,0x01
0.040484480,1,0x2E,0x01
0.040489780,1,0xCB,0xF0
0.040495500,1,0x2F,0xF0
0.040500780,1,0xB9,0x01
0.040506620,1,0x2E,0x01
0.040511900,1,0x48,0xF0
0.040517620,1,0x2F,0xF0
0.040522920,1,0x0B,0x01
0.040528760,1,0x2E,0x01
0.040534040,1,0xCB,0xF0
0.040539760,1,0x2F,0xF0
0.040545040,1,0x9B,0x01
0.040550900,1,0x2E,0x01
0.040556180,1,0xF8,0xF0
0.040561900,1,0x2F,0xF0
0.040567180,1,0x01,0x01
0.040573100,1,0x2E,0x01
0.040578380,1,0x88,0xF0
0.040584100,1,0x2F,0xF0
0.040589380,1,0x74,0x01
0.040595240,1,0x2E,0x01
0.040600520,1,0xCB,0xF0
0.040606240,1,0x2F,0xF0
0.040611520,1,0x09,0x01
0.040617360,1,0x2E,0x01
0.040622660,1,0x10,0xF0
0.040628380,1,0x2F,0xF0
0.040633660,1,0xC0,0x01
0.040639500,1,0x2E,0x01
0.040644800,1,0xCB,0xF0
0.040650520,1,0x2F,0xF0
0.040655800,1,0x90,0x01
0.040661700,1,0x2E,0x01
0.040667000,1,0xF8,0xF0
0.040672720,1,0x2F,0xF0
0.040678000,1,0x01,0x01
0.040683840,1,0x2E,0x01
0.040689120,1,0x94,0xF0
0.040694860,1,0x2F,0xF0
0.040700140,1,0x74,0x01
0.040705980,1,0x2E,0x01
0.040711260,1,0xCB,0xF0
0.040716980,1,0x2F,0xF0
0.040722280,1,0xB9,0x01
0.040728120,1,0x2E,0x01
0.040733400,1,0x40,0xF0
0.040739140,1,0x2F,0xF0
0.040744420,1,0x1B,0x01
0.040750340,1,0x2E,0x01
0.040755620,1,0xCB,0xF0
0.040761340,1,0x2F,0xF0
0.040766620,1,0x9B,0x01
0.040772480,1,0x2E,0x01
0.040777760,1,0xF8,0xF0
0.040783480,1,0x2F,0xF0
0.040788780,1,0x01,0x01
0.040794620,1,0x2E,0x01
0.040799920,1,0x8C,0xF0
0.040805620,1,0x2F,0xF0
0.040810920,1,0x54,0x01
0.040816760,1,0x2E,0x01
0.040822060,1,0xF0,0xF0
0.040827760,1,0x2F,0xF0
0.040833060,1,0x00,0x01
0.040838960,1,0x2E,0x01
0.040844260,1,0xF8,0xF0
0.040849980,1,0x2F,0xF0
0.040855260,1,0x10,0x01
0.040861100,1,0x2E,0x01
0.040866400,1,0x6C,0xF0
0.040872120,1,0x2F,0xF0
0.040877400,1,0xC9,0x01
0.040883260,1,0x2E,0x01
0.040888540,1,0xC2,0xF0
0.040894280,1,0x2F,0xF0
0.040899560,1,0x39,0x01
0.040905400,1,0x2E,0x01
0.040910680,1,0xF8,0xF0
0.040916420,1,0x2F,0xF0
0.040921700,1,0x01,0x01
0.040927600,1,0x2E,0x01
0.040932900,1,0x94,0xF0
0.040938620,1,0x2F,0xF0
0.040943900,1,0x74,0x01
0.040949740,1,0x2E,0x01
0.040955040,1,0xF0,0xF0
0.040960760,1,0x2F,0xF0
0.040966060,1,0x00,0x01
0.040971900,1,0x2E,0x01
0.040977200,1,0xBC,0xF0
0.040982900,1,0x2F,0xF0
0.040988200,1,0x00,0x01
0.040994060,1,0x2E,0x01
0.040999340,1,0x52,0xF0
0.041005060,1,0x2F,0xF0
0.041010340,1,0x0B,0x01
0.041016260,1,0x2E,0x01
0.041021560,1,0xF8,0xF0
0.041027260,1,0x2F,0xF0
0.041032560,1,0x22,0x01
0.041038400,1,0x2E,0x01
0.041043700,1,0x6F,0xF0
0.041049420,1,0x2F,0xF0
0.041054720,1,0xFD,0x01
0.041060560,1,0x2E,0x01
0.041065840,1,0xCC,0xF0
0.041071580,1,0x2F,0xF0
0.041076860,1,0xDA,0x01
0.041082700,1,0x2E,0x01
0.041088000,1,0xF8,0xF0
0.041093720,1,0x2F,0xF0
0.041099020,1,0x01,0x01
0.041104920,1,0x2E,0x01
0.041110220,1,0x6F,0xF0
0.041115940,1,0x2F,0xF0
0.041121240,1,0xFB,0x01
0.041127080,1,0x2E,0x01
0.041132360,1,0xC0,0xF0
0.041138080,1,0x2F,0xF0
0.041143380,1,0xA0,0x01
0.041149200,1,0x2E,0x01
0.041154500,1,0xC0,0xF0
0.041160220,1,0x2F,0xF0
0.041165500,1,0xA2,0x01
0.041171340,1,0x2E,0x01
0.041176640,1,0xCB,0xF0
0.041182360,1,0x2F,0xF0
0.041187640,1,0xBA,0x01
0.041193560,1,0x2E,0x01
0.041198840,1,0xC2,0xF0
0.041204560,1,0x2F,0xF0
0.041209840,1,0x0B,0x01
0.041215700,1,0x2E,0x01
0.041220980,1,0xCB,0xF0
0.041226700,1,0x2F,0xF0
0.041231980,1,0xAB,0x01
0.041237820,1,0x2E,0x01
0.041243120,1,0x90,0xF0
0.041248840,1,0x2F,0xF0
0.041254120,1,0x08,0x01
0.041259960,1,0x2E,0x01
0.041265260,1,0xC2,0xF0
0.041270980,1,0x2F,0xF0
0.041276260,1,0x2B,0x01
0.041282160,1,0x2E,0x01
0.041287460,1,0xCB,0xF0
0.041293180,1,0x2F,0xF0
0.041298460,1,0xAB,0x01
0.041304300,1,0x2E,0x01
0.041309600,1,0x90,0xF0
0.041315320,1,0x2F,0xF0
0.041320600,1,0x05,0x01
0.041326440,1,0x2E,0x01
0.041331720,1,0xF0,0xF0
0.041337440,1,0x2F,0xF0
0.041342740,1,0x00,0x01
0.041348580,1,0x2E,0x01
0.041353860,1,0x80,0xF0
0.041359580,1,0x2F,0xF0
0.041364880,1,0xD3,0x01
0.041370780,1,0x2E,0x01
0.041376060,1,0xF0,0xF0
0.041381780,1,0x2F,0xF0
0.041387080,1,0x00,0x01
0.041392920,1,0x2E,0x01
0.041398200,1,0xBC,0xF0
0.041403920,1,0x2F,0xF0
0.041409220,1,0x00,0x01
0.041415060,1,0x2E,0x01
0.041420360,1,0xF0,0xF0
0.041426060,1,0x2F,0xF0
0.041431360,1,0x00,0x01
0.041437200,1,0x2E,0x01
0.041442500,1,0xF8,0xF0
0.041448200,1,0x2F,0xF0
0.041453500,1,0x23,0x01
0.041459400,1,0x2E,0x01
0.041464700,1,0x60,0xF0
0.041470400,1,0x2F,0xF0
0.041475700,1,0x0D,0x01
0.041481540,1,0x2E,0x01
0.041486840,1,0xCD,0xF0
0.041492560,1,0x2F,0xF0
0.041497840,1,0xD0,0x01
0.041503680,1,0x2E,0x01
0.041508980,1,0xCD,0xF0
0.041514700,1,0x2F,0xF0
0.041519980,1,0xD2,0x01
0.041525820,1,0x2E,0x01
0.041531120,1,0xCD,0xF0
0.041536840,1,0x2F,0xF0
0.041542120,1,0xD4,0x01
0.041548020,1,0x2E,0x01
0.041553300,1,0xCD,0xF0
0.041559040,1,0x2F,0xF0
0.041564320,1,0xD6,0x01
0.041570160,1,0x2E,0x01
0.041575460,1,0xE0,0xF0
0.041581180,1,0x2F,0xF0
0.041586480,1,0x00,0x01
0.041592320,1,0x2E,0x01
0.041597600,1,0xE0,0xF0
0.041603320,1,0x2F,0xF0
0.041608620,1,0x02,0x01
0.041614460,1,0x2E,0x01
0.041619740,1,0xE0,0xF0
0.041625460,1,0x2F,0xF0
0.041630760,1,0x04,0x01
0.041636660,1,0x2E,0x01
0.041641940,1,0x80,0xF0
0.041647660,1,0x2F,0xF0
0.041652960,1,0xC6,0x01
0.041658800,1,0x2E,0x01
0.041664100,1,0xE0,0xF0
0.041669800,1,0x2F,0xF0
0.041675100,1,0x06,0x01
0.041680940,1,0x2E,0x01
0.041686240,1,0xF8,0xF0
0.041691960,1,0x2F,0xF0
0.041697240,1,0x23,0x01
0.041703100,1,0x2E,0x01
0.041708380,1,0x60,0xF0
0.041714100,1,0x2F,0xF0
0.041719400,1,0x0D,0x01
0.041725300,1,0x2E,0x01
0.041730600,1,0xCC,0xF0
0.041736320,1,0x2F,0xF0
0.041741620,1,0xD0,0x01
0.041747460,1,0x2E,0x01
0.041752740,1,0xCC,0xF0
0.041758480,1,0x2F,0xF0
0.041763760,1,0xD2,0x01
0.041769620,1,0x2E,0x01
0.041774900,1,0xCC,0xF0
0.041780640,1,0x2F,0xF0
0.041785920,1,0xD4,0x01
0.041791760,1,0x2E,0x01
0.041797060,1,0xBC,0xF0
0.041802780,1,0x2F,0xF0
0.041808080,1,0x00,0x01
0.041813980,1,0x2E,0x01
0.041819260,1,0xCC,0xF0
0.041825000,1,0x2F,0xF0
0.041830280,1,0xD6,0x01
0.041836140,1,0x2E,0x01
0.041841420,1,0xF8,0xF0
0.041847140,1,0x2F,0xF0
0.041852420,1,0x22,0x01
0.041858280,1,0x2E,0x01
0.041863560,1,0x6F,0xF0
0.041869280,1,0x2F,0xF0
0.041874580,1,0xFD,0x01
0.041880420,1,0x2E,0x01
0.041885700,1,0xCB,0xF0
0.041891420,1,0x2F,0xF0
0.041896720,1,0x1F,0x01
0.041902620,1,0x2E,0x01
0.041907920,1,0x11,0xF0
0.041913620,1,0x2F,0xF0
0.041918920,1,0x91,0x01
0.041924760,1,0x2E,0x01
0.041930060,1,0xCB,0xF0
0.041935780,1,0x2F,0xF0
0.041941060,1,0xF1,0x01
0.041946900,1,0x2E,0x01
0.041952200,1,0x93,0xF0
0.041957920,1,0x2F,0xF0
0.041963200,1,0xD8,0x01
0.041969040,1,0x2E,0x01
0.041974340,1,0xCC,0xF0
0.041980060,1,0x2F,0xF0
0.041985360,1,0xDA,0x01
0.041991260,1,0x2E,0x01
0.041996540,1,0x60,0xF0
0.042002260,1,0x2F,0xF0
0.042007560,1,0x0B,0x01
0.042013400,1,0x2E,0x01
0.042018700,1,0xCB,0xF0
0.042024420,1,0x2F,0xF0
0.042029700,1,0xAF,0x01
0.042035540,1,0x2E,0x01
0.042040840,1,0x10,0xF0
0.042046560,1,0x2F,0xF0
0.042051860,1,0x6A,0x01
0.042057700,1,0x2E,0x01
0.042062980,1,0xCB,0xF0
0.042068700,1,0x2F,0xF0
0.042074000,1,0xFA,0x01
0.042079920,1,0x2E,0x01
0.042085200,1,0x93,0xF0
0.042090920,1,0x2F,0xF0
0.042096200,1,0xD2,0x01
0.042102060,1,0x2E,0x01
0.042107340,1,0xF0,0xF0
0.042113060,1,0x2F,0xF0
0.042118360,1,0x00,0x01
0.042124200,1,0x2E,0x01
0.042129500,1,0xE0,0xF0
0.042135220,1,0x2F,0xF0
0.042140520,1,0x01,0x01
0.042146360,1,0x2E,0x01
0.042151660,1,0x11,0xF0
0.042157380,1,0x2F,0xF0
0.042162680,1,0x9A,0x01
0.042168580,1,0x2E,0x01
0.042173880,1,0xCB,0xF0
0.042179620,1,0x2F,0xF0
0.042184900,1,0xFA,0x01
0.042190740,1,0x2E,0x01
0.042196040,1,0x90,0xF0
0.042201760,1,0x2F,0xF0
0.042207040,1,0x08,0x01
0.042212880,1,0x2E,0x01
0.042218180,1,0xF0,0xF0
0.042223900,1,0x2F,0xF0
0.042229200,1,0x00,0x01
0.042235020,1,0x2E,0x01
0.042240320,1,0xE0,0xF0
0.042246040,1,0x2F,0xF0
0.042251340,1,0x01,0x01
0.042257240,1,0x2E,0x01
0.042262520,1,0x16,0xF0
0.042268260,1,0x2F,0xF0
0.042273540,1,0x4A,0x01
0.042279380,1,0x2E,0x01
0.042284680,1,0xCB,0xF0
0.042290380,1,0x2F,0xF0
0.042295680,1,0xFA,0x01
0.042301520,1,0x2E,0x01
0.042306800,1,0x90,0xF0
0.042312520,1,0x2F,0xF0
0.042317800,1,0x02,0x01
0.042323660,1,0x2E,0x01
0.042328940,1,0xF0,0xF0
0.042334660,1,0x2F,0xF0
0.042339940,1,0x00,0x01
0.042345840,1,0x2E,0x01
0.042351140,1,0xE0,0xF0
0.042356860,1,0x2F,0xF0
0.042362140,1,0x01,0x01
0.042367980,1,0x2E,0x01
0.042373280,1,0x68,0xF0
0.042379000,1,0x2F,0xF0
0.042384280,1,0x0B,0x01
0.042390120,1,0x2E,0x01
0.042395400,1,0xCB,0xF0
0.042401140,1,0x2F,0xF0
0.042406420,1,0x2F,0x01
0.042412260,1,0x2E,0x01
0.042417560,1,0xC0,0xF0
0.042423280,1,0x2F,0xF0
0.042428580,1,0xA2,0x01
0.042434480,1,0x2E,0x01
0.042439760,1,0xCB,0xF0
0.042445500,1,0x2F,0xF0
0.042450780,1,0x1A,0x01
0.042456620,1,0x2E,0x01
0.042461900,1,0xC2,0xF0
0.042467620,1,0x2F,0xF0
0.042472920,1,0x62,0x01
0.042478760,1,0x2E,0x01
0.042484040,1,0xCB,0xF0
0.042489760,1,0x2F,0xF0
0.042495060,1,0xF2,0x01
0.042500900,1,0x2E,0x01
0.042506180,1,0x90,0xF0
0.042511900,1,0x2F,0xF0
0.042517200,1,0x02,0x01
0.042523100,1,0x2E,0x01
0.042528380,1,0xF0,0xF0
0.042534100,1,0x2F,0xF0
0.042539400,1,0x00,0x01
0.042545240,1,0x2E,0x01
0.042550540,1,0x50,0xF0
0.042556240,1,0x2F,0xF0
0.042561540,1,0x1B,0x01
0.042567380,1,0x2E,0x01
0.042572680,1,0xF8,0xF0
0.042578400,1,0x2F,0xF0
0.042583680,1,0x00,0x01
0.042589520,1,0x2E,0x01
0.042594820,1,0x80,0xF0
0.042600540,1,0x2F,0xF0
0.042605820,1,0xC6,0x01
0.042611740,1,0x2E,0x01
0.042617020,1,0x2B,0xF0
0.042622740,1,0x2F,0xF0
0.042628040,1,0x01,0x01
0.042633880,1,0x2E,0x01
0.042639160,1,0xBC,0xF0
0.042644900,1,0x2F,0xF0
0.042650180,1,0x00,0x01
0.042656020,1,0x2E,0x01
0.042661300,1,0xF0,0xF0
0.042667040,1,0x2F,0xF0
0.042672340,1,0x00,0x01
0.042678180,1,0x2E,0x01
0.042683460,1,0xF8,0xF0
0.042689180,1,0x2F,0xF0
0.042694480,1,0x22,0x01
0.042700380,1,0x2E,0x01
0.042705660,1,0x6F,0xF0
0.042711380,1,0x2F,0xF0
0.042716680,1,0xFD,0x01
0.042722520,1,0x2E,0x01
0.042727800,1,0xCB,0xF0
0.042733520,1,0x2F,0xF0
0.042738820,1,0x1F,0x01
0.042744660,1,0x2E,0x01
0.042749940,1,0x16,0xF0
0.042755660,1,0x2F,0xF0
0.042760960,1,0x41,0x01
0.042766800,1,0x2E,0x01
0.042772080,1,0xCB,0xF0
0.042777800,1,0x2F,0xF0
0.042783100,1,0xF1,0x01
0.042789000,1,0x2E,0x01
0.042794300,1,0x93,0xF0
0.042800020,1,0x2F,0xF0
0.042805300,1,0xB2,0x01
0.042811140,1,0x2E,0x01
0.042816440,1,0xCC,0xF0
0.042822160,1,0x2F,0xF0
0.042827440,1,0xDA,0x01
0.042833280,1,0x2E,0x01
0.042838580,1,0x87,0xF0
0.042844300,1,0x2F,0xF0
0.042849600,1,0xDA,0x01
0.042855440,1,0x2E,0x01
0.042860720,1,0x60,0xF0
0.042866460,1,0x2F,0xF0
0.042871740,1,0x0B,0x01
0.042877640,1,0x2E,0x01
0.042882940,1,0x2B,0xF0
0.042888660,1,0x2F,0xF0
0.042893960,1,0x09,0x01
0.042899800,1,0x2E,0x01
0.042905080,1,0x29,0xF0
0.042910800,1,0x2F,0xF0
0.042916100,1,0x63,0x01
0.042921940,1,0x2E,0x01
0.042927220,1,0xF8,0xF0
0.042932940,1,0x2F,0xF0
0.042938240,1,0x22,0x01
0.042944080,1,0x2E,0x01
0.042949380,1,0x6F,0xF0
0.042955080,1,0x2F,0xF0
0.042960380,1,0x0D,0x01
0.042966280,1,0x2E,0x01
0.042971580,1,0xCB,0xF0
0.042977300,1,0x2F,0xF0
0.042982600,1,0x94,0x01
0.042988440,1,0x2E,0x01
0.042993740,1,0xC2,0xF0
0.042999440,1,0x2F,0xF0
0.043004740,1,0x39,0x01
0.043010580,1,0x2E,0x01
0.043015880,1,0xCC,0xF0
0.043021600,1,0x2F,0xF0
0.043026880,1,0xD1,0x01
0.043032740,1,0x2E,0x01
0.043038040,1,0x8C,0xF0
0.043043760,1,0x2F,0xF0
0.043049040,1,0x28,0x01
0.043054940,1,0x2E,0x01
0.043060240,1,0xCC,0xF0
0.043065960,1,0x2F,0xF0
0.043071260,1,0xD2,0x01
0.043077100,1,0x2E,0x01
0.043082380,1,0xF8,0xF0
0.043088100,1,0x2F,0xF0
0.043093400,1,0x03,0x01
0.043099220,1,0x2E,0x01
0.043104520,1,0x80,0xF0
0.043110240,1,0x2F,0xF0
0.043115540,1,0xD2,0x01
0.043121380,1,0x2E,0x01
0.043126660,1,0x10,0xF0
0.043132400,1,0x2F,0xF0
0.043137680,1,0x2D,0x01
0.043143600,1,0x2E,0x01
0.043148880,1,0xCD,0xF0
0.043154600,1,0x2F,0xF0
0.043159900,1,0xD1,0x01
0.043165740,1,0x2E,0x01
0.043171040,1,0xF8,0xF0
0.043176760,1,0x2F,0xF0
0.043182040,1,0x04,0x01
0.043187900,1,0x2E,0x01
0.043193200,1,0x80,0xF0
0.043198900,1,0x2F,0xF0
0.043204200,1,0x00,0x01
0.043210040,1,0x2E,0x01
0.043215340,1,0xCD,0xF0
0.043221060,1,0x2F,0xF0
0.043226340,1,0xD2,0x01
0.043232240,1,0x2E,0x01
0.043237540,1,0xF8,0xF0
0.043243260,1,0x2F,0xF0
0.043248540,1,0x22,0x01
0.043254380,1,0x2E,0x01
0.043259680,1,0x6F,0xF0
0.043265400,1,0x2F,0xF0
0.043270700,1,0xFF,0x01
0.043276520,1,0x2E,0x01
0.043281820,1,0xF8,0xF0
0.043287540,1,0x2F,0xF0
0.043292840,1,0x03,0x01
0.043298680,1,0x2E,0x01
0.043303960,1,0x80,0xF0
0.043309680,1,0x2F,0xF0
0.043314980,1,0xB8,0x01
0.043320880,1,0x2E,0x01
0.043326160,1,0xCD,0xF0
0.043331900,1,0x2F,0xF0
0.043337180,1,0xF3,0x01
0.043343020,1,0x2E,0x01
0.043348320,1,0x2B,0xF0
0.043354020,1,0x2F,0xF0
0.043359320,1,0x01,0x01
0.043365160,1,0x2E,0x01
0.043370460,1,0x61,0xF0
0.043376180,1,0x2F,0xF0
0.043381460,1,0x86,0x01
0.043387320,1,0x2E,0x01
0.043392600,1,0x67,0xF0
0.043398320,1,0x2F,0xF0
0.043403620,1,0xC7,0x01
0.043409520,1,0x2E,0x01
0.043414820,1,0xF8,0xF0
0.043420540,1,0x2F,0xF0
0.043425820,1,0x03,0x01
0.043431680,1,0x2E,0x01
0.043436980,1,0x80,0xF0
0.043442680,1,0x2F,0xF0
0.043447980,1,0xA5,0x01
0.043453820,1,0x2E,0x01
0.043459100,1,0x61,0xF0
0.043464840,1,0x2F,0xF0
0.043470120,1,0xC2,0x01
0.043475960,1,0x2E,0x01
0.043481240,1,0x11,0xF0
0.043486980,1,0x2F,0xF0
0.043492260,1,0x41,0x01
0.043498160,1,0x2E,0x01
0.043503460,1,0x2B,0xF0
0.043509180,1,0x2F,0xF0
0.043514480,1,0x01,0x01
0.043520320,1,0x2E,0x01
0.043525600,1,0x90,0xF0
0.043531340,1,0x2F,0xF0
0.043536620,1,0x0C,0x01
0.043542460,1,0x2E,0x01
0.043547760,1,0xF0,0xF0
0.043553480,1,0x2F,0xF0
0.043558760,1,0x00,0x01
0.043564600,1,0x2E,0x01
0.043569900,1,0x00,0xF0
0.043575620,1,0x2F,0xF0
0.043580920,1,0x10,0x01
0.043586820,1,0x2E,0x01
0.043592120,1,0x12,0xF0
0.043597840,1,0x2F,0xF0
0.043603140,1,0x31,0x01
0.043608980,1,0x2E,0x01
0.043614280,1,0x2B,0xF0
0.043620000,1,0x2F,0xF0
0.043625280,1,0x01,0x01
0.043631120,1,0x2E,0x01
0.043636420,1,0x90,0xF0
0.043642120,1,0x2F,0xF0
0.043647420,1,0x07,0x01
0.043653260,1,0x2E,0x01
0.043658540,1,0xF0,0xF0
0.043664260,1,0x2F,0xF0
0.043669540,1,0x00,0x01
0.043675460,1,0x2E,0x01
0.043680740,1,0x00,0xF0
0.043686460,1,0x2F,0xF0
0.043691740,1,0x10,0x01
0.043697580,1,0x2E,0x01
0.043702860,1,0xF8,0xF0
0.043708580,1,0x2F,0xF0
0.043713880,1,0x22,0x01
0.043719700,1,0x2E,0x01
0.043725000,1,0x6F,0xF0
0.043730720,1,0x2F,0xF0
0.043736000,1,0xEC,0x01
0.043741840,1,0x2E,0x01
0.043747120,1,0xF8,0xF0
0.043752840,1,0x2F,0xF0
0.043758140,1,0x05,0x01
0.043764040,1,0x2E,0x01
0.043769340,1,0x84,0xF0
0.043775060,1,0x2F,0xF0
0.043780360,1,0x03,0x01
0.043786200,1,0x2E,0x01
0.043791480,1,0xCD,0xF0
0.043797200,1,0x2F,0xF0
0.043802500,1,0xC0,0x01
0.043808340,1,0x2E,0x01
0.043813620,1,0xF8,0xF0
0.043819340,1,0x2F,0xF0
0.043824620,1,0x22,0x01
0.043830460,1,0x2E,0x01
0.043835760,1,0x6F,0xF0
0.043841460,1,0x2F,0xF0
0.043846740,1,0xEC,0x01
0.043852640,1,0x2E,0x01
0.043857940,1,0xCD,0xF0
0.043863640,1,0x2F,0xF0
0.043868920,1,0xC0,0x01
0.043874780,1,0x2E,0x01
0.043880060,1,0xF8,0xF0
0.043885780,1,0x2F,0xF0
0.043891060,1,0x05,0x01
0.043896900,1,0x2E,0x01
0.043902200,1,0x84,0xF0
0.043907920,1,0x2F,0xF0
0.043913200,1,0x03,0x01
0.043919040,1,0x2E,0x01
0.043924320,1,0x00,0xF0
0.043930040,1,0x2F,0xF0
0.043935320,1,0x10,0x01
0.043941220,1,0x2E,0x01
0.043946520,1,0x29,0xF0
0.043952240,1,0x2F,0xF0
0.043957520,1,0x73,0x01
0.043963360,1,0x2E,0x01
0.043968640,1,0xF8,0xF0
0.043974360,1,0x2F,0xF0
0.043979660,1,0x22,0x01
0.043985500,1,0x2E,0x01
0.043990780,1,0x6F,0xF0
0.043996500,1,0x2F,0xF0
0.044001800,1,0xFF,0x01
0.044007640,1,0x2E,0x01
0.044012920,1,0xF8,0xF0
0.044018620,1,0x2F,0xF0
0.044023920,1,0x05,0x01
0.044029820,1,0x2E,0x01
0.044035120,1,0x84,0xF0
0.044040820,1,0x2F,0xF0
0.044046120,1,0x0A,0x01
0.044051960,1,0x2E,0x01
0.044057240,1,0xCD,0xF0
0.044062960,1,0x2F,0xF0
0.044068240,1,0xF3,0x01
0.044074100,1,0x2E,0x01
0.044079380,1,0x2B,0xF0
0.044085100,1,0x2F,0xF0
0.044090380,1,0x09,0x01
0.044096220,1,0x2E,0x01
0.044101520,1,0x29,0xF0
0.044107240,1,0x2F,0xF0
0.044112520,1,0x63,0x01
0.044118420,1,0x2E,0x01
0.044123720,1,0xF8,0xF0
0.044129440,1,0x2F,0xF0
0.044134720,1,0x22,0x01
0.044140560,1,0x2E,0x01
0.044145840,1,0x6F,0xF0
0.044151580,1,0x2F,0xF0
0.044156860,1,0x0D,0x01
0.044162700,1,0x2E,0x01
0.044167980,1,0xCB,0xF0
0.044173700,1,0x2F,0xF0
0.044179000,1,0x94,0x01
0.044184820,1,0x2E,0x01
0.044190120,1,0xC2,0xF0
0.044195840,1,0x2F,0xF0
0.044201120,1,0x39,0x01
0.044207020,1,0x2E,0x01
0.044212300,1,0xCC,0xF0
0.044218020,1,0x2F,0xF0
0.044223320,1,0xD1,0x01
0.044229160,1,0x2E,0x01
0.044234440,1,0x8F,0xF0
0.044240160,1,0x2F,0xF0
0.044245460,1,0xF2,0x01
0.044251300,1,0x2E,0x01
0.044256580,1,0xCC,0xF0
0.044262300,1,0x2F,0xF0
0.044267580,1,0xD2,0x01
0.044273440,1,0x2E,0x01
0.044278720,1,0xF8,0xF0
0.044284440,1,0x2F,0xF0
0.044289720,1,0x03,0x01
0.044295620,1,0x2E,0x01
0.044300920,1,0x80,0xF0
0.044306640,1,0x2F,0xF0
0.044311920,1,0xD2,0x01
0.044317760,1,0x2E,0x01
0.044323060,1,0x10,0xF0
0.044328760,1,0x2F,0xF0
0.044334060,1,0x2D,0x01
0.044339880,1,0x2E,0x01
0.044345180,1,0xCD,0xF0
0.044350900,1,0x2F,0xF0
0.044356180,1,0xD1,0x01
0.044362020,1,0x2E,0x01
0.044367300,1,0xF8,0xF0
0.044373020,1,0x2F,0xF0
0.044378300,1,0x04,0x01
0.044384200,1,0x2E,0x01
0.044389480,1,0x80,0xF0
0.044395220,1,0x2F,0xF0
0.044400500,1,0x00,0x01
0.044406340,1,0x2E,0x01
0.044411620,1,0xCD,0xF0
0.044417340,1,0x2F,0xF0
0.044422640,1,0xD2,0x01
0.044428480,1,0x2E,0x01
0.044433760,1,0xF8,0xF0
0.044439500,1,0x2F,0xF0
0.044444780,1,0x22,0x01
0.044450620,1,0x2E,0x01
0.044455920,1,0x6F,0xF0
0.044461640,1,0x2F,0xF0
0.044466920,1,0xFF,0x01
0.044472840,1,0x2E,0x01
0.044478120,1,0xF8,0xF0
0.044483840,1,0x2F,0xF0
0.044489140,1,0x03,0x01
0.044494980,1,0x2E,0x01
0.044500280,1,0x80,0xF0
0.044506000,1,0x2F,0xF0
0.044511280,1,0xB8,0x01
0.044517140,1,0x2E,0x01
0.044522420,1,0xCD,0xF0
0.044528140,1,0x2F,0xF0
0.044533420,1,0xF3,0x01
0.044539260,1,0x2E,0x01
0.044544560,1,0x2B,0xF0
0.044550260,1,0x2F,0xF0
0.044555540,1,0x01,0x01
0.044561440,1,0x2E,0x01
0.044566740,1,0x65,0xF0
0.044572460,1,0x2F,0xF0
0.044577740,1,0xA6,0x01
0.044583580,1,0x2E,0x01
0.044588880,1,0xF8,0xF0
0.044594600,1,0x2F,0xF0
0.044599880,1,0x01,0x01
0.044605720,1,0x2E,0x01
0.044611020,1,0x6C,0xF0
0.044616740,1,0x2F,0xF0
0.044622040,1,0xF7,0x01
0.044627860,1,0x2E,0x01
0.044633160,1,0xF8,0xF0
0.044638880,1,0x2F,0xF0
0.044644180,1,0x03,0x01
0.044650060,1,0x2E,0x01
0.044655360,1,0x80,0xF0
0.044661080,1,0x2F,0xF0
0.044666360,1,0xA5,0x01
0.044672200,1,0x2E,0x01
0.044677480,1,0x60,0xF0
0.044683200,1,0x2F,0xF0
0.044688500,1,0x22,0x01
0.044694340,1,0x2E,0x01
0.044699620,1,0x15,0xF0
0.044705340,1,0x2F,0xF0
0.044710620,1,0x01,0x01
0.044716460,1,0x2E,0x01
0.044721760,1,0x2B,0xF0
0.044727480,1,0x2F,0xF0
0.044732760,1,0x01,0x01
0.044738660,1,0x2E,0x01
0.044743960,1,0x93,0xF0
0.044749660,1,0x2F,0xF0
0.044754940,1,0xD5,0x01
0.044760800,1,0x2E,0x01
0.044766080,1,0xF0,0xF0
0.044771800,1,0x2F,0xF0
0.044777080,1,0x00,0x01
0.044782920,1,0x2E,0x01
0.044788220,1,0x00,0xF0
0.044793940,1,0x2F,0xF0
0.044799220,1,0x10,0x01
0.044805060,1,0x2E,0x01
0.044810360,1,0xF8,0xF0
0.044816080,1,0x2F,0xF0
0.044821380,1,0x22,0x01
0.044827280,1,0x2E,0x01
0.044832580,1,0x6F,0xF0
0.044838300,1,0x2F,0xF0
0.044843600,1,0xEC,0x01
0.044849440,1,0x2E,0x01
0.044854720,1,0xF8,0xF0
0.044860440,1,0x2F,0xF0
0.044865740,1,0x05,0x01
0.044871580,1,0x2E,0x01
0.044876860,1,0x84,0xF0
0.044882580,1,0x2F,0xF0
0.044887880,1,0x03,0x01
0.044893720,1,0x2E,0x01
0.044899000,1,0xCD,0xF0
0.044904720,1,0x2F,0xF0
0.044910020,1,0xC0,0x01
0.044915920,1,0x2E,0x01
0.044921220,1,0xF8,0xF0
0.044926920,1,0x2F,0xF0
0.044932220,1,0x22,0x01
0.044938060,1,0x2E,0x01
0.044943360,1,0x6F,0xF0
0.044949080,1,0x2F,0xF0
0.044954360,1,0xFC,0x01
0.044960200,1,0x2E,0x01
0.044965500,1,0xCB,0xF0
0.044971220,1,0x2F,0xF0
0.044976500,1,0x06,0x01
0.044982360,1,0x2E,0x01
0.044987640,1,0xCC,0xF0
0.044993380,1,0x2F,0xF0
0.044998660,1,0xC7,0x01
0.045004560,1,0x2E,0x01
0.045009860,1,0xC2,0xF0
0.045015580,1,0x2F,0xF0
0.045020880,1,0x76,0x01
0.045026720,1,0x2E,0x01
0.045032000,1,0x90,0xF0
0.045037720,1,0x2F,0xF0
0.045043020,1,0x08,0x01
0.045048860,1,0x2E,0x01
0.045054140,1,0xCB,0xF0
0.045059860,1,0x2F,0xF0
0.045065160,1,0x68,0x01
0.045071000,1,0x2E,0x01
0.045076280,1,0x11,0xF0
0.045082000,1,0x2F,0xF0
0.045087300,1,0x06,0x01
0.045093220,1,0x2E,0x01
0.045098500,1,0xCB,0xF0
0.045104220,1,0x2F,0xF0
0.045109520,1,0x86,0x01
0.045115360,1,0x2E,0x01
0.045120660,1,0x94,0xF0
0.045126360,1,0x2F,0xF0
0.045131660,1,0x02,0x01
0.045137500,1,0x2E,0x01
0.045142800,1,0xF0,0xF0
0.045148500,1,0x2F,0xF0
0.045153800,1,0x00,0x01
0.045159640,1,0x2E,0x01
0.045164920,1,0x60,0xF0
0.045170640,1,0x2F,0xF0
0.045175920,1,0x06,0x01
0.045181840,1,0x2E,0x01
0.045187140,1,0xBC,0xF0
0.045192860,1,0x2F,0xF0
0.045198140,1,0x00,0x01
0.045203980,1,0x2E,0x01
0.045209280,1,0xCD,0xF0
0.045215000,1,0x2F,0xF0
0.045220280,1,0xC6,0x01
0.045226120,1,0x2E,0x01
0.045231420,1,0xE5,0xF0
0.045237140,1,0x2F,0xF0
0.045242440,1,0x06,0x01
0.045248280,1,0x2E,0x01
0.045253580,1,0xCB,0xF0
0.045259300,1,0x2F,0xF0
0.045264600,1,0x68,0x01
0.045270500,1,0x2E,0x01
0.045275780,1,0x11,0xF0
0.045281500,1,0x2F,0xF0
0.045286800,1,0x06,0x01
0.045292640,1,0x2E,0x01
0.045297920,1,0xCB,0xF0
0.045303660,1,0x2F,0xF0
0.045308940,1,0x86,0x01
0.045314800,1,0x2E,0x01
0.045320080,1,0x93,0xF0
0.045325800,1,0x2F,0xF0
0.045331080,1,0xF8,0x01
0.045336940,1,0x2E,0x01
0.045342220,1,0xF0,0xF0
0.045347940,1,0x2F,0xF0
0.045353240,1,0x00,0x01
0.045359140,1,0x2E,0x01
0.045364440,1,0xBC,0xF0
0.045370160,1,0x2F,0xF0
0.045375440,1,0x00,0x01
0.045381280,1,0x2E,0x01
0.045386580,1,0xCD,0xF0
0.045392300,1,0x2F,0xF0
0.045397580,1,0xC6,0x01
0.045403440,1,0x2E,0x01
0.045408720,1,0x18,0xF0
0.045414460,1,0x2F,0xF0
0.045419740,1,0x0A,0x01
0.045425580,1,0x2E,0x01
0.045430880,1,0xCB,0xF0
0.045436600,1,0x2F,0xF0
0.045441880,1,0x9A,0x01
0.045447780,1,0x2E,0x01
0.045453080,1,0x90,0xF0
0.045458800,1,0x2F,0xF0
0.045464100,1,0x03,0x01
0.045469940,1,0x2E,0x01
0.045475220,1,0xF0,0xF0
0.045480940,1,0x2F,0xF0
0.045486240,1,0x00,0x01
0.045492080,1,0x2E,0x01
0.045497360,1,0x68,0xF0
0.045503080,1,0x2F,0xF0
0.045508380,1,0x0A,0x01
0.045514220,1,0x2E,0x01
0.045519500,1,0x68,0xF0
0.045525220,1,0x2F,0xF0
0.045530520,1,0x09,0x01
0.045536440,1,0x2E,0x01
0.045541720,1,0xC2,0xF0
0.045547440,1,0x2F,0xF0
0.045552720,1,0xBA,0x01
0.045558560,1,0x2E,0x01
0.045563860,1,0xCB,0xF0
0.045569560,1,0x2F,0xF0
0.045574860,1,0x9A,0x01
0.045580700,1,0x2E,0x01
0.045586000,1,0x90,0xF0
0.045591700,1,0x2F,0xF0
0.045596980,1,0x06,0x01
0.045602840,1,0x2E,0x01
0.045608120,1,0xF0,0xF0
0.045613840,1,0x2F,0xF0
0.045619120,1,0x00,0x01
0.045625020,1,0x2E,0x01
0.045630320,1,0xF8,0xF0
0.045636040,1,0x2F,0xF0
0.045641320,1,0x06,0x01
0.045647160,1,0x2E,0x01
0.045652440,1,0xEB,0xF0
0.045658160,1,0x2F,0xF0
0.045663460,1,0xAB,0x01
0.045669300,1,0x2E,0x01
0.045674580,1,0x62,0xF0
0.045680300,1,0x2F,0xF0
0.045685600,1,0x0D,0x01
0.045691440,1,0x2E,0x01
0.045696720,1,0xBC,0xF0
0.045702440,1,0x2F,0xF0
0.045707740,1,0x00,0x01
0.045713640,1,0x2E,0x01
0.045718920,1,0x60,0xF0
0.045724640,1,0x2F,0xF0
0.045729940,1,0x6E,0x01
0.045735780,1,0x2E,0x01
0.045741060,1,0xF8,0xF0
0.045746780,1,0x2F,0xF0
0.045752060,1,0x08,0x01
0.045757900,1,0x2E,0x01
0.045763200,1,0x60,0xF0
0.045768900,1,0x2F,0xF0
0.045774200,1,0x0D,0x01
0.045780040,1,0x2E,0x01
0.045785320,1,0xBC,0xF0
0.045791040,1,0x2F,0xF0
0.045796320,1,0x00,0x01
0.045802220,1,0x2E,0x01
0.045807520,1,0x60,0xF0
0.045813240,1,0x2F,0xF0
0.045818520,1,0xCE,0x01
0.045824360,1,0x2E,0x01
0.045829660,1,0xCB,0xF0
0.045835380,1,0x2F,0xF0
0.045840660,1,0x0B,0x01
0.045846500,1,0x2E,0x01
0.045851780,1,0xCB,0xF0
0.045857500,1,0x2F,0xF0
0.045862780,1,0x1C,0x01
0.045868620,1,0x2E,0x01
0.045873900,1,0x11,0xF0
0.045879640,1,0x2F,0xF0
0.045884920,1,0x00,0x01
0.045890820,1,0x2E,0x01
0.045896100,1,0xCB,0xF0
0.045901820,1,0x2F,0xF0
0.045907120,1,0x90,0x01
0.045912940,1,0x2E,0x01
0.045918240,1,0x94,0xF0
0.045923940,1,0x2F,0xF0
0.045929240,1,0x03,0x01
0.045935080,1,0x2E,0x01
0.045940360,1,0xCB,0xF0
0.045946080,1,0x2F,0xF0
0.045951360,1,0x29,0x01
0.045957200,1,0x2E,0x01
0.045962480,1,0xCB,0xF0
0.045968200,1,0x2F,0xF0
0.045973500,1,0x2B,0x01
0.045979400,1,0x2E,0x01
0.045984680,1,0xCB,0xF0
0.045990400,1,0x2F,0xF0
0.045995680,1,0x3C,0x01
0.046001540,1,0x2E,0x01
0.046006820,1,0xBC,0xF0
0.046012540,1,0x2F,0xF0
0.046017820,1,0x00,0x01
0.046023680,1,0x2E,0x01
0.046028960,1,0xF0,0xF0
0.046034680,1,0x2F,0xF0
0.046039980,1,0x00,0x01
0.046045820,1,0x2E,0x01
0.046051120,1,0xF8,0xF0
0.046056840,1,0x2F,0xF0
0.046062120,1,0x0C,0x01
0.046068020,1,0x2E,0x01
0.046073300,1,0x3F,0xF0
0.046079020,1,0x2F,0xF0
0.046084320,1,0x10,0x01
0.046090160,1,0x2E,0x01
0.046095440,1,0xCB,0xF0
0.046101160,1,0x2F,0xF0
0.046106440,1,0x09,0x01
0.046112280,1,0x2E,0x01
0.046117580,1,0xC2,0xF0
0.046123300,1,0x2F,0xF0
0.046128580,1,0x60,0x01
0.046134420,1,0x2E,0x01
0.046139720,1,0xCB,0xF0
0.046145440,1,0x2F,0xF0
0.046150740,1,0x90,0x01
0.046156640,1,0x2E,0x01
0.046161920,1,0x90,0xF0
0.046167640,1,0x2F,0xF0
0.046172940,1,0x0F,0x01
0.046178780,1,0x2E,0x01
0.046184060,1,0xCB,0xF0
0.046189780,1,0x2F,0xF0
0.046195080,1,0x29,0x01
0.046200920,1,0x2E,0x01
0.046206200,1,0xF8,0xF0
0.046211920,1,0x2F,0xF0
0.046217200,1,0x06,0x01
0.046223040,1,0x2E,0x01
0.046228340,1,0xE0,0xF0
0.046234040,1,0x2F,0xF0
0.046239320,1,0xA0,0x01
0.046245240,1,0x2E,0x01
0.046250520,1,0xCB,0xF0
0.046256240,1,0x2F,0xF0
0.046261520,1,0x6A,0x01
0.046267380,1,0x2E,0x01
0.046272660,1,0xCB,0xF0
0.046278380,1,0x2F,0xF0
0.046283680,1,0x0B,0x01
0.046289520,1,0x2E,0x01
0.046294820,1,0xCB,0xF0
0.046300540,1,0x2F,0xF0
0.046305840,1,0x1C,0x01
0.046311680,1,0x2E,0x01
0.046316960,1,0x64,0xF0
0.046322700,1,0x2F,0xF0
0.046328000,1,0x0D,0x01
0.046333900,1,0x2E,0x01
0.046339200,1,0xF8,0xF0
0.046344920,1,0x2F,0xF0
0.046350220,1,0x00,0x01
0.046356060,1,0x2E,0x01
0.046361340,1,0x80,0xF0
0.046367080,1,0x2F,0xF0
0.046372360,1,0xD3,0x01
0.046378200,1,0x2E,0x01
0.046383500,1,0x60,0xF0
0.046389220,1,0x2F,0xF0
0.046394520,1,0x7E,0x01
0.046400360,1,0x2E,0x01
0.046405660,1,0xF8,0xF0
0.046411380,1,0x2F,0xF0
0.046416660,1,0x00,0x01
0.046422580,1,0x2E,0x01
0.046427880,1,0x80,0xF0
0.046433580,1,0x2F,0xF0
0.046438880,1,0xC6,0x01
0.046444720,1,0x2E,0x01
0.046450020,1,0x68,0xF0
0.046455740,1,0x2F,0xF0
0.046461020,1,0x1B,0x01
0.046466880,1,0x2E,0x01
0.046472160,1,0xBC,0xF0
0.046477880,1,0x2F,0xF0
0.046483180,1,0x00,0x01
0.046489020,1,0x2E,0x01
0.046494320,1,0xF0,0xF0
0.046500040,1,0x2F,0xF0
0.046505320,1,0x00,0x01
0.046511220,1,0x2E,0x01
0.046516520,1,0xC2,0xF0
0.046522240,1,0x2F,0xF0
0.046527540,1,0x62,0x01
0.046533380,1,0x2E,0x01
0.046538660,1,0xCB,0xF0
0.046544380,1,0x2F,0xF0
0.046549680,1,0x92,0x01
0.046555520,1,0x2E,0x01
0.046560800,1,0x94,0xF0
0.046566520,1,0x2F,0xF0
0.046571820,1,0x11,0x01
0.046577660,1,0x2E,0x01
0.046582960,1,0xF0,0xF0
0.046588680,1,0x2F,0xF0
0.046593980,1,0x00,0x01
0.046599880,1,0x2E,0x01
0.046605160,1,0x83,0xF0
0.046610880,1,0x2F,0xF0
0.046616180,1,0xDC,0x01
0.046622040,1,0x2E,0x01
0.046627320,1,0xCB,0xF0
0.046633040,1,0x2F,0xF0
0.046638340,1,0x09,0x01
0.046644200,1,0x2E,0x01
0.046649480,1,0xCB,0xF0
0.046655200,1,0x2F,0xF0
0.046660500,1,0x6A,0x01
0.046666340,1,0x2E,0x01
0.046671640,1,0xC2,0xF0
0.046677360,1,0x2F,0xF0
0.046682640,1,0x2A,0x01
0.046688560,1,0x2E,0x01
0.046693860,1,0x83,0xF0
0.046699580,1,0x2F,0xF0
0.046704860,1,0xC5,0x01
0.046710720,1,0x2E,0x01
0.046716000,1,0xCB,0xF0
0.046721740,1,0x2F,0xF0
0.046727020,1,0xA9,0x01
0.046732880,1,0x2E,0x01
0.046738180,1,0xF8,0xF0
0.046743900,1,0x2F,0xF0
0.046749200,1,0x00,0x01
0.046755040,1,0x2E,0x01
0.046760320,1,0x80,0xF0
0.046766060,1,0x2F,0xF0
0.046771340,1,0xD3,0x01
0.046777240,1,0x2E,0x01
0.046782540,1,0xF0,0xF0
0.046788260,1,0x2F,0xF0
0.046793560,1,0x00,0x01
0.046799400,1,0x2E,0x01
0.046804680,1,0xC0,0xF0
0.046810400,1,0x2F,0xF0
0.046815700,1,0xBA,0x01
0.046821540,1,0x2E,0x01
0.046826820,1,0xCB,0xF0
0.046832540,1,0x2F,0xF0
0.046837840,1,0x79,0x01
0.046843680,1,0x2E,0x01
0.046848980,1,0xE0,0xF0
0.046854680,1,0x2F,0xF0
0.046859980,1,0x07,0x01
0.046865900,1,0x2E,0x01
0.046871180,1,0xC2,0xF0
0.046876900,1,0x2F,0xF0
0.046882200,1,0xA7,0x01
0.046888040,1,0x2E,0x01
0.046893340,1,0xCB,0xF0
0.046899060,1,0x2F,0xF0
0.046904340,1,0x97,0x01
0.046910200,1,0x2E,0x01
0.046915500,1,0x90,0xF0
0.046921220,1,0x2F,0xF0
0.046926500,1,0x18,0x01
0.046932340,1,0x2E,0x01
0.046937640,1,0x60,0xF0
0.046943360,1,0x2F,0xF0
0.046948660,1,0x0B,0x01
0.046954560,1,0x2E,0x01
0.046959860,1,0x83,0xF0
0.046965600,1,0x2F,0xF0
0.046970880,1,0xCC,0x01
0.046976720,1,0x2E,0x01
0.046982020,1,0xCB,0xF0
0.046987740,1,0x2F,0xF0
0.046993040,1,0x09,0x01
0.046998880,1,0x2E,0x01
0.047004160,1,0xCB,0xF0
0.047009880,1,0x2F,0xF0
0.047015180,1,0x6A,0x01
0.047021020,1,0x2E,0x01
0.047026300,1,0xC2,0xF0
0.047032020,1,0x2F,0xF0
0.047037320,1,0x0A,0x01
0.047043240,1,0x2E,0x01
0.047048520,1,0xC2,0xF0
0.047054240,1,0x2F,0xF0
0.047059520,1,0x4A,0x01
0.047065380,1,0x2E,0x01
0.047070660,1,0x9C,0xF0
0.047076380,1,0x2F,0xF0
0.047081680,1,0x09,0x01
0.047087520,1,0x2E,0x01
0.047092820,1,0xF0,0xF0
0.047098540,1,0x2F,0xF0
0.047103820,1,0x00,0x01
0.047109680,1,0x2E,0x01
0.047114980,1,0x83,0xF0
0.047120700,1,0x2F,0xF0
0.047125980,1,0xB2,0x01
0.047131880,1,0x2E,0x01
0.047137180,1,0xCB,0xF0
0.047142900,1,0x2F,0xF0
0.047148200,1,0xA9,0x01
0.047154040,1,0x2E,0x01
0.047159320,1,0xF8,0xF0
0.047165060,1,0x2F,0xF0
0.047170340,1,0x00,0x01
0.047176180,1,0x2E,0x01
0.047181480,1,0x80,0xF0
0.047187200,1,0x2F,0xF0
0.047192500,1,0xD3,0x01
0.047198340,1,0x2E,0x01
0.047203640,1,0xF0,0xF0
0.047209360,1,0x2F,0xF0
0.047214660,1,0x00,0x01
0.047220580,1,0x2E,0x01
0.047225860,1,0xC0,0xF0
0.047231580,1,0x2F,0xF0
0.047236880,1,0xBA,0x01
0.047242720,1,0x2E,0x01
0.047248020,1,0x84,0xF0
0.047253740,1,0x2F,0xF0
0.047259020,1,0x09,0x01
0.047264880,1,0x2E,0x01
0.047270160,1,0x60,0xF0
0.047275880,1,0x2F,0xF0
0.047281180,1,0x1B,0x01
0.047287020,1,0x2E,0x01
0.047292320,1,0xC0,0xF0
0.047298020,1,0x2F,0xF0
0.047303320,1,0x4A,0x01
0.047309220,1,0x2E,0x01
0.047314520,1,0x83,0xF0
0.047320240,1,0x2F,0xF0
0.047325520,1,0xA9,0x01
0.047331360,1,0x2E,0x01
0.047336660,1,0xCB,0xF0
0.047342380,1,0x2F,0xF0
0.047347680,1,0xA9,0x01
0.047353520,1,0x2E,0x01
0.047358820,1,0xF8,0xF0
0.047364540,1,0x2F,0xF0
0.047369820,1,0x00,0x01
0.047375660,1,0x2E,0x01
0.047380960,1,0x80,0xF0
0.047386680,1,0x2F,0xF0
0.047391980,1,0xD3,0x01
0.047397880,1,0x2E,0x01
0.047403160,1,0xF0,0xF0
0.047408900,1,0x2F,0xF0
0.047414180,1,0x00,0x01
0.047420020,1,0x2E,0x01
0.047425320,1,0xC0,0xF0
0.047431040,1,0x2F,0xF0
0.047436340,1,0xBA,0x01
0.047442180,1,0x2E,0x01
0.047447480,1,0x61,0xF0
0.047453200,1,0x2F,0xF0
0.047458480,1,0x1B,0x01
0.047464340,1,0x2E,0x01
0.047469620,1,0xF8,0xF0
0.047475340,1,0x2F,0xF0
0.047480640,1,0x00,0x01
0.047486540,1,0x2E,0x01
0.047491840,1,0x80,0xF0
0.047497560,1,0x2F,0xF0
0.047502860,1,0xC6,0x01
0.047508700,1,0x2E,0x01
0.047514000,1,0xF0,0xF0
0.047519720,1,0x2F,0xF0
0.047525000,1,0x00,0x01
0.047530840,1,0x2E,0x01
0.047536140,1,0xBC,0xF0
0.047541860,1,0x2F,0xF0
0.047547160,1,0x00,0x01
0.047553000,1,0x2E,0x01
0.047558300,1,0xF0,0xF0
0.047564020,1,0x2F,0xF0
0.047569300,1,0x00,0x01
0.047575200,1,0x2E,0x01
0.047580500,1,0x28,0xF0
0.047586240,1,0x2F,0xF0
0.047591520,1,0x18,0x01
0.047597360,1,0x2E,0x01
0.047602660,1,0xF8,0xF0
0.047608380,1,0x2F,0xF0
0.047613680,1,0x08,0x01
0.047619520,1,0x2E,0x01
0.047624820,1,0xE8,0xF0
0.047630540,1,0x2F,0xF0
0.047635820,1,0xB8,0x01
0.047641660,1,0x2E,0x01
0.047646960,1,0x40,0xF0
0.047652680,1,0x2F,0xF0
0.047657980,1,0x48,0x01
0.047663880,1,0x2E,0x01
0.047669160,1,0x8C,0xF0
0.047674880,1,0x2F,0xF0
0.047680180,1,0x03,0x01
0.047686020,1,0x2E,0x01
0.047691300,1,0xF0,0xF0
0.047697020,1,0x2F,0xF0
0.047702300,1,0x00,0x01
0.047708160,1,0x2E,0x01
0.047713440,1,0xE2,0xF0
0.047719160,1,0x2F,0xF0
0.047724460,1,0x01,0x01
0.047730300,1,0x2E,0x01
0.047735600,1,0xE2,0xF0
0.047741300,1,0x2F,0xF0
0.047746580,1,0x02,0x01
0.047752500,1,0x2E,0x01
0.047757780,1,0xF8,0xF0
0.047763500,1,0x2F,0xF0
0.047768780,1,0x00,0x01
0.047774620,1,0x2E,0x01
0.047779920,1,0x80,0xF0
0.047785640,1,0x2F,0xF0
0.047790920,1,0x5F,0x01
0.047796760,1,0x2E,0x01
0.047802060,1,0xF0,0xF0
0.047807780,1,0x2F,0xF0
0.047813080,1,0x00,0x01
0.047818920,1,0x2E,0x01
0.047824200,1,0xBC,0xF0
0.047829920,1,0x2F,0xF0
0.047835220,1,0x00,0x01
0.047841100,1,0x2E,0x01
0.047846400,1,0xF0,0xF0
0.047852120,1,0x2F,0xF0
0.047857420,1,0x00,0x01
0.047863260,1,0x2E,0x01
0.047868540,1,0xBC,0xF0
0.047874260,1,0x2F,0xF0
0.047879560,1,0x00,0x01
0.047885400,1,0x2E,0x01
0.047890680,1,0xF0,0xF0
0.047896400,1,0x2F,0xF0
0.047901680,1,0x00,0x01
0.047907540,1,0x2E,0x01
0.047912820,1,0xCB,0xF0
0.047918540,1,0x2F,0xF0
0.047923820,1,0x60,0x01
0.047929740,1,0x2E,0x01
0.047935020,1,0xC2,0xF0
0.047940740,1,0x2F,0xF0
0.047946020,1,0x56,0x01
0.047951860,1,0x2E,0x01
0.047957160,1,0xCB,0xF0
0.047962880,1,0x2F,0xF0
0.047968160,1,0x06,0x01
0.047974000,1,0x2E,0x01
0.047979300,1,0xAC,0xF0
0.047985020,1,0x2F,0xF0
0.047990300,1,0x07,0x01
0.047996140,1,0x2E,0x01
0.048001420,1,0xCB,0xF0
0.048007140,1,0x2F,0xF0
0.048012440,1,0x70,0x01
0.048018340,1,0x2E,0x01
0.048023620,1,0xC2,0xF0
0.048029360,1,0x2F,0xF0
0.048034640,1,0x87,0x01
0.048040480,1,0x2E,0x01
0.048045760,1,0xCB,0xF0
0.048051480,1,0x2F,0xF0
0.048056780,1,0x07,0x01
0.048062600,1,0x2E,0x01
0.048067900,1,0xAC,0xF0
0.048073620,1,0x2F,0xF0
0.048078920,1,0x03,0x01
0.048084760,1,0x2E,0x01
0.048090060,1,0xF0,0xF0
0.048095780,1,0x2F,0xF0
0.048101080,1,0x00,0x01
0.048106980,1,0x2E,0x01
0.048112260,1,0xBC,0xF0
0.048117980,1,0x2F,0xF0
0.048123280,1,0x00,0x01
0.048129120,1,0x2E,0x01
0.048134420,1,0xF0,0xF0
0.048140120,1,0x2F,0xF0
0.048145420,1,0x00,0x01
0.048151280,1,0x2E,0x01
0.048156560,1,0x64,0xF0
0.048162280,1,0x2F,0xF0
0.048167560,1,0x00,0x01
0.048173400,1,0x2E,0x01
0.048178700,1,0xF8,0xF0
0.048184420,1,0x2F,0xF0
0.048189720,1,0x03,0x01
0.048195620,1,0x2E,0x01
0.048200900,1,0x80,0xF0
0.048206620,1,0x2F,0xF0
0.048211900,1,0x98,0x01
0.048217740,1,0x2E,0x01
0.048223040,1,0x3A,0xF0
0.048228760,1,0x2F,0xF0
0.048234040,1,0x00,0x01
0.048239880,1,0x2E,0x01
0.048245180,1,0xF8,0xF0
0.048250900,1,0x2F,0xF0
0.048256200,1,0x08,0x01
0.048262040,1,0x2E,0x01
0.048267320,1,0x80,0xF0
0.048273060,1,0x2F,0xF0
0.048278340,1,0xAE,0x01
0.048284240,1,0x2E,0x01
0.048289540,1,0x60,0xF0
0.048295260,1,0x2F,0xF0
0.048300560,1,0x90,0x01
0.048306400,1,0x2E,0x01
0.048311680,1,0xBC,0xF0
0.048317400,1,0x2F,0xF0
0.048322680,1,0x00,0x01
0.048328540,1,0x2E,0x01
0.048333820,1,0xF0,0xF0
0.048339540,1,0x2F,0xF0
0.048344820,1,0x00,0x01
0.048350680,1,0x2E,0x01
0.048355960,1,0xE0,0xF0
0.048361680,1,0x2F,0xF0
0.048366960,1,0xF0,0x01
0.048372880,1,0x2E,0x01
0.048378160,1,0xE0,0xF0
0.048383880,1,0x2F,0xF0
0.048389180,1,0xF0,0x01
0.048395020,1,0x2E,0x01
0.048400320,1,0xE0,0xF0
0.048406040,1,0x2F,0xF0
0.048411320,1,0xF0,0x01
0.048417160,1,0x2E,0x01
0.048422460,1,0xE0,0xF0
0.048428180,1,0x2F,0xF0
0.048433460,1,0xF0,0x01
0.048439300,1,0x2E,0x01
0.048444600,1,0xE0,0xF0
0.048450320,1,0x2F,0xF0
0.048455620,1,0xF0,0x01
0.048461520,1,0x2E,0x01
0.048466800,1,0xE0,0xF0
0.048472540,1,0x2F,0xF0
0.048477840,1,0xF0,0x01
0.048483680,1,0x2E,0x01
0.048488960,1,0xE0,0xF0
0.048494700,1,0x2F,0xF0
0.048499980,1,0xF0,0x01
0.048505840,1,0x2E,0x01
0.048511120,1,0xE0,0xF0
0.048516840,1,0x2F,0xF0
0.048522140,1,0xF0,0x01
0.048527980,1,0x2E,0x01
0.048533280,1,0xE0,0xF0
0.048539000,1,0x2F,0xF0
0.048544300,1,0xF0,0x01
0.048550200,1,0x2E,0x01
0.048555500,1,0xE0,0xF0
0.048561220,1,0x2F,0xF0
0.048566500,1,0xF0,0x01
0.048572360,1,0x2E,0x01
0.048577640,1,0xE0,0xF0
0.048583360,1,0x2F,0xF0
0.048588640,1,0xF0,0x01
0.048594500,1,0x2E,0x01
0.048599780,1,0xE0,0xF0
0.048605500,1,0x2F,0xF0
0.048610800,1,0xF0,0x01
0.048616640,1,0x2E,0x01
0.048621940,1,0xE0,0xF0
0.048627660,1,0x2F,0xF0
0.048632940,1,0xF0,0x01
0.048638860,1,0x2E,0x01
0.048644160,1,0xE0,0xF0
0.048649880,1,0x2F,0xF0
0.048655160,1,0xF0,0x01
0.048661000,1,0x2E,0x01
0.048666300,1,0xE0,0xF0
0.048672040,1,0x2F,0xF0
0.048677320,1,0xF0,0x01
0.048683160,1,0x2E,0x01
0.048688460,1,0xE0,0xF0
0.048694180,1,0x2F,0xF0
0.048699460,1,0xF0,0x01
0.048705300,1,0x2E,0x01
0.048710600,1,0xE0,0xF0
0.048716320,1,0x2F,0xF0
0.048721620,1,0xF0,0x01
0.048727520,1,0x2E,0x01
0.048732820,1,0xE0,0xF0
0.048738540,1,0x2F,0xF0
0.048743840,1,0xF0,0x01
0.048749680,1,0x2E,0x01
0.048754960,1,0xE0,0xF0
0.048760700,1,0x2F,0xF0
0.048765980,1,0xF0,0x01
0.048771840,1,0x2E,0x01
0.048777120,1,0xE0,0xF0
0.048782840,1,0x2F,0xF0
0.048788140,1,0xF0,0x01
0.048793980,1,0x2E,0x01
0.048799260,1,0xE0,0xF0
0.048804980,1,0x2F,0xF0
0.048810280,1,0xF0,0x01
0.048816180,1,0x2E,0x01
0.048821480,1,0xE0,0xF0
0.048827200,1,0x2F,0xF0
0.048832480,1,0xF0,0x01
0.048838320,1,0x2E,0x01
0.048843620,1,0xE0,0xF0
0.048849340,1,0x2F,0xF0
0.048854620,1,0xF0,0x01
0.048860480,1,0x2E,0x01
0.048865760,1,0xE0,0xF0
0.048871500,1,0x2F,0xF0
0.048876780,1,0xF0,0x01
0.048882620,1,0x2E,0x01
0.048887920,1,0xE0,0xF0
0.048893640,1,0x2F,0xF0
0.048898920,1,0xF0,0x01
0.048904820,1,0x2E,0x01
0.048910120,1,0xE0,0xF0
0.048915840,1,0x2F,0xF0
0.048921140,1,0xF0,0x01
0.048926980,1,0x2E,0x01
0.048932260,1,0xE0,0xF0
0.048937980,1,0x2F,0xF0
0.048943280,1,0xF0,0x01
0.048949120,1,0x2E,0x01
0.048954400,1,0xE0,0xF0
0.048960120,1,0x2F,0xF0
0.048965420,1,0xF0,0x01
0.048971260,1,0x2E,0x01
0.048976540,1,0xE0,0xF0
0.048982260,1,0x2F,0xF0
0.048987560,1,0xF0,0x01
0.048993480,1,0x2E,0x01
0.048998760,1,0xE0,0xF0
0.049004480,1,0x2F,0xF0
0.049009780,1,0xF0,0x01
0.049015620,1,0x2E,0x01
0.049020920,1,0xE0,0xF0
0.049026640,1,0x2F,0xF0
0.049031920,1,0xF0,0x01
0.049037780,1,0x2E,0x01
0.049043060,1,0xE0,0xF0
0.049048780,1,0x2F,0xF0
0.049054080,1,0xF0,0x01
0.049059920,1,0x2E,0x01
0.049065220,1,0xE0,0xF0
0.049070940,1,0x2F,0xF0
0.049076220,1,0xF0,0x01
0.049082120,1,0x2E,0x01
0.049087420,1,0xE0,0xF0
0.049093160,1,0x2F,0xF0
0.049098440,1,0xF0,0x01
0.049104280,1,0x2E,0x01
0.049109560,1,0xE0,0xF0
0.049115300,1,0x2F,0xF0
0.049120580,1,0xF0,0x01
0.049126420,1,0x2E,0x01
0.049131720,1,0xE0,0xF0
0.049137440,1,0x2F,0xF0
0.049142740,1,0xF0,0x01
0.049148580,1,0x2E,0x01
0.049153880,1,0xE0,0xF0
0.049159600,1,0x2F,0xF0
0.049164900,1,0xF0,0x01
0.049170800,1,0x2E,0x01
0.049176100,1,0xE0,0xF0
0.049181820,1,0x2F,0xF0
0.049187120,1,0xF0,0x01
0.049192960,1,0x2E,0x01
0.049198240,1,0xE0,0xF0
0.049203960,1,0x2F,0xF0
0.049209260,1,0xF0,0x01
0.049215120,1,0x2E,0x01
0.049220400,1,0xE0,0xF0
0.049226120,1,0x2F,0xF0
0.049231420,1,0xF0,0x01
0.049237260,1,0x2E,0x01
0.049242560,1,0xE0,0xF0
0.049248280,1,0x2F,0xF0
0.049253560,1,0xF0,0x01
0.049259460,1,0x2E,0x01
0.049264760,1,0xE0,0xF0
0.049270480,1,0x2F,0xF0
0.049275760,1,0xF0,0x01
0.049281600,1,0x2E,0x01
0.049286900,1,0xE0,0xF0
0.049292620,1,0x2F,0xF0
0.049297920,1,0xF0,0x01
0.049303760,1,0x2E,0x01
0.049309040,1,0xE0,0xF0
0.049314780,1,0x2F,0xF0
0.049320060,1,0xF0,0x01
0.049325900,1,0x2E,0x01
0.049331200,1,0xE0,0xF0
0.049336920,1,0x2F,0xF0
0.049342220,1,0xF0,0x01
0.049348120,1,0x2E,0x01
0.049353400,1,0xE0,0xF0
0.049359120,1,0x2F,0xF0
0.049364420,1,0xF0,0x01
0.049370260,1,0x2E,0x01
0.049375540,1,0xE0,0xF0
0.049381260,1,0x2F,0xF0
0.049386560,1,0xF0,0x01
0.049392400,1,0x2E,0x01
0.049397680,1,0xE0,0xF0
0.049403400,1,0x2F,0xF0
0.049408700,1,0xF0,0x01
0.049414540,1,0x2E,0x01
0.049419820,1,0xE0,0xF0
0.049425540,1,0x2F,0xF0
0.049430820,1,0xF0,0x01
0.049436740,1,0x2E,0x01
0.049442020,1,0xE0,0xF0
0.049447740,1,0x2F,0xF0
0.049453020,1,0xF0,0x01
0.049458880,1,0x2E,0x01
0.049464160,1,0xE0,0xF0
0.049469880,1,0x2F,0xF0
0.049475160,1,0xF0,0x01
0.049481020,1,0x2E,0x01
0.049486300,1,0xE0,0xF0
0.049492020,1,0x2F,0xF0
0.049497300,1,0xF0,0x01
0.049503140,1,0x2E,0x01
0.049508440,1,0xE0,0xF0
0.049514160,1,0x2F,0xF0
0.049519440,1,0xF0,0x01
0.049525340,1,0x2E,0x01
0.049530640,1,0xE0,0xF0
0.049536360,1,0x2F,0xF0
0.049541640,1,0xF0,0x01
0.049547480,1,0x2E,0x01
0.049552760,1,0xE0,0xF0
0.049558480,1,0x2F,0xF0
0.049563780,1,0xF0,0x01
0.049569620,1,0x2E,0x01
0.049574900,1,0xE0,0xF0
0.049580620,1,0x2F,0xF0
0.049585920,1,0xF0,0x01
0.049591760,1,0x2E,0x01
0.049597040,1,0xE0,0xF0
0.049602760,1,0x2F,0xF0
0.049608040,1,0xF0,0x01
0.049613960,1,0x2E,0x01
0.049619240,1,0xE0,0xF0
0.049624960,1,0x2F,0xF0
0.049630260,1,0xF0,0x01
0.049636120,1,0x2E,0x01
0.049641400,1,0xE0,0xF0
0.049647140,1,0x2F,0xF0
0.049652420,1,0xF0,0x01
0.049658280,1,0x2E,0x01
0.049663580,1,0xE0,0xF0
0.049669280,1,0x2F,0xF0
0.049674580,1,0xF0,0x01
0.049680420,1,0x2E,0x01
0.049685720,1,0xE0,0xF0
0.049691440,1,0x2F,0xF0
0.049696720,1,0xF0,0x01
0.049702620,1,0x2E,0x01
0.049707920,1,0xE0,0xF0
0.049713640,1,0x2F,0xF0
0.049718920,1,0xF0,0x01
0.049724760,1,0x2E,0x01
0.049730060,1,0xE0,0xF0
0.049735780,1,0x2F,0xF0
0.049741080,1,0xF0,0x01
0.049746920,1,0x2E,0x01
0.049752200,1,0xE0,0xF0
0.049757940,1,0x2F,0xF0
0.049763220,1,0xF0,0x01
0.049769060,1,0x2E,0x01
0.049774360,1,0xE0,0xF0
0.049780080,1,0x2F,0xF0
0.049785380,1,0xF0,0x01
0.049791280,1,0x2E,0x01
0.049796580,1,0xE0,0xF0
0.049802300,1,0x2F,0xF0
0.049807580,1,0xF0,0x01
0.049813440,1,0x2E,0x01
0.049818720,1,0xE0,0xF0
0.049824440,1,0x2F,0xF0
0.049829740,1,0xF0,0x01
0.049835580,1,0x2E,0x01
0.049840880,1,0xE0,0xF0
0.049846580,1,0x2F,0xF0
0.049851880,1,0xF0,0x01
0.049857720,1,0x2E,0x01
0.049863020,1,0xE0,0xF0
0.049868740,1,0x2F,0xF0
0.049874020,1,0xF0,0x01
0.049879920,1,0x2E,0x01
0.049885220,1,0xE0,0xF0
0.049890940,1,0x2F,0xF0
0.049896240,1,0xF0,0x01
0.049902080,1,0x2E,0x01
0.049907360,1,0xE0,0xF0
0.049913100,1,0x2F,0xF0
0.049918380,1,0xF0,0x01
0.049924220,1,0x2E,0x01
0.049929520,1,0xE0,0xF0
0.049935240,1,0x2F,0xF0
0.049940540,1,0xF0,0x01
0.049946380,1,0x2E,0x01
0.049951660,1,0xE0,0xF0
0.049957380,1,0x2F,0xF0
0.049962680,1,0xF0,0x01
0.049968580,1,0x2E,0x01
0.049973860,1,0xE0,0xF0
0.049979580,1,0x2F,0xF0
0.049984880,1,0xF0,0x01
0.049990720,1,0x2E,0x01
0.049996000,1,0xE0,0xF0
0.050001720,1,0x2F,0xF0
0.050007020,1,0xF0,0x01
0.050012860,1,0x2E,0x01
0.050018140,1,0xE0,0xF0
0.050023860,1,0x2F,0xF0
0.050029140,1,0xF0,0x01
0.050035000,1,0x2E,0x01
0.050040280,1,0xE0,0xF0
0.050045980,1,0x2F,0xF0
0.050051280,1,0xF0,0x01
0.050057180,1,0x2E,0x01
0.050062460,1,0xE0,0xF0
0.050068180,1,0x2F,0xF0
0.050073460,1,0xF0,0x01
0.050079320,1,0x2E,0x01
0.050084600,1,0xE0,0xF0
0.050090320,1,0x2F,0xF0
0.050095600,1,0xF0,0x01
0.050101440,1,0x2E,0x01
0.050106740,1,0xE0,0xF0
0.050112460,1,0x2F,0xF0
0.050117740,1,0xF0,0x01
0.050123580,1,0x2E,0x01
0.050128880,1,0xE0,0xF0
0.050134600,1,0x2F,0xF0
0.050139880,1,0xF0,0x01
0.050145800,1,0x2E,0x01
0.050151080,1,0xE0,0xF0
0.050156820,1,0x2F,0xF0
0.050162100,1,0xF0,0x01
0.050167940,1,0x2E,0x01
0.050173240,1,0xE0,0xF0
0.050178960,1,0x2F,0xF0
0.050184240,1,0xF0,0x01
0.050190080,1,0x2E,0x01
0.050195380,1,0xE0,0xF0
0.050201100,1,0x2F,0xF0
0.050206380,1,0xF0,0x01
0.050212220,1,0x2E,0x01
0.050217520,1,0xE0,0xF0
0.050223240,1,0x2F,0xF0
0.050228520,1,0xF0,0x01
0.050234420,1,0x2E,0x01
0.050239720,1,0xE0,0xF0
0.050245440,1,0x2F,0xF0
0.050250720,1,0xF0,0x01
0.050256580,1,0x2E,0x01
0.050261860,1,0xE0,0xF0
0.050267580,1,0x2F,0xF0
0.050272860,1,0xF0,0x01
0.050278720,1,0x2E,0x01
0.050284000,1,0xE0,0xF0
0.050289720,1,0x2F,0xF0
0.050295000,1,0xF0,0x01
0.050300840,1,0x2E,0x01
0.050306140,1,0xE0,0xF0
0.050311860,1,0x2F,0xF0
0.050317140,1,0xF0,0x01
0.050323060,1,0x2E,0x01
0.050328360,1,0xE0,0xF0
0.050334060,1,0x2F,0xF0
0.050339360,1,0xF0,0x01
0.050345200,1,0x2E,0x01
0.050350500,1,0xE0,0xF0
0.050356220,1,0x2F,0xF0
0.050361520,1,0xF0,0x01
0.050367360,1,0x2E,0x01
0.050372660,1,0xE0,0xF0
0.050378380,1,0x2F,0xF0
0.050383680,1,0xF0,0x01
0.050389520,1,0x2E,0x01
0.050394820,1,0xE0,0xF0
0.050400540,1,0x2F,0xF0
0.050405840,1,0xF0,0x01
0.050411740,1,0x2E,0x01
0.050417040,1,0xE0,0xF0
0.050422760,1,0x2F,0xF0
0.050428060,1,0xF0,0x01
0.050433900,1,0x2E,0x01
0.050439200,1,0xE0,0xF0
0.050444920,1,0x2F,0xF0
0.050450220,1,0xF0,0x01
0.050456080,1,0x2E,0x01
0.050461360,1,0xE0,0xF0
0.050467080,1,0x2F,0xF0
0.050472380,1,0xF0,0x01
0.050478240,1,0x2E,0x01
0.050483520,1,0xE0,0xF0
0.050489240,1,0x2F,0xF0
0.050494540,1,0xF0,0x01
0.050500440,1,0x2E,0x01
0.050505740,1,0xE0,0xF0
0.050511460,1,0x2F,0xF0
0.050516740,1,0xF0,0x01
0.050522600,1,0x2E,0x01
0.050527880,1,0xE0,0xF0
0.050533600,1,0x2F,0xF0
0.050538880,1,0xF0,0x01
0.050544720,1,0x2E,0x01
0.050550020,1,0xE0,0xF0
0.050555740,1,0x2F,0xF0
0.050561020,1,0xF0,0x01
0.050566860,1,0x2E,0x01
0.050572160,1,0xE0,0xF0
0.050577880,1,0x2F,0xF0
0.050583180,1,0xF0,0x01
0.050589080,1,0x2E,0x01
0.050594360,1,0xE0,0xF0
0.050600100,1,0x2F,0xF0
0.050605380,1,0xF0,0x01
0.050611220,1,0x2E,0x01
0.050616500,1,0xE0,0xF0
0.050622220,1,0x2F,0xF0
0.050627520,1,0xF0,0x01
0.050633360,1,0x2E,0x01
0.050638640,1,0xE0,0xF0
0.050644360,1,0x2F,0xF0
0.050649660,1,0xF0,0x01
0.050655500,1,0x2E,0x01
0.050660780,1,0xE0,0xF0
0.050666500,1,0x2F,0xF0
0.050671800,1,0xF0,0x01
0.050677700,1,0x2E,0x01
0.050683000,1,0xE0,0xF0
0.050688700,1,0x2F,0xF0
0.050694000,1,0xF0,0x01
0.050699860,1,0x2E,0x01
0.050705140,1,0xE0,0xF0
0.050710860,1,0x2F,0xF0
0.050716140,1,0xF0,0x01
0.050722000,1,0x2E,0x01
0.050727280,1,0xE0,0xF0
0.050733000,1,0x2F,0xF0
0.050738280,1,0xF0,0x01
0.050744140,1,0x2E,0x01
0.050749440,1,0xE0,0xF0
0.050755140,1,0x2F,0xF0
0.050760420,1,0xF0,0x01
0.050766340,1,0x2E,0x01
0.050771620,1,0xE0,0xF0
0.050777340,1,0x2F,0xF0
0.050782640,1,0xF0,0x01
0.050788480,1,0x2E,0x01
0.050793760,1,0xE0,0xF0
0.050799500,1,0x2F,0xF0
0.050804780,1,0xF0,0x01
0.050810620,1,0x2E,0x01
0.050815900,1,0xE0,0xF0
0.050821620,1,0x2F,0xF0
0.050826920,1,0xF0,0x01
0.050832760,1,0x2E,0x01
0.050838040,1,0xE0,0xF0
0.050843760,1,0x2F,0xF0
0.050849060,1,0xF0,0x01
0.050854960,1,0x2E,0x01
0.050860240,1,0xE0,0xF0
0.050865960,1,0x2F,0xF0
0.050871260,1,0xF0,0x01
0.050877080,1,0x2E,0x01
0.050882380,1,0xE0,0xF0
0.050888100,1,0x2F,0xF0
0.050893400,1,0xF0,0x01
0.050899240,1,0x2E,0x01
0.050904520,1,0xE0,0xF0
0.050910240,1,0x2F,0xF0
0.050915520,1,0xF0,0x01
0.050921380,1,0x2E,0x01
0.050926660,1,0xE0,0xF0
0.050932380,1,0x2F,0xF0
0.050937660,1,0xF0,0x01
0.050943580,1,0x2E,0x01
0.050948860,1,0xE0,0xF0
0.050954580,1,0x2F,0xF0
0.050959860,1,0xF0,0x01
0.050965700,1,0x2E,0x01
0.050971000,1,0xE0,0xF0
0.050976720,1,0x2F,0xF0
0.050982000,1,0xF0,0x01
0.050987840,1,0x2E,0x01
0.050993140,1,0xE0,0xF0
0.050998860,1,0x2F,0xF0
0.051004140,1,0xF0,0x01
0.051009980,1,0x2E,0x01
0.051015280,1,0xE0,0xF0
0.051021000,1,0x2F,0xF0
0.051026280,1,0xF0,0x01
0.051032180,1,0x2E,0x01
0.051037460,1,0xE0,0xF0
0.051043200,1,0x2F,0xF0
0.051048480,1,0xF0,0x01
0.051054320,1,0x2E,0x01
0.051059600,1,0xE0,0xF0
0.051065320,1,0x2F,0xF0
0.051070620,1,0xF0,0x01
0.051076460,1,0x2E,0x01
0.051081740,1,0xE0,0xF0
0.051087460,1,0x2F,0xF0
0.051092760,1,0xF0,0x01
0.051098600,1,0x2E,0x01
0.051103900,1,0xE0,0xF0
0.051109620,1,0x2F,0xF0
0.051114900,1,0xF0,0x01
0.051120820,1,0x2E,0x01
0.051126100,1,0xE0,0xF0
0.051131820,1,0x2F,0xF0
0.051137120,1,0xF0,0x01
0.051142960,1,0x2E,0x01
0.051148260,1,0xE0,0xF0
0.051153980,1,0x2F,0xF0
0.051159260,1,0xF0,0x01
0.051165120,1,0x2E,0x01
0.051170400,1,0xE0,0xF0
0.051176120,1,0x2F,0xF0
0.051181400,1,0xF0,0x01
0.051187260,1,0x2E,0x01
0.051192560,1,0xE0,0xF0
0.051198280,1,0x2F,0xF0
0.051203560,1,0xF0,0x01
0.051209460,1,0x2E,0x01
0.051214760,1,0xE0,0xF0
0.051220480,1,0x2F,0xF0
0.051225780,1,0xF0,0x01
0.051231620,1,0x2E,0x01
0.051236900,1,0xE0,0xF0
0.051242640,1,0x2F,0xF0
0.051247920,1,0xF0,0x01
0.051253760,1,0x2E,0x01
0.051259040,1,0xE0,0xF0
0.051264780,1,0x2F,0xF0
0.051270060,1,0xF0,0x01
0.051275900,1,0x2E,0x01
0.051281180,1,0xE0,0xF0
0.051286900,1,0x2F,0xF0
0.051292200,1,0xF0,0x01
0.051298100,1,0x2E,0x01
0.051303380,1,0xE0,0xF0
0.051309100,1,0x2F,0xF0
0.051314400,1,0xF0,0x01
0.051320240,1,0x2E,0x01
0.051325520,1,0xE0,0xF0
0.051331240,1,0x2F,0xF0
0.051336520,1,0xF0,0x01
0.051342380,1,0x2E,0x01
0.051347660,1,0xE0,0xF0
0.051353360,1,0x2F,0xF0
0.051358660,1,0xF0,0x01
0.051364500,1,0x2E,0x01
0.051369800,1,0xE0,0xF0
0.051375500,1,0x2F,0xF0
0.051380800,1,0xF0,0x01
0.051386700,1,0x2E,0x01
0.051392000,1,0xE0,0xF0
0.051397720,1,0x2F,0xF0
0.051403000,1,0xF0,0x01
0.051408840,1,0x2E,0x01
0.051414140,1,0x01,0xF0
0.051419840,1,0x2F,0xF0
0.051425140,1,0x20,0x01
0.051430740,1,0x80,0x01
0.051437320,2,0x2A,0x10
0.051442600,2,0xCF,0xCF
0.051478380,2,0x2B,0xCF
0.051483680,2,0x02,0x06
0.051519460,2,0x2C,0x02
0.051524740,2,0x08,0x10
0.051560540,2,0x2D,0x10
0.051565820,2,0x00,0x00
0.051601680,2,0xAE,0x00
0.051606920,2,0xAF,0x1E
0.051612140,2,0x80,0x6C
0.051617800,2,0xAE,0x88
0.051623020,2,0xAF,0x81
0.051628260,2,0x80,0xD7
0.051633860,2,0xAE,0x88
0.051639080,2,0xAF,0xF0
0.051644300,2,0x80,0x00
0.051649960,2,0xAE,0x88
0.051655200,2,0xAF,0x82
0.051660420,2,0x80,0xA9
0.051666020,2,0xAE,0x88
0.051671240,2,0xAF,0xF0
0.051676480,2,0x80,0x00
0.051682080,2,0xAE,0x88
0.051687300,2,0xAF,0xF8
0.051692540,2,0x80,0x03
0.051698140,2,0xAE,0x88
0.051703380,2,0xAF,0x64
0.051708600,2,0x80,0x41
0.051714260,2,0xAE,0x88
0.051719500,2,0xAF,0xF8
0.051724720,2,0x80,0x08
0.051730340,2,0xAE,0x88
0.051735560,2,0xAF,0x60
0.051740780,2,0x80,0xD0
0.051746380,2,0xAE,0x88
0.051751620,2,0xAF,0x35
0.051756860,2,0x80,0x81
0.051762440,2,0xAE,0x88
0.051767680,2,0xAF,0x80
0.051772920,2,0x80,0x90
0.051778580,2,0xAE,0x88
0.051783800,2,0xAF,0x3F
0.051789020,2,0x80,0x00
0.051794620,2,0xAE,0x88
0.051799860,2,0xAF,0xE0
0.051805080,2,0x80,0xF0
0.051810680,2,0xAE,0x88
0.051815920,2,0xAF,0x81
0.051821140,2,0x80,0xA1
0.051826740,2,0xAE,0x88
0.051831980,2,0xAF,0x67
0.051837200,2,0x80,0x6A
0.051842860,2,0xAE,0x88
0.051848080,2,0xAF,0xC9
0.051853320,2,0x80,0x00
0.051858920,2,0xAE,0x88
0.051864140,2,0xAF,0x88
0.051869380,2,0x80,0xC8
0.051874980,2,0xAE,0x88
0.051880200,2,0xAF,0xF0
0.051885420,2,0x80,0x00
0.051891020,2,0xAE,0x88
0.051896260,2,0xAF,0xF8
0.051901480,2,0x80,0x03
0.051907140,2,0xAE,0x88
0.051912380,2,0xAF,0x80
0.051917600,2,0x80,0x98
0.051923200,2,0xAE,0x88
0.051928420,2,0xAF,0xF0
0.051933660,2,0x80,0x00
0.051939260,2,0xAE,0x88
0.051944480,2,0xAF,0x80
0.051949720,2,0x80,0x98
0.051955320,2,0xAE,0x88
0.051960540,2,0xAF,0x60
0.051965780,2,0x80,0x60
0.051971440,2,0xAE,0x88
0.051976680,2,0xAF,0xF8
0.051981900,2,0x80,0x00
0.051987500,2,0xAE,0x88
0.051992720,2,0xAF,0x80
0.051997960,2,0x80,0xAB
0.052003560,2,0xAE,0x88
0.052008800,2,0xAF,0xF0
0.052014020,2,0x80,0x00
0.052019620,2,0xAE,0x88
0.052024860,2,0xAF,0x80
0.052030080,2,0x80,0xAF
0.052035740,2,0xAE,0x88
0.052040980,2,0xAF,0xF0
0.052046200,2,0x80,0x00
0.052051820,2,0xAE,0x88
0.052057040,2,0xAF,0x88
0.052062260,2,0x80,0x20
0.052067860,2,0xAE,0x88
0.052073100,2,0xAF,0xF0
0.052078320,2,0x80,0x00
0.052083920,2,0xAE,0x88
0.052089140,2,0xAF,0xF8
0.052094380,2,0x80,0x05
0.052100040,2,0xAE,0x88
0.052105280,2,0xAF,0x80
0.052110500,2,0x80,0x1B
0.052116100,2,0xAE,0x88
0.052121340,2,0xAF,0xF0
0.052126580,2,0x80,0x00
0.052132180,2,0xAE,0x88
0.052137400,2,0xAF,0xF8
0.052142640,2,0x80,0x02
0.052148240,2,0xAE,0x88
0.052153480,2,0xAF,0x80
0.052158700,2,0x80,0x66
0.052164360,2,0xAE,0x88
0.052169600,2,0xAF,0xF0
0.052174820,2,0x80,0x00
0.052180420,2,0xAE,0x88
0.052185640,2,0xAF,0xC9
0.052190880,2,0x80,0x00
0.052196480,2,0xAE,0x88
0.052201700,2,0xAF,0x8C
0.052206940,2,0x80,0x03
0.052212520,2,0xAE,0x88
0.052217760,2,0xAF,0xF0
0.052223000,2,0x80,0x00
0.052228660,2,0xAE,0x88
0.052233880,2,0xAF,0x60
0.052239100,2,0x80,0x01
0.052244700,2,0xAE,0x88
0.052249940,2,0xAF,0x60
0.052255180,2,0x80,0x02
0.052260760,2,0xAE,0x88
0.052266000,2,0xAF,0xF8
0.052271240,2,0x80,0x05
0.052276840,2,0xAE,0x88
0.052282060,2,0xAF,0x80
0.052287280,2,0x80,0x24
0.052292960,2,0xAE,0x88
0.052298180,2,0xAF,0x64
0.052303420,2,0x80,0x00
0.052309020,2,0xAE,0x88
0.052314240,2,0xAF,0xF8
0.052319480,2,0x80,0x01
0.052325080,2,0xAE,0x88
0.052330300,2,0xAF,0x80
0.052335520,2,0x80,0x79
0.052341120,2,0xAE,0x88
0.052346360,2,0xAF,0x3A
0.052351580,2,0x80,0x00
0.052357240,2,0xAE,0x88
0.052362460,2,0xAF,0xF8
0.052367700,2,0x80,0x04
0.052373300,2,0xAE,0x88
0.052378520,2,0xAF,0x80
0.052383760,2,0x80,0x00
0.052389360,2,0xAE,0x88
0.052394600,2,0xAF,0xF0
0.052399820,2,0x80,0x00
0.052405420,2,0xAE,0x88
0.052410660,2,0xAF,0x39
0.052415880,2,0x80,0x73
0.052421540,2,0xAE,0x88
0.052426780,2,0xAF,0x60
0.052432000,2,0x80,0x00
0.052437600,2,0xAE,0x88
0.052442840,2,0xAF,0x3A
0.052448080,2,0x80,0x10
0.052453680,2,0xAE,0x88
0.052458900,2,0xAF,0x3A
0.052464120,2,0x80,0x20
0.052469740,2,0xAE,0x88
0.052474960,2,0xAF,0xF8
0.052480180,2,0x80,0x02
0.052485840,2,0xAE,0x88
0.052491080,2,0xAF,0x80
0.052496300,2,0x80,0x11
0.052501900,2,0xAE,0x88
0.052507140,2,0xAF,0xF0
0.052512360,2,0x80,0x00
0.052517980,2,0xAE,0x88
0.052523200,2,0xAF,0xF8
0.052528440,2,0x80,0x08
0.052534040,2,0xAE,0x88
0.052539260,2,0xAF,0x64
0.052544500,2,0x80,0xD0
0.052550160,2,0xAE,0x88
0.052555400,2,0xAF,0x3F
0.052560620,2,0x80,0x00
0.052566220,2,0xAE,0x88
0.052571460,2,0xAF,0xE0
0.052576700,2,0x80,0xF0
0.052582280,2,0xAE,0x88
0.052587520,2,0xAF,0x60
0.052592740,2,0x80,0x00
0.052598340,2,0xAE,0x88
0.052603580,2,0xAF,0x3A
0.052608800,2,0x80,0x10
0.052614460,2,0xAE,0x88
0.052619700,2,0xAF,0x3A
0.052624920,2,0x80,0x20
0.052630520,2,0xAE,0x88
0.052635740,2,0xAF,0x60
0.052640960,2,0x80,0x50
0.052646580,2,0xAE,0x88
0.052651800,2,0xAF,0x64
0.052657020,2,0x80,0x01
0.052662620,2,0xAE,0x88
0.052667840,2,0xAF,0x3B
0.052673080,2,0x80,0x00
0.052678740,2,0xAE,0x88
0.052683960,2,0xAF,0xF8
0.052689180,2,0x80,0x08
0.052694780,2,0xAE,0x88
0.052700020,2,0xAF,0x60
0.052705240,2,0x80,0xD0
0.052710840,2,0xAE,0x88
0.052716060,2,0xAF,0x3A
0.052721300,2,0x80,0x01
0.052726880,2,0xAE,0x88
0.052732100,2,0xAF,0x3F
0.052737340,2,0x80,0x00
0.052743000,2,0xAE,0x88
0.052748220,2,0xAF,0xF8
0.052753460,2,0x80,0x22
0.052759040,2,0xAE,0x88
0.052764280,2,0xAF,0x6F
0.052769500,2,0x80,0x7C
0.052775100,2,0xAE,0x88
0.052780320,2,0xAF,0xF8
0.052785560,2,0x80,0x02
0.052791160,2,0xAE,0x88
0.052796380,2,0xAF,0x80
0.052801600,2,0x80,0x4A
0.052807260,2,0xAE,0x88
0.052812500,2,0xAF,0xF0
0.052817740,2,0x80,0x00
0.052823340,2,0xAE,0x88
0.052828560,2,0xAF,0xE0
0.052833780,2,0x80,0xF0
0.052839380,2,0xAE,0x88
0.052844620,2,0xAF,0x81
0.052849840,2,0x80,0x61
0.052855440,2,0xAE,0x88
0.052860660,2,0xAF,0x67
0.052865880,2,0x80,0x6A
0.052871540,2,0xAE,0x88
0.052876760,2,0xAF,0xC9
0.052882000,2,0x80,0x00
0.052887580,2,0xAE,0x88
0.052892820,2,0xAF,0x88
0.052898040,2,0x80,0x88
0.052903640,2,0xAE,0x88
0.052908860,2,0xAF,0xF0
0.052914100,2,0x80,0x00
0.052919700,2,0xAE,0x88
0.052924920,2,0xAF,0xF8
0.052930140,2,0x80,0x03
0.052935820,2,0xAE,0x88
0.052941040,2,0xAF,0x80
0.052946280,2,0x80,0x98
0.052951860,2,0xAE,0x88
0.052957100,2,0xAF,0xF0
0.052962340,2,0x80,0x00
0.052967940,2,0xAE,0x88
0.052973160,2,0xAF,0x80
0.052978400,2,0x80,0x58
0.052984000,2,0xAE,0x88
0.052989220,2,0xAF,0x60
0.052994460,2,0x80,0x60
0.053000120,2,0xAE,0x88
0.053005340,2,0xAF,0xF8
0.053010560,2,0x80,0x00
0.053016160,2,0xAE,0x88
0.053021400,2,0xAF,0x80
0.053026620,2,0x80,0xAB
0.053032200,2,0xAE,0x88
0.053037440,2,0xAF,0xF0
0.053042680,2,0x80,0x00
0.053048260,2,0xAE,0x88
0.053053480,2,0xAF,0x80
0.053058720,2,0x80,0x6F
0.053064380,2,0xAE,0x88
0.053069600,2,0xAF,0xF0
0.053074820,2,0x80,0x00
0.053080420,2,0xAE,0x88
0.053085640,2,0xAF,0x8B
0.053090880,2,0x80,0xE0
0.053096480,2,0xAE,0x88
0.053101700,2,0xAF,0xF0
0.053106940,2,0x80,0x00
0.053112540,2,0xAE,0x88
0.053117780,2,0xAF,0xF8
0.053123000,2,0x80,0x05
0.053128660,2,0xAE,0x88
0.053133880,2,0xAF,0x80
0.053139120,2,0x80,0x1B
0.053144720,2,0xAE,0x88
0.053149940,2,0xAF,0xF0
0.053155160,2,0x80,0x00
0.053160760,2,0xAE,0x88
0.053166000,2,0xAF,0xF8
0.053171220,2,0x80,0x02
0.053176820,2,0xAE,0x88
0.053182040,2,0xAF,0x80
0.053187280,2,0x80,0x66
0.053192940,2,0xAE,0x88
0.053198160,2,0xAF,0xF0
0.053203400,2,0x80,0x00
0.053209000,2,0xAE,0x88
0.053214220,2,0xAF,0xC9
0.053219460,2,0x80,0x00
0.053225060,2,0xAE,0x88
0.053230280,2,0xAF,0x8C
0.053235520,2,0x80,0x03
0.053241120,2,0xAE,0x88
0.053246360,2,0xAF,0xF0
0.053251580,2,0x80,0x00
0.053257260,2,0xAE,0x88
0.053262480,2,0xAF,0x60
0.053267720,2,0x80,0x01
0.053273320,2,0xAE,0x88
0.053278540,2,0xAF,0x60
0.053283780,2,0x80,0x02
0.053289380,2,0xAE,0x88
0.053294600,2,0xAF,0xF8
0.053299840,2,0x80,0x05
0.053305440,2,0xAE,0x88
0.053310660,2,0xAF,0x80
0.053315900,2,0x80,0x24
0.053321560,2,0xAE,0x88
0.053326800,2,0xAF,0xF0
0.053332040,2,0x80,0x00
0.053337640,2,0xAE,0x88
0.053342860,2,0xAF,0xF8
0.053348100,2,0x80,0x04
0.053353700,2,0xAE,0x88
0.053358920,2,0xAF,0x80
0.053364160,2,0x80,0x00
0.053369760,2,0xAE,0x88
0.053374980,2,0xAF,0xF0
0.053380220,2,0x80,0x00
0.053385880,2,0xAE,0x88
0.053391120,2,0xAF,0x80
0.053396340,2,0x80,0x53
0.053401940,2,0xAE,0x88
0.053407160,2,0xAF,0x39
0.053412400,2,0x80,0x73
0.053418000,2,0xAE,0x88
0.053423220,2,0xAF,0x82
0.053428440,2,0x80,0x5D
0.053434040,2,0xAE,0x88
0.053439280,2,0xAF,0xF0
0.053444520,2,0x80,0x00
0.053450160,2,0xAE,0x88
0.053455400,2,0xAF,0x11
0.053460620,2,0x80,0x03
0.053466240,2,0xAE,0x88
0.053471460,2,0xAF,0x94
0.053476680,2,0x80,0x1A
0.053482280,2,0xAE,0x88
0.053487520,2,0xAF,0x60
0.053492740,2,0x80,0x00
0.053498340,2,0xAE,0x88
0.053503560,2,0xAF,0xF8
0.053508800,2,0x80,0x03
0.053514460,2,0xAE,0x88
0.053519680,2,0xAF,0xE5
0.053524900,2,0x80,0xA5
0.053530500,2,0xAE,0x88
0.053535740,2,0xAF,0xF8
0.053540960,2,0x80,0x03
0.053546560,2,0xAE,0x88
0.053551780,2,0xAF,0xE6
0.053557020,2,0x80,0xA6
0.053562620,2,0xAE,0x88
0.053567840,2,0xAF,0xCB
0.053573080,2,0x80,0x51
0.053578720,2,0xAE,0x88
0.053583960,2,0xAF,0xF8
0.053589200,2,0x80,0x0F
0.053594800,2,0xAE,0x88
0.053600020,2,0xAF,0x80
0.053605260,2,0x80,0x52
0.053610860,2,0xAE,0x88
0.053616100,2,0xAF,0xCB
0.053621320,2,0x80,0x62
0.053626920,2,0xAE,0x88
0.053632140,2,0xAF,0xF8
0.053637380,2,0x80,0x02
0.053643040,2,0xAE,0x88
0.053648260,2,0xAF,0x80
0.053653500,2,0x80,0x11
0.053659100,2,0xAE,0x88
0.053664340,2,0xAF,0x3A
0.053669560,2,0x80,0x00
0.053675160,2,0xAE,0x88
0.053680400,2,0xAF,0xF8
0.053685620,2,0x80,0x08
0.053691220,2,0xAE,0x88
0.053696460,2,0xAF,0x6D
0.053701680,2,0x80,0xD0
0.053707340,2,0xAE,0x88
0.053712580,2,0xAF,0x28
0.053717820,2,0x80,0x11
0.053723400,2,0xAE,0x88
0.053728640,2,0xAF,0xF8
0.053733860,2,0x80,0x08
0.053739460,2,0xAE,0x88
0.053744700,2,0xAF,0xE1
0.053749920,2,0x80,0xB1
0.053755520,2,0xAE,0x88
0.053760740,2,0xAF,0x44
0.053765980,2,0x80,0x01
0.053771620,2,0xAE,0x88
0.053776860,2,0xAF,0xF0
0.053782080,2,0x80,0x00
0.053787700,2,0xAE,0x88
0.053792920,2,0xAF,0x8C
0.053798140,2,0x80,0x03
0.053803740,2,0xAE,0x88
0.053808980,2,0xAF,0xF0
0.053814220,2,0x80,0x00
0.053819820,2,0xAE,0x88
0.053825040,2,0xAF,0xF8
0.053830280,2,0x80,0x0B
0.053835940,2,0xAE,0x88
0.053841180,2,0xAF,0x6E
0.053846400,2,0x80,0x10
0.053852000,2,0xAE,0x88
0.053857240,2,0xAF,0x80
0.053862460,2,0x80,0x28
0.053868060,2,0xAE,0x88
0.053873280,2,0xAF,0x3F
0.053878520,2,0x80,0x00
0.053884120,2,0xAE,0x88
0.053889340,2,0xAF,0xE0
0.053894580,2,0x80,0xF0
0.053900220,2,0xAE,0x88
0.053905460,2,0xAF,0x3A
0.053910680,2,0x80,0x10
0.053916280,2,0xAE,0x88
0.053921500,2,0xAF,0xF8
0.053926740,2,0x80,0x02
0.053932340,2,0xAE,0x88
0.053937580,2,0xAF,0x80
0.053942820,2,0x80,0x11
0.053948400,2,0xAE,0x88
0.053953640,2,0xAF,0x3A
0.053958880,2,0x80,0x20
0.053964540,2,0xAE,0x88
0.053969760,2,0xAF,0x60
0.053975000,2,0x80,0x50
0.053980600,2,0xAE,0x88
0.053985820,2,0xAF,0x64
0.053991060,2,0x80,0x01
0.053996660,2,0xAE,0x88
0.054001880,2,0xAF,0x3A
0.054007100,2,0x80,0x01
0.054012720,2,0xAE,0x88
0.054017940,2,0xAF,0xF8
0.054023160,2,0x80,0x08
0.054028820,2,0xAE,0x88
0.054034060,2,0xAF,0x60
0.054039280,2,0x80,0xD1
0.054044880,2,0xAE,0x88
0.054050100,2,0xAF,0x3B
0.054055340,2,0x80,0x00
0.054060940,2,0xAE,0x88
0.054066180,2,0xAF,0x3F
0.054071400,2,0x80,0x01
0.054077000,2,0xAE,0x88
0.054082240,2,0xAF,0xE0
0.054087460,2,0x80,0xF0
0.054093120,2,0xAE,0x88
0.054098340,2,0xAF,0xF8
0.054103580,2,0x80,0x02
0.054109180,2,0xAE,0x88
0.054114400,2,0xAF,0x60
0.054119620,2,0x80,0x81
0.054125220,2,0xAE,0x88
0.054130460,2,0xAF,0x60
0.054135680,2,0x80,0x30
0.054141280,2,0xAE,0x88
0.054146500,2,0xAF,0x30
0.054151740,2,0x80,0x11
0.054157400,2,0xAE,0x88
0.054162620,2,0xAF,0xF8
0.054167840,2,0x80,0x05
0.054173440,2,0xAE,0x88
0.054178660,2,0xAF,0x66
0.054183900,2,0x80,0xC1
0.054189500,2,0xAE,0x88
0.054194720,2,0xAF,0x30
0.054199940,2,0x80,0x50
0.054205540,2,0xAE,0x88
0.054210760,2,0xAF,0x60
0.054216000,2,0x80,0x40
0.054221640,2,0xAE,0x88
0.054226860,2,0xAF,0x35
0.054232100,2,0x80,0xE1
0.054237700,2,0xAE,0x88
0.054242920,2,0xAF,0xF8
0.054248140,2,0x80,0x02
0.054253740,2,0xAE,0x88
0.054258960,2,0xAF,0x67
0.054264200,2,0x80,0x01
0.054269780,2,0xAE,0x88
0.054275020,2,0xAF,0x3B
0.054280240,2,0x80,0x10
0.054285900,2,0xAE,0x88
0.054291120,2,0xAF,0x6C
0.054296360,2,0x80,0x70
0.054301940,2,0xAE,0x88
0.054307180,2,0xAF,0x30
0.054312400,2,0x80,0xC1
0.054318000,2,0xAE,0x88
0.054323220,2,0xAF,0xF8
0.054328460,2,0x80,0x02
0.054334040,2,0xAE,0x88
0.054339280,2,0xAF,0x68
0.054344500,2,0x80,0x01
0.054350160,2,0xAE,0x88
0.054355380,2,0xAF,0x33
0.054360620,2,0x80,0x40
0.054366200,2,0xAE,0x88
0.054371440,2,0xAF,0xBC
0.054376660,2,0x80,0x00
0.054382260,2,0xAE,0x88
0.054387480,2,0xAF,0x30
0.054392700,2,0x80,0x31
0.054398300,2,0xAE,0x88
0.054403520,2,0xAF,0xCB
0.054408760,2,0x80,0x01
0.054414400,2,0xAE,0x88
0.054419620,2,0xAF,0xE5
0.054424860,2,0x80,0x01
0.054430460,2,0xAE,0x88
0.054435680,2,0xAF,0x36
0.054440900,2,0x80,0x71
0.054446480,2,0xAE,0x88
0.054451720,2,0xAF,0x36
0.054456940,2,0x80,0x80
0.054462540,2,0xAE,0x88
0.054467760,2,0xAF,0x36
0.054472980,2,0x80,0x91
0.054478640,2,0xAE,0x88
0.054483880,2,0xAF,0xBC
0.054489100,2,0x80,0x00
0.054494700,2,0xAE,0x88
0.054499920,2,0xAF,0x36
0.054505140,2,0x80,0xA0
0.054510740,2,0xAE,0x88
0.054515960,2,0xAF,0xF8
0.054521200,2,0x80,0x09
0.054526780,2,0xAE,0x88
0.054532020,2,0xAF,0x80
0.054537240,2,0x80,0xE6
0.054542900,2,0xAE,0x88
0.054548120,2,0xAF,0x20
0.054553360,2,0x80,0xB0
0.054558960,2,0xAE,0x88
0.054564180,2,0xAF,0x70
0.054569400,2,0x80,0xE5
0.054575000,2,0xAE,0x88
0.054580240,2,0xAF,0xF8
0.054585460,2,0x80,0x06
0.054591040,2,0xAE,0x88
0.054596280,2,0xAF,0x80
0.054601500,2,0x80,0x6B
0.054607160,2,0xAE,0x88
0.054612400,2,0xAF,0x7F
0.054617620,2,0x80,0x36
0.054623220,2,0xAE,0x88
0.054628460,2,0xAF,0xF8
0.054633680,2,0x80,0x06
0.054639260,2,0xAE,0x88
0.054644500,2,0xAF,0x80
0.054649720,2,0x80,0x8C
0.054655320,2,0xAE,0x88
0.054660540,2,0xAF,0xF0
0.054665760,2,0x80,0x00
0.054671420,2,0xAE,0x88
0.054676640,2,0xAF,0xF8
0.054681880,2,0x80,0x03
0.054687460,2,0xAE,0x88
0.054692680,2,0xAF,0x64
0.054697920,2,0x80,0x40
0.054703520,2,0xAE,0x88
0.054708740,2,0xAF,0xBC
0.054713960,2,0x80,0x00
0.054719560,2,0xAE,0x88
0.054724780,2,0xAF,0x35
0.054730020,2,0x80,0x80
0.054735680,2,0xAE,0x88
0.054740900,2,0xAF,0xF8
0.054746120,2,0x80,0x22
0.054751720,2,0xAE,0x88
0.054756960,2,0xAF,0x6F
0.054762180,2,0x80,0x0D
0.054767760,2,0xAE,0x88
0.054773000,2,0xAF,0xCC
0.054778220,2,0x80,0xD5
0.054783820,2,0xAE,0x88
0.054789040,2,0xAF,0xCC
0.054794260,2,0x80,0xD6
0.054799920,2,0xAE,0x88
0.054805160,2,0xAF,0xC0
0.054810380,2,0x80,0x15
0.054815960,2,0xAE,0x88
0.054821200,2,0xAF,0xBC
0.054826420,2,0x80,0x00
0.054832020,2,0xAE,0x88
0.054837240,2,0xAF,0xC0
0.054842460,2,0x80,0x26
0.054848060,2,0xAE,0x88
0.054853300,2,0xAF,0x21
0.054858520,2,0x80,0x20
0.054864160,2,0xAE,0x88
0.054869400,2,0xAF,0x21
0.054874620,2,0x80,0x31
0.054880220,2,0xAE,0x88
0.054885440,2,0xAF,0xC0
0.054890660,2,0x80,0x10
0.054896260,2,0xAE,0x88
0.054901500,2,0xAF,0x21
0.054906720,2,0x80,0x62
0.054912320,2,0xAE,0x88
0.054917540,2,0xAF,0x21
0.054922760,2,0x80,0x73
0.054928420,2,0xAE,0x88
0.054933640,2,0xAF,0xC0
0.054938860,2,0x80,0x32
0.054944460,2,0xAE,0x88
0.054949700,2,0xAF,0xC0
0.054954940,2,0x80,0x20
0.054960520,2,0xAE,0x88
0.054965760,2,0xAF,0x26
0.054970980,2,0x80,0xB1
0.054976580,2,0xAE,0x88
0.054981820,2,0xAF,0xF8
0.054987040,2,0x80,0x02
0.054992700,2,0xAE,0x88
0.054997940,2,0xAF,0xE0
0.055003160,2,0x80,0xB0
0.055008760,2,0xAE,0x88
0.055013980,2,0xAF,0xC2
0.055019220,2,0x80,0x01
0.055024820,2,0xAE,0x88
0.055030040,2,0xAF,0x7F
0.055035260,2,0x80,0xF0
0.055040860,2,0xAE,0x88
0.055046080,2,0xAF,0x60
0.055051320,2,0x80,0x01
0.055056980,2,0xAE,0x88
0.055062220,2,0xAF,0xBC
0.055067440,2,0x80,0x00
0.055073040,2,0xAE,0x88
0.055078260,2,0xAF,0xC1
0.055083480,2,0x80,0x10
0.055089080,2,0xAE,0x88
0.055094300,2,0xAF,0x61
0.055099540,2,0x80,0x91
0.055105140,2,0xAE,0x88
0.055110360,2,0xAF,0xF8
0.055115580,2,0x80,0x0B
0.055121240,2,0xAE,0x88
0.055126460,2,0xAF,0x84
0.055131700,2,0x80,0x80
0.055137280,2,0xAE,0x88
0.055142520,2,0xAF,0x3B
0.055147740,2,0x80,0x01
0.055153340,2,0xAE,0x88
0.055158560,2,0xAF,0xF8
0.055163780,2,0x80,0x04
0.055169380,2,0xAE,0x88
0.055174620,2,0xAF,0x80
0.055179840,2,0x80,0xE8
0.055185500,2,0xAE,0x88
0.055190720,2,0xAF,0xF0
0.055195960,2,0x80,0x00
0.055201560,2,0xAE,0x88
0.055206780,2,0xAF,0x80
0.055212000,2,0x80,0xCE
0.055217600,2,0xAE,0x88
0.055222840,2,0xAF,0x67
0.055228060,2,0x80,0x6A
0.055233640,2,0xAE,0x88
0.055238860,2,0xAF,0xC9
0.055244100,2,0x80,0x00
0.055249740,2,0xAE,0x88
0.055254980,2,0xAF,0xF8
0.055260200,2,0x80,0x0B
0.055265780,2,0xAE,0x88
0.055271000,2,0xAF,0x88
0.055276240,2,0x80,0x80
0.055281820,2,0xAE,0x88
0.055287040,2,0xAF,0xF0
0.055292280,2,0x80,0x00
0.055297860,2,0xAE,0x88
0.055303100,2,0xAF,0xF8
0.055308320,2,0x80,0x0E
0.055313960,2,0xAE,0x88
0.055319180,2,0xAF,0x80
0.055324400,2,0x80,0x7E
0.055330000,2,0xAE,0x88
0.055335220,2,0xAF,0xF0
0.055340440,2,0x80,0x00
0.055346040,2,0xAE,0x88
0.055351260,2,0xAF,0xF8
0.055356480,2,0x80,0x0F
0.055362080,2,0xAE,0x88
0.055367300,2,0xAF,0x80
0.055372520,2,0x80,0x61
0.055378180,2,0xAE,0x88
0.055383420,2,0xAF,0xF0
0.055388640,2,0x80,0x00
0.055394240,2,0xAE,0x88
0.055399460,2,0xAF,0xF8
0.055404680,2,0x80,0x00
0.055410280,2,0xAE,0x88
0.055415500,2,0xAF,0x80
0.055420720,2,0x80,0xAB
0.055426320,2,0xAE,0x88
0.055431540,2,0xAF,0xF0
0.055436760,2,0x80,0x00
0.055442420,2,0xAE,0x88
0.055447640,2,0xAF,0xF8
0.055452860,2,0x80,0x05
0.055458460,2,0xAE,0x88
0.055463680,2,0xAF,0x80
0.055468900,2,0x80,0x10
0.055474500,2,0xAE,0x88
0.055479720,2,0xAF,0xF0
0.055484940,2,0x80,0x00
0.055490520,2,0xAE,0x88
0.055495740,2,0xAF,0xF8
0.055500980,2,0x80,0x02
0.055506620,2,0xAE,0x88
0.055511840,2,0xAF,0x80
0.055517080,2,0x80,0x66
0.055522680,2,0xAE,0x88
0.055527900,2,0xAF,0xF0
0.055533120,2,0x80,0x00
0.055538700,2,0xAE,0x88
0.055543940,2,0xAF,0xC9
0.055549160,2,0x80,0x00
0.055554760,2,0xAE,0x88
0.055559980,2,0xAF,0x88
0.055565220,2,0x80,0x4E
0.055570880,2,0xAE,0x88
0.055576100,2,0xAF,0xF0
0.055581320,2,0x80,0x00
0.055586920,2,0xAE,0x88
0.055592140,2,0xAF,0xF8
0.055597380,2,0x80,0x05
0.055602960,2,0xAE,0x88
0.055608180,2,0xAF,0x80
0.055613420,2,0x80,0x24
0.055619000,2,0xAE,0x88
0.055624240,2,0xAF,0xF0
0.055629460,2,0x80,0x00
0.055635100,2,0xAE,0x88
0.055640320,2,0xAF,0xF8
0.055645560,2,0x80,0x04
0.055651160,2,0xAE,0x88
0.055656380,2,0xAF,0x80
0.055661600,2,0x80,0x52
0.055667180,2,0xAE,0x88
0.055672420,2,0xAF,0xF0
0.055677640,2,0x80,0x00
0.055683220,2,0xAE,0x88
0.055688460,2,0xAF,0xC9
0.055693680,2,0x80,0x00
0.055699340,2,0xAE,0x88
0.055704560,2,0xAF,0x88
0.055709780,2,0x80,0x71
0.055715360,2,0xAE,0x88
0.055720600,2,0xAF,0xF0
0.055725840,2,0x80,0x00
0.055731420,2,0xAE,0x88
0.055736640,2,0xAF,0xF8
0.055741880,2,0x80,0x00
0.055747480,2,0xAE,0x88
0.055752700,2,0xAF,0x80
0.055757920,2,0x80,0xAB
0.055763580,2,0xAE,0x88
0.055768800,2,0xAF,0xF0
0.055774020,2,0x80,0x00
0.055779620,2,0xAE,0x88
0.055784840,2,0xAF,0xF8
0.055790060,2,0x80,0x04
0.055795660,2,0xAE,0x88
0.055800880,2,0xAF,0x80
0.055806100,2,0x80,0x70
0.055811700,2,0xAE,0x88
0.055816920,2,0xAF,0xF0
0.055822160,2,0x80,0x00
0.055827820,2,0xAE,0x88
0.055833040,2,0xAF,0xC9
0.055838260,2,0x80,0x00
0.055843860,2,0xAE,0x88
0.055849100,2,0xAF,0x88
0.055854320,2,0x80,0x6C
0.055859900,2,0xAE,0x88
0.055865140,2,0xAF,0xF0
0.055870360,2,0x80,0x00
0.055875940,2,0xAE,0x88
0.055881160,2,0xAF,0xF8
0.055886400,2,0x80,0x02
0.055892040,2,0xAE,0x88
0.055897280,2,0xAF,0x80
0.055902500,2,0x80,0x66
0.055908080,2,0xAE,0x88
0.055913300,2,0xAF,0xF0
0.055918520,2,0x80,0x00
0.055924120,2,0xAE,0x88
0.055929340,2,0xAF,0xC9
0.055934560,2,0x80,0x00
0.055940160,2,0xAE,0x88
0.055945380,2,0xAF,0x88
0.055950600,2,0x80,0x62
0.055956260,2,0xAE,0x88
0.055961480,2,0xAF,0xF0
0.055966700,2,0x80,0x00
0.055972300,2,0xAE,0x88
0.055977520,2,0xAF,0xF8
0.055982740,2,0x80,0x04
0.055988320,2,0xAE,0x88
0.055993560,2,0xAF,0x80
0.055998780,2,0x80,0x82
0.056004360,2,0xAE,0x88
0.056009580,2,0xAF,0xF0
0.056014800,2,0x80,0x00
0.056020460,2,0xAE,0x88
0.056025680,2,0xAF,0x29
0.056030900,2,0x80,0x20
0.056036500,2,0xAE,0x88
0.056041720,2,0xAF,0x40
0.056046940,2,0x80,0x60
0.056052540,2,0xAE,0x88
0.056057760,2,0xAF,0x29
0.056062980,2,0x80,0x20
0.056068580,2,0xAE,0x88
0.056073800,2,0xAF,0x8C
0.056079020,2,0x80,0x04
0.056084680,2,0xAE,0x88
0.056089900,2,0xAF,0xF0
0.056095120,2,0x80,0x00
0.056100720,2,0xAE,0x88
0.056105940,2,0xAF,0xF8
0.056111160,2,0x80,0x04
0.056116760,2,0xAE,0x88
0.056121980,2,0xAF,0x80
0.056127200,2,0x80,0xB0
0.056132800,2,0xAE,0x88
0.056138020,2,0xAF,0xF0
0.056143240,2,0x80,0x00
0.056148900,2,0xAE,0x88
0.056154120,2,0xAF,0xF8
0.056159340,2,0x80,0x04
0.056164940,2,0xAE,0x88
0.056170180,2,0xAF,0x80
0.056175400,2,0x80,0x8F
0.056180980,2,0xAE,0x88
0.056186200,2,0xAF,0xF0
0.056191440,2,0x80,0x00
0.056197020,2,0xAE,0x88
0.056202240,2,0xAF,0xF8
0.056207480,2,0x80,0x01
0.056213140,2,0xAE,0x88
0.056218360,2,0xAF,0x80
0.056223580,2,0x80,0x79
0.056229180,2,0xAE,0x88
0.056234400,2,0xAF,0xF0
0.056239640,2,0x80,0x00
0.056245240,2,0xAE,0x88
0.056250460,2,0xAF,0xF8
0.056255700,2,0x80,0x04
0.056261280,2,0xAE,0x88
0.056266520,2,0xAF,0x80
0.056271760,2,0x80,0xA0
0.056277400,2,0xAE,0x88
0.056282640,2,0xAF,0xF0
0.056287860,2,0x80,0x00
0.056293460,2,0xAE,0x88
0.056298700,2,0xAF,0xF8
0.056303920,2,0x80,0x0E
0.056309520,2,0xAE,0x88
0.056314740,2,0xAF,0x80
0.056319980,2,0x80,0xDA
0.056325560,2,0xAE,0x88
0.056330800,2,0xAF,0xF0
0.056336020,2,0x80,0x00
0.056341680,2,0xAE,0x88
0.056346900,2,0xAF,0xF8
0.056352120,2,0x80,0x00
0.056357720,2,0xAE,0x88
0.056362940,2,0xAF,0x6F
0.056368180,2,0x80,0xF6
0.056373760,2,0xAE,0x88
0.056378980,2,0xAF,0x60
0.056384220,2,0x80,0x47
0.056389820,2,0xAE,0x88
0.056395040,2,0xAF,0xF8
0.056400260,2,0x80,0x0D
0.056405920,2,0xAE,0x88
0.056411140,2,0xAF,0x80
0.056416380,2,0x80,0xF7
0.056421980,2,0xAE,0x88
0.056427200,2,0xAF,0x28
0.056432420,2,0x80,0x58
0.056438020,2,0xAE,0x88
0.056443260,2,0xAF,0xF8
0.056448480,2,0x80,0x0E
0.056454080,2,0xAE,0x88
0.056459300,2,0xAF,0x80
0.056464540,2,0x80,0x4F
0.056470200,2,0xAE,0x88
0.056475420,2,0xAF,0xF0
0.056480640,2,0x80,0x00
0.056486240,2,0xAE,0x88
0.056491460,2,0xAF,0xF8
0.056496700,2,0x80,0x0F
0.056502280,2,0xAE,0x88
0.056507500,2,0xAF,0x80
0.056512740,2,0x80,0x5F
0.056518340,2,0xAE,0x88
0.056523560,2,0xAF,0x29
0.056528800,2,0x80,0x70
0.056534460,2,0xAE,0x88
0.056539680,2,0xAF,0x29
0.056544920,2,0x80,0x29
0.056550500,2,0xAE,0x88
0.056555740,2,0xAF,0xF8
0.056560960,2,0x80,0x01
0.056566580,2,0xAE,0x88
0.056571800,2,0xAF,0x80
0.056577020,2,0x80,0xB8
0.056582620,2,0xAE,0x88
0.056587860,2,0xAF,0xC9
0.056593080,2,0x80,0x9B
0.056598740,2,0xAE,0x88
0.056603980,2,0xAF,0x80
0.056609200,2,0x80,0x40
0.056614800,2,0xAE,0x88
0.056620020,2,0xAF,0xF0
0.056625260,2,0x80,0x00
0.056630840,2,0xAE,0x88
0.056636080,2,0xAF,0xF8
0.056641300,2,0x80,0x22
0.056646900,2,0xAE,0x88
0.056652120,2,0xAF,0x6F
0.056657340,2,0x80,0x0D
0.056663000,2,0xAE,0x88
0.056668240,2,0xAF,0xCC
0.056673460,2,0x80,0xD1
0.056679060,2,0xAE,0x88
0.056684280,2,0xAF,0xCC
0.056689500,2,0x80,0xD2
0.056695100,2,0xAE,0x88
0.056700320,2,0xAF,0xF8
0.056705560,2,0x80,0x03
0.056711160,2,0xAE,0x88
0.056716380,2,0xAF,0xE1
0.056721600,2,0x80,0xA1
0.056727260,2,0xAE,0x88
0.056732480,2,0xAF,0xF8
0.056737720,2,0x80,0x03
0.056743300,2,0xAE,0x88
0.056748540,2,0xAF,0xE2
0.056753760,2,0x80,0xA2
0.056759360,2,0xAE,0x88
0.056764600,2,0xAF,0xF8
0.056769820,2,0x80,0x0F
0.056775420,2,0xAE,0x88
0.056780640,2,0xAF,0x80
0.056785880,2,0x80,0x52
0.056791540,2,0xAE,0x88
0.056796760,2,0xAF,0xF0
0.056801980,2,0x80,0x00
0.056807580,2,0xAE,0x88
0.056812800,2,0xAF,0xE0
0.056818040,2,0x80,0xF0
0.056823620,2,0xAE,0x88
0.056828860,2,0xAF,0x26
0.056834080,2,0x80,0xEF
0.056839700,2,0xAE,0x88
0.056844920,2,0xAF,0xF8
0.056850140,2,0x80,0x0D
0.056855800,2,0xAE,0x88
0.056861020,2,0xAF,0x80
0.056866260,2,0x80,0x90
0.056871840,2,0xAE,0x88
0.056877080,2,0xAF,0x11
0.056882300,2,0x80,0xCF
0.056887900,2,0xAE,0x88
0.056893140,2,0xAF,0xF8
0.056898360,2,0x80,0x01
0.056903960,2,0xAE,0x88
0.056909200,2,0xAF,0x60
0.056914440,2,0x80,0x0D
0.056920080,2,0xAE,0x88
0.056925320,2,0xAF,0xF0
0.056930560,2,0x80,0x00
0.056936160,2,0xAE,0x88
0.056941380,2,0xAF,0xC8
0.056946620,2,0x80,0x0D
0.056952200,2,0xAE,0x88
0.056957440,2,0xAF,0x88
0.056962680,2,0x80,0x4B
0.056968280,2,0xAE,0x88
0.056973500,2,0xAF,0xF0
0.056978740,2,0x80,0x00
0.056984400,2,0xAE,0x88
0.056989620,2,0xAF,0xF8
0.056994860,2,0x80,0x05
0.057000440,2,0xAE,0x88
0.057005680,2,0xAF,0x80
0.057010920,2,0x80,0x24
0.057016500,2,0xAE,0x88
0.057021740,2,0xAF,0xF0
0.057026960,2,0x80,0x00
0.057032560,2,0xAE,0x88
0.057037800,2,0xAF,0xF8
0.057043020,2,0x80,0x05
0.057048680,2,0xAE,0x88
0.057053900,2,0xAF,0x80
0.057059120,2,0x80,0x31
0.057064720,2,0xAE,0x88
0.057069940,2,0xAF,0xF0
0.057075180,2,0x80,0x00
0.057080780,2,0xAE,0x88
0.057086000,2,0xAF,0xC9
0.057091240,2,0x80,0x00
0.057096840,2,0xAE,0x88
0.057102060,2,0xAF,0x88
0.057107300,2,0x80,0x15
0.057112960,2,0xAE,0x88
0.057118180,2,0xAF,0xF0
0.057123400,2,0x80,0x00
0.057129000,2,0xAE,0x88
0.057134240,2,0xAF,0xF8
0.057139480,2,0x80,0x00
0.057145060,2,0xAE,0x88
0.057150300,2,0xAF,0x80
0.057155520,2,0x80,0xAB
0.057161120,2,0xAE,0x88
0.057166360,2,0xAF,0xF0
0.057171580,2,0x80,0x00
0.057177240,2,0xAE,0x88
0.057182460,2,0xAF,0xF8
0.057187700,2,0x80,0x04
0.057193300,2,0xAE,0x88
0.057198520,2,0xAF,0x80
0.057203760,2,0x80,0x70
0.057209360,2,0xAE,0x88
0.057214580,2,0xAF,0xF0
0.057219820,2,0x80,0x00
0.057225420,2,0xAE,0x88
0.057230640,2,0xAF,0xC9
0.057235880,2,0x80,0x00
0.057241540,2,0xAE,0x88
0.057246780,2,0xAF,0x88
0.057252000,2,0x80,0x0C
0.057257600,2,0xAE,0x88
0.057262840,2,0xAF,0xF0
0.057268060,2,0x80,0x00
0.057273660,2,0xAE,0x88
0.057278900,2,0xAF,0xF8
0.057284120,2,0x80,0x02
0.057289720,2,0xAE,0x88
0.057294960,2,0xAF,0x80
0.057300180,2,0x80,0x66
0.057305840,2,0xAE,0x88
0.057311080,2,0xAF,0xF0
0.057316300,2,0x80,0x00
0.057321900,2,0xAE,0x88
0.057327140,2,0xAF,0xC9
0.057332380,2,0x80,0x00
0.057337980,2,0xAE,0x88
0.057343200,2,0xAF,0x88
0.057348420,2,0x80,0x06
0.057354020,2,0xAE,0x88
0.057359260,2,0xAF,0xF0
0.057364480,2,0x80,0x00
0.057370140,2,0xAE,0x88
0.057375360,2,0xAF,0xF8
0.057380600,2,0x80,0x05
0.057386200,2,0xAE,0x88
0.057391420,2,0xAF,0x80
0.057396660,2,0x80,0x54
0.057402260,2,0xAE,0x88
0.057407480,2,0xAF,0xF0
0.057412720,2,0x80,0x00
0.057418300,2,0xAE,0x88
0.057423540,2,0xAF,0x87
0.057428760,2,0x80,0x90
0.057434420,2,0xAE,0x88
0.057439660,2,0xAF,0xF0
0.057444880,2,0x80,0x00
0.057450480,2,0xAE,0x88
0.057455720,2,0xAF,0xF8
0.057460940,2,0x80,0x0D
0.057466540,2,0xAE,0x88
0.057471760,2,0xAF,0x80
0.057477000,2,0x80,0xED
0.057482600,2,0xAE,0x88
0.057487820,2,0xAF,0xF0
0.057493040,2,0x80,0x00
0.057498700,2,0xAE,0x88
0.057503940,2,0xAF,0x87
0.057509160,2,0x80,0x8B
0.057514760,2,0xAE,0x88
0.057519980,2,0xAF,0xF0
0.057525200,2,0x80,0x00
0.057530800,2,0xAE,0x88
0.057536040,2,0xAF,0x29
0.057541260,2,0x80,0x20
0.057546860,2,0xAE,0x88
0.057552080,2,0xAF,0x50
0.057557320,2,0x80,0x40
0.057562980,2,0xAE,0x88
0.057568200,2,0xAF,0x87
0.057573420,2,0x80,0xA4
0.057579020,2,0xAE,0x88
0.057584260,2,0xAF,0x39
0.057589480,2,0x80,0x20
0.057595080,2,0xAE,0x88
0.057600300,2,0xAF,0x60
0.057605540,2,0x80,0x01
0.057611140,2,0xAE,0x88
0.057616360,2,0xAF,0x87
0.057621580,2,0x80,0x99
0.057627240,2,0xAE,0x88
0.057632480,2,0xAF,0x60
0.057637700,2,0x80,0x02
0.057643300,2,0xAE,0x88
0.057648520,2,0xAF,0x28
0.057653760,2,0x80,0x58
0.057659360,2,0xAE,0x88
0.057664580,2,0xAF,0xF8
0.057669800,2,0x80,0x01
0.057675400,2,0xAE,0x88
0.057680640,2,0xAF,0x60
0.057685860,2,0x80,0x03
0.057691520,2,0xAE,0x88
0.057696740,2,0xAF,0xCB
0.057701960,2,0x80,0x12
0.057707580,2,0xAE,0x88
0.057712800,2,0xAF,0xC2
0.057718020,2,0x80,0x81
0.057723620,2,0xAE,0x88
0.057728840,2,0xAF,0xCB
0.057734080,2,0x80,0x21
0.057739660,2,0xAE,0x88
0.057744900,2,0xAF,0x8C
0.057750120,2,0x80,0x0A
0.057755780,2,0xAE,0x88
0.057761000,2,0xAF,0xCB
0.057766240,2,0x80,0x02
0.057771820,2,0xAE,0x88
0.057777060,2,0xAF,0x10
0.057782300,2,0x80,0x41
0.057787900,2,0xAE,0x88
0.057793120,2,0xAF,0x8C
0.057798360,2,0x80,0x11
0.057803960,2,0xAE,0x88
0.057809200,2,0xAF,0xC2
0.057814420,2,0x80,0x30
0.057820060,2,0xAE,0x88
0.057825300,2,0xAF,0x60
0.057830520,2,0x80,0x01
0.057836120,2,0xAE,0x88
0.057841340,2,0xAF,0xF8
0.057846580,2,0x80,0x08
0.057852180,2,0xAE,0x88
0.057857420,2,0xAF,0x6D
0.057862640,2,0x80,0xD0
0.057868240,2,0xAE,0x88
0.057873460,2,0xAF,0x3A
0.057878700,2,0x80,0x01
0.057884360,2,0xAE,0x88
0.057889600,2,0xAF,0xBC
0.057894820,2,0x80,0x00
0.057900420,2,0xAE,0x88
0.057905660,2,0xAF,0x3F
0.057910880,2,0x80,0x00
0.057916480,2,0xAE,0x88
0.057921700,2,0xAF,0x12
0.057926940,2,0x80,0x00
0.057932540,2,0xAE,0x88
0.057937760,2,0xAF,0x97
0.057942980,2,0x80,0xF8
0.057948640,2,0xAE,0x88
0.057953880,2,0xAF,0x60
0.057959100,2,0x80,0x21
0.057964700,2,0xAE,0x88
0.057969920,2,0xAF,0xF8
0.057975160,2,0x80,0x09
0.057980760,2,0xAE,0x88
0.057985980,2,0xAF,0x6F
0.057991200,2,0x80,0xA0
0.057996800,2,0xAE,0x88
0.058002040,2,0xAF,0xF8
0.058007260,2,0x80,0x02
0.058012920,2,0xAE,0x88
0.058018140,2,0xAF,0x80
0.058023380,2,0x80,0xEF
0.058028980,2,0xAE,0x88
0.058034220,2,0xAF,0x3A
0.058039440,2,0x80,0x01
0.058045020,2,0xAE,0x88
0.058050260,2,0xAF,0xBC
0.058055500,2,0x80,0x00
0.058061100,2,0xAE,0x88
0.058066320,2,0xAF,0x3F
0.058071540,2,0x80,0x00
0.058077200,2,0xAE,0x88
0.058082440,2,0xAF,0x93
0.058087660,2,0x80,0xEF
0.058093260,2,0xAE,0x88
0.058098480,2,0xAF,0xF0
0.058103720,2,0x80,0x00
0.058109320,2,0xAE,0x88
0.058114560,2,0xAF,0xF8
0.058119780,2,0x80,0x0B
0.058125380,2,0xAE,0x88
0.058130620,2,0xAF,0x61
0.058135840,2,0x80,0x40
0.058141500,2,0xAE,0x88
0.058146720,2,0xAF,0xBC
0.058151940,2,0x80,0x00
0.058157540,2,0xAE,0x88
0.058162760,2,0xAF,0x3F
0.058167980,2,0x80,0x00
0.058173580,2,0xAE,0x88
0.058178820,2,0xAF,0xF8
0.058184040,2,0x80,0x0F
0.058189640,2,0xAE,0x88
0.058194860,2,0xAF,0x80
0.058200100,2,0x80,0x6C
0.058205760,2,0xAE,0x88
0.058211000,2,0xAF,0xF0
0.058216220,2,0x80,0x00
0.058221800,2,0xAE,0x88
0.058227040,2,0xAF,0xF8
0.058232260,2,0x80,0x00
0.058237860,2,0xAE,0x88
0.058243080,2,0xAF,0x80
0.058248300,2,0x80,0xAB
0.058253900,2,0xAE,0x88
0.058259140,2,0xAF,0xF0
0.058264360,2,0x80,0x00
0.058270020,2,0xAE,0x88
0.058275240,2,0xAF,0xF8
0.058280480,2,0x80,0x04
0.058286080,2,0xAE,0x88
0.058291300,2,0xAF,0x80
0.058296520,2,0x80,0x70
0.058302120,2,0xAE,0x88
0.058307360,2,0xAF,0xF0
0.058312580,2,0x80,0x00
0.058318180,2,0xAE,0x88
0.058323400,2,0xAF,0xF8
0.058328640,2,0x80,0x02
0.058334300,2,0xAE,0x88
0.058339520,2,0xAF,0x80
0.058344740,2,0x80,0x66
0.058350340,2,0xAE,0x88
0.058355580,2,0xAF,0xF0
0.058360800,2,0x80,0x00
0.058366400,2,0xAE,0x88
0.058371620,2,0xAF,0xC9
0.058376840,2,0x80,0x00
0.058382460,2,0xAE,0x88
0.058387680,2,0xAF,0x8C
0.058392900,2,0x80,0x03
0.058398560,2,0xAE,0x88
0.058403780,2,0xAF,0xF0
0.058409020,2,0x80,0x00
0.058414600,2,0xAE,0x88
0.058419840,2,0xAF,0x60
0.058425060,2,0x80,0x01
0.058430660,2,0xAE,0x88
0.058435880,2,0xAF,0x60
0.058441120,2,0x80,0x02
0.058446720,2,0xAE,0x88
0.058451940,2,0xAF,0xF8
0.058457180,2,0x80,0x05
0.058462840,2,0xAE,0x88
0.058468060,2,0xAF,0x80
0.058473280,2,0x80,0x24
0.058478880,2,0xAE,0x88
0.058484120,2,0xAF,0xF0
0.058489340,2,0x80,0x00
0.058494940,2,0xAE,0x88
0.058500180,2,0xAF,0x87
0.058505400,2,0x80,0x4D
0.058511000,2,0xAE,0x88
0.058516220,2,0xAF,0xF0
0.058521460,2,0x80,0x00
0.058527120,2,0xAE,0x88
0.058532360,2,0xAF,0x20
0.058537580,2,0x80,0xB1
0.058543180,2,0xAE,0x88
0.058548400,2,0xAF,0x60
0.058553640,2,0x80,0x00
0.058559240,2,0xAE,0x88
0.058564460,2,0xAF,0x28
0.058569680,2,0x80,0xA6
0.058575300,2,0xAE,0x88
0.058580520,2,0xAF,0x28
0.058585740,2,0x80,0x97
0.058591400,2,0xAE,0x88
0.058596640,2,0xAF,0xE2
0.058601860,2,0x80,0x06
0.058607460,2,0xAE,0x88
0.058612680,2,0xAF,0xF8
0.058617920,2,0x80,0x01
0.058623520,2,0xAE,0x88
0.058628740,2,0xAF,0x62
0.058633980,2,0x80,0xC8
0.058639560,2,0xAE,0x88
0.058644800,2,0xAF,0xF8
0.058650020,2,0x80,0x00
0.058655680,2,0xAE,0x88
0.058660920,2,0xAF,0x80
0.058666140,2,0x80,0x25
0.058671740,2,0xAE,0x88
0.058676980,2,0xAF,0x46
0.058682220,2,0x80,0x31
0.058687800,2,0xAE,0x88
0.058693040,2,0xAF,0x21
0.058698280,2,0x80,0x25
0.058703880,2,0xAE,0x88
0.058709100,2,0xAF,0x13
0.058714320,2,0x80,0xC5
0.058719980,2,0xAE,0x88
0.058725220,2,0xAF,0x90
0.058730460,2,0x80,0x07
0.058736060,2,0xAE,0x88
0.058741280,2,0xAF,0x21
0.058746520,2,0x80,0x04
0.058752120,2,0xAE,0x88
0.058757360,2,0xAF,0xF8
0.058762580,2,0x80,0x02
0.058768180,2,0xAE,0x88
0.058773420,2,0xAF,0x64
0.058778640,2,0x80,0x47
0.058784300,2,0xAE,0x88
0.058789540,2,0xAF,0x21
0.058794760,2,0x80,0x45
0.058800360,2,0xAE,0x88
0.058805600,2,0xAF,0xC2
0.058810820,2,0x80,0x74
0.058816420,2,0xAE,0x88
0.058821640,2,0xAF,0x90
0.058826880,2,0x80,0x03
0.058832480,2,0xAE,0x88
0.058837700,2,0xAF,0xC2
0.058842940,2,0x80,0x75
0.058848600,2,0xAE,0x88
0.058853840,2,0xAF,0xBC
0.058859060,2,0x80,0x00
0.058864640,2,0xAE,0x88
0.058869880,2,0xAF,0x62
0.058875100,2,0x80,0x00
0.058880700,2,0xAE,0x88
0.058885940,2,0xAF,0x97
0.058891160,2,0x80,0xFD
0.058896760,2,0xAE,0x88
0.058901980,2,0xAF,0xF0
0.058907200,2,0x80,0x00
0.058912860,2,0xAE,0x88
0.058918080,2,0xAF,0xBC
0.058923320,2,0x80,0x00
0.058928920,2,0xAE,0x88
0.058934140,2,0xAF,0xF0
0.058939380,2,0x80,0x00
0.058944960,2,0xAE,0x88
0.058950200,2,0xAF,0x20
0.058955440,2,0x80,0xB1
0.058961020,2,0xAE,0x88
0.058966240,2,0xAF,0x60
0.058971480,2,0x80,0x00
0.058977140,2,0xAE,0x88
0.058982360,2,0xAF,0x28
0.058987580,2,0x80,0xA6
0.058993180,2,0xAE,0x88
0.058998420,2,0xAF,0x28
0.059003640,2,0x80,0x97
0.059009220,2,0xAE,0x88
0.059014460,2,0xAF,0xE2
0.059019680,2,0x80,0x06
0.059025280,2,0xAE,0x88
0.059030520,2,0xAF,0xF8
0.059035740,2,0x80,0x00
0.059041400,2,0xAE,0x88
0.059046620,2,0xAF,0x6F
0.059051860,2,0x80,0xA8
0.059057460,2,0xAE,0x88
0.059062680,2,0xAF,0xF8
0.059067900,2,0x80,0x00
0.059073500,2,0xAE,0x88
0.059078740,2,0xAF,0x80
0.059083980,2,0x80,0x25
0.059089560,2,0xAE,0x88
0.059094800,2,0xAF,0x46
0.059100040,2,0x80,0x31
0.059105700,2,0xAE,0x88
0.059110920,2,0xAF,0x21
0.059116140,2,0x80,0x25
0.059121760,2,0xAE,0x88
0.059126980,2,0xAF,0x15
0.059132220,2,0x80,0xA5
0.059137800,2,0xAE,0x88
0.059143040,2,0xAF,0x93
0.059148260,2,0x80,0xED
0.059153860,2,0xAE,0x88
0.059159100,2,0xAF,0xF0
0.059164320,2,0x80,0x00
0.059169980,2,0xAE,0x88
0.059175220,2,0xAF,0x87
0.059180440,2,0x80,0xE5
0.059186020,2,0xAE,0x88
0.059191260,2,0xAF,0x21
0.059196480,2,0x80,0x04
0.059202100,2,0xAE,0x88
0.059207320,2,0xAF,0xF8
0.059212540,2,0x80,0x03
0.059218140,2,0xAE,0x88
0.059223380,2,0xAF,0x80
0.059228600,2,0x80,0x17
0.059234260,2,0xAE,0x88
0.059239500,2,0xAF,0xF0
0.059244720,2,0x80,0x00
0.059250320,2,0xAE,0x88
0.059255540,2,0xAF,0xF8
0.059260780,2,0x80,0x03
0.059266380,2,0xAE,0x88
0.059271600,2,0xAF,0x80
0.059276840,2,0x80,0x29
0.059282420,2,0xAE,0x88
0.059287660,2,0xAF,0xF0
0.059292880,2,0x80,0x00
0.059298540,2,0xAE,0x88
0.059303780,2,0xAF,0x80
0.059309000,2,0x80,0x0E
0.059314600,2,0xAE,0x88
0.059319820,2,0xAF,0xF0
0.059325060,2,0x80,0x00
0.059330660,2,0xAE,0x88
0.059335880,2,0xAF,0x80
0.059341120,2,0x80,0x04
0.059346720,2,0xAE,0x88
0.059351940,2,0xAF,0x20
0.059357180,2,0x80,0xB0
0.059362840,2,0xAE,0x88
0.059368060,2,0xAF,0xF8
0.059373300,2,0x80,0x06
0.059378900,2,0xAE,0x88
0.059384120,2,0xAF,0x84
0.059389360,2,0x80,0xC3
0.059394960,2,0xAE,0x88
0.059400180,2,0xAF,0xF0
0.059405420,2,0x80,0x00
0.059411000,2,0xAE,0x88
0.059416240,2,0xAF,0x41
0.059421460,2,0x80,0x00
0.059427140,2,0xAE,0x88
0.059432360,2,0xAF,0x88
0.059437580,2,0x80,0x04
0.059443200,2,0xAE,0x88
0.059448420,2,0xAF,0xF0
0.059453660,2,0x80,0x00
0.059459260,2,0xAE,0x88
0.059464480,2,0xAF,0xF8
0.059469720,2,0x80,0x00
0.059475320,2,0xAE,0x88
0.059480540,2,0xAF,0x84
0.059485760,2,0x80,0x0A
0.059491440,2,0xAE,0x88
0.059496680,2,0xAF,0xF0
0.059501900,2,0x80,0x00
0.059507500,2,0xAE,0x88
0.059512720,2,0xAF,0xBC
0.059517960,2,0x80,0x00
0.059523560,2,0xAE,0x88
0.059528780,2,0xAF,0xF0
0.059534000,2,0x80,0x00
0.059539600,2,0xAE,0x88
0.059544840,2,0xAF,0x28
0.059550060,2,0x80,0x40
0.059555720,2,0xAE,0x88
0.059560940,2,0xAF,0xF8
0.059566180,2,0x80,0x02
0.059571780,2,0xAE,0x88
0.059577000,2,0xAF,0x61
0.059582220,2,0x80,0xF2
0.059587820,2,0xAE,0x88
0.059593060,2,0xAF,0xF8
0.059598280,2,0x80,0x02
0.059603880,2,0xAE,0x88
0.059609100,2,0xAF,0x60
0.059614320,2,0x80,0x04
0.059619980,2,0xAE,0x88
0.059625220,2,0xAF,0xF8
0.059630440,2,0x80,0x22
0.059636040,2,0xAE,0x88
0.059641260,2,0xAF,0x6F
0.059646500,2,0x80,0x8D
0.059652100,2,0xAE,0x88
0.059657320,2,0xAF,0xD2
0.059662560,2,0x80,0x02
0.059668160,2,0xAE,0x88
0.059673380,2,0xAF,0xD4
0.059678620,2,0x80,0x04
0.059684280,2,0xAE,0x88
0.059689500,2,0xAF,0xCD
0.059694740,2,0x80,0xD2
0.059700340,2,0xAE,0x88
0.059705560,2,0xAF,0xBC
0.059710780,2,0x80,0x00
0.059716380,2,0xAE,0x88
0.059721620,2,0xAF,0xCD
0.059726840,2,0x80,0xD4
0.059732440,2,0xAE,0x88
0.059737660,2,0xAF,0x62
0.059742880,2,0x80,0x01
0.059748560,2,0xAE,0x88
0.059753780,2,0xAF,0x29
0.059759000,2,0x80,0x20
0.059764600,2,0xAE,0x88
0.059769840,2,0xAF,0xC8
0.059775060,2,0x80,0x10
0.059780660,2,0xAE,0x88
0.059785880,2,0xAF,0x39
0.059791100,2,0x80,0x20
0.059796700,2,0xAE,0x88
0.059801920,2,0xAF,0x83
0.059807160,2,0x80,0xB0
0.059812800,2,0xAE,0x88
0.059818040,2,0xAF,0x67
0.059823260,2,0x80,0x6A
0.059828840,2,0xAE,0x88
0.059834080,2,0xAF,0xC9
0.059839300,2,0x80,0x00
0.059844900,2,0xAE,0x88
0.059850120,2,0xAF,0xF8
0.059855340,2,0x80,0x0B
0.059860940,2,0xAE,0x88
0.059866160,2,0xAF,0x88
0.059871400,2,0x80,0x80
0.059877060,2,0xAE,0x88
0.059882280,2,0xAF,0xF0
0.059887500,2,0x80,0x00
0.059893100,2,0xAE,0x88
0.059898340,2,0xAF,0xF8
0.059903560,2,0x80,0x0E
0.059909160,2,0xAE,0x88
0.059914380,2,0xAF,0x80
0.059919620,2,0x80,0x7E
0.059925220,2,0xAE,0x88
0.059930440,2,0xAF,0xF0
0.059935660,2,0x80,0x00
0.059941320,2,0xAE,0x88
0.059946560,2,0xAF,0xF8
0.059951780,2,0x80,0x0F
0.059957380,2,0xAE,0x88
0.059962600,2,0xAF,0x80
0.059967840,2,0x80,0x61
0.059973440,2,0xAE,0x88
0.059978660,2,0xAF,0xF0
0.059983900,2,0x80,0x00
0.059989500,2,0xAE,0x88
0.059994720,2,0xAF,0xF8
0.059999960,2,0x80,0x00
0.060005600,2,0xAE,0x88
0.060010840,2,0xAF,0x80
0.060016060,2,0x80,0xAB
0.060021680,2,0xAE,0x88
0.060026900,2,0xAF,0xF0
0.060032120,2,0x80,0x00
0.060037720,2,0xAE,0x88
0.060042940,2,0xAF,0xF8
0.060048180,2,0x80,0x05
0.060053780,2,0xAE,0x88
0.060059000,2,0xAF,0x80
0.060064220,2,0x80,0x10
0.060069900,2,0xAE,0x88
0.060075120,2,0xAF,0xF0
0.060080340,2,0x80,0x00
0.060085940,2,0xAE,0x88
0.060091160,2,0xAF,0xF8
0.060096400,2,0x80,0x02
0.060102000,2,0xAE,0x88
0.060107220,2,0xAF,0x80
0.060112440,2,0x80,0x66
0.060118040,2,0xAE,0x88
0.060123260,2,0xAF,0xF0
0.060128500,2,0x80,0x00
0.060134140,2,0xAE,0x88
0.060139380,2,0xAF,0xC9
0.060144600,2,0x80,0x00
0.060150200,2,0xAE,0x88
0.060155420,2,0xAF,0x88
0.060160660,2,0x80,0x83
0.060166260,2,0xAE,0x88
0.060171480,2,0xAF,0xF0
0.060176720,2,0x80,0x00
0.060182300,2,0xAE,0x88
0.060187540,2,0xAF,0xF8
0.060192780,2,0x80,0x05
0.060198440,2,0xAE,0x88
0.060203660,2,0xAF,0x80
0.060208880,2,0x80,0x24
0.060214480,2,0xAE,0x88
0.060219720,2,0xAF,0xF0
0.060224940,2,0x80,0x00
0.060230540,2,0xAE,0x88
0.060235780,2,0xAF,0x84
0.060241000,2,0x80,0x8A
0.060246600,2,0xAE,0x88
0.060251820,2,0xAF,0xF0
0.060257040,2,0x80,0x00
0.060262700,2,0xAE,0x88
0.060267920,2,0xAF,0xF8
0.060273140,2,0x80,0x04
0.060278740,2,0xAE,0x88
0.060283960,2,0xAF,0x80
0.060289180,2,0x80,0x52
0.060294780,2,0xAE,0x88
0.060300000,2,0xAF,0xF0
0.060305220,2,0x80,0x00
0.060310820,2,0xAE,0x88
0.060316060,2,0xAF,0xC9
0.060321280,2,0x80,0x00
0.060326920,2,0xAE,0x88
0.060332160,2,0xAF,0x88
0.060337380,2,0x80,0xA3
0.060342980,2,0xAE,0x88
0.060348220,2,0xAF,0xF0
0.060353440,2,0x80,0x00
0.060359020,2,0xAE,0x88
0.060364260,2,0xAF,0xF8
0.060369480,2,0x80,0x00
0.060375080,2,0xAE,0x88
0.060380300,2,0xAF,0x80
0.060385520,2,0x80,0xAB
0.060391180,2,0xAE,0x88
0.060396420,2,0xAF,0xF0
0.060401640,2,0x80,0x00
0.060407220,2,0xAE,0x88
0.060412460,2,0xAF,0xF8
0.060417680,2,0x80,0x04
0.060423280,2,0xAE,0x88
0.060428500,2,0xAF,0x80
0.060433740,2,0x80,0x70
0.060439320,2,0xAE,0x88
0.060444560,2,0xAF,0xF0
0.060449780,2,0x80,0x00
0.060455440,2,0xAE,0x88
0.060460660,2,0xAF,0xC9
0.060465880,2,0x80,0x00
0.060471480,2,0xAE,0x88
0.060476700,2,0xAF,0x88
0.060481920,2,0x80,0x9E
0.060487520,2,0xAE,0x88
0.060492760,2,0xAF,0xF0
0.060497980,2,0x80,0x00
0.060503560,2,0xAE,0x88
0.060508780,2,0xAF,0xF8
0.060514020,2,0x80,0x02
0.060519680,2,0xAE,0x88
0.060524900,2,0xAF,0x80
0.060530120,2,0x80,0x66
0.060535720,2,0xAE,0x88
0.060540960,2,0xAF,0xF0
0.060546180,2,0x80,0x00
0.060551780,2,0xAE,0x88
0.060557000,2,0xAF,0xC9
0.060562220,2,0x80,0x00
0.060567820,2,0xAE,0x88
0.060573040,2,0xAF,0x88
0.060578260,2,0x80,0x94
0.060583900,2,0xAE,0x88
0.060589140,2,0xAF,0xF0
0.060594360,2,0x80,0x00
0.060599940,2,0xAE,0x88
0.060605180,2,0xAF,0xF8
0.060610400,2,0x80,0x04
0.060616000,2,0xAE,0x88
0.060621220,2,0xAF,0x80
0.060626440,2,0x80,0x82
0.060632040,2,0xAE,0x88
0.060637260,2,0xAF,0xF0
0.060642500,2,0x80,0x00
0.060648140,2,0xAE,0x88
0.060653360,2,0xAF,0x29
0.060658600,2,0x80,0x20
0.060664180,2,0xAE,0x88
0.060669420,2,0xAF,0x40
0.060674640,2,0x80,0x60
0.060680240,2,0xAE,0x88
0.060685460,2,0xAF,0x29
0.060690680,2,0x80,0x20
0.060696280,2,0xAE,0x88
0.060701500,2,0xAF,0x8C
0.060706720,2,0x80,0x04
0.060712380,2,0xAE,0x88
0.060717620,2,0xAF,0xF0
0.060722840,2,0x80,0x00
0.060728420,2,0xAE,0x88
0.060733660,2,0xAF,0xF8
0.060738880,2,0x80,0x04
0.060744480,2,0xAE,0x88
0.060749720,2,0xAF,0x80
0.060754940,2,0x80,0xB0
0.060760540,2,0xAE,0x88
0.060765760,2,0xAF,0xF0
0.060771000,2,0x80,0x00
0.060776640,2,0xAE,0x88
0.060781880,2,0xAF,0xF8
0.060787100,2,0x80,0x04
0.060792700,2,0xAE,0x88
0.060797920,2,0xAF,0x80
0.060803140,2,0x80,0x8F
0.060808740,2,0xAE,0x88
0.060813980,2,0xAF,0xF0
0.060819200,2,0x80,0x00
0.060824780,2,0xAE,0x88
0.060830000,2,0xAF,0xF8
0.060835240,2,0x80,0x01
0.060840880,2,0xAE,0x88
0.060846100,2,0xAF,0x80
0.060851320,2,0x80,0x79
0.060856920,2,0xAE,0x88
0.060862140,2,0xAF,0xF0
0.060867380,2,0x80,0x00
0.060872960,2,0xAE,0x88
0.060878180,2,0xAF,0xF8
0.060883400,2,0x80,0x01
0.060889000,2,0xAE,0x88
0.060894220,2,0xAF,0x80
0.060899440,2,0x80,0x7E
0.060905100,2,0xAE,0x88
0.060910320,2,0xAF,0xF0
0.060915560,2,0x80,0x00
0.060921160,2,0xAE,0x88
0.060926380,2,0xAF,0xF8
0.060931600,2,0x80,0x04
0.060937200,2,0xAE,0x88
0.060942420,2,0xAF,0x80
0.060947640,2,0x80,0xA0
0.060953240,2,0xAE,0x88
0.060958460,2,0xAF,0xF0
0.060963680,2,0x80,0x00
0.060969340,2,0xAE,0x88
0.060974560,2,0xAF,0xF8
0.060979780,2,0x80,0x0E
0.060985380,2,0xAE,0x88
0.060990600,2,0xAF,0x80
0.060995820,2,0x80,0xDA
0.061001400,2,0xAE,0x88
0.061006620,2,0xAF,0xF0
0.061011860,2,0x80,0x00
0.061017460,2,0xAE,0x88
0.061022680,2,0xAF,0xF8
0.061027900,2,0x80,0x00
0.061033540,2,0xAE,0x88
0.061038780,2,0xAF,0x6F
0.061044000,2,0x80,0xF6
0.061049600,2,0xAE,0x88
0.061054820,2,0xAF,0x60
0.061060040,2,0x80,0x47
0.061065620,2,0xAE,0x88
0.061070860,2,0xAF,0xF8
0.061076080,2,0x80,0x0D
0.061081660,2,0xAE,0x88
0.061086880,2,0xAF,0x80
0.061092120,2,0x80,0xF7
0.061097760,2,0xAE,0x88
0.061102980,2,0xAF,0x28
0.061108200,2,0x80,0x58
0.061113800,2,0xAE,0x88
0.061119040,2,0xAF,0xF8
0.061124260,2,0x80,0x0E
0.061129840,2,0xAE,0x88
0.061135080,2,0xAF,0x80
0.061140300,2,0x80,0x4F
0.061145900,2,0xAE,0x88
0.061151120,2,0xAF,0xF0
0.061156340,2,0x80,0x00
0.061162000,2,0xAE,0x88
0.061167220,2,0xAF,0xF8
0.061172440,2,0x80,0x0F
0.061178020,2,0xAE,0x88
0.061183260,2,0xAF,0x80
0.061188480,2,0x80,0x5F
0.061194080,2,0xAE,0x88
0.061199300,2,0xAF,0x29
0.061204520,2,0x80,0x70
0.061210120,2,0xAE,0x88
0.061215340,2,0xAF,0x29
0.061220580,2,0x80,0x29
0.061226220,2,0xAE,0x88
0.061231440,2,0xAF,0xC9
0.061236680,2,0x80,0xB9
0.061242280,2,0xAE,0x88
0.061247500,2,0xAF,0xF8
0.061252740,2,0x80,0x0E
0.061258320,2,0xAE,0x88
0.061263560,2,0xAF,0x80
0.061268780,2,0x80,0x02
0.061274380,2,0xAE,0x88
0.061279600,2,0xAF,0xCB
0.061284820,2,0x80,0x9B
0.061290480,2,0xAE,0x88
0.061295700,2,0xAF,0xCB
0.061300920,2,0x80,0xB9
0.061306520,2,0xAE,0x88
0.061311740,2,0xAF,0x42
0.061316960,2,0x80,0x0B
0.061322560,2,0xAE,0x88
0.061327780,2,0xAF,0xCB
0.061333000,2,0x80,0x9B
0.061338600,2,0xAE,0x88
0.061343820,2,0xAF,0x88
0.061349040,2,0x80,0x6B
0.061354700,2,0xAE,0x88
0.061359920,2,0xAF,0xF0
0.061365140,2,0x80,0x00
0.061370740,2,0xAE,0x88
0.061375960,2,0xAF,0x40
0.061381180,2,0x80,0x19
0.061386760,2,0xAE,0x88
0.061392000,2,0xAF,0x60
0.061397220,2,0x80,0x09
0.061402800,2,0xAE,0x88
0.061408040,2,0xAF,0x8C
0.061413260,2,0x80,0x04
0.061418920,2,0xAE,0x88
0.061424140,2,0xAF,0xF0
0.061429360,2,0x80,0x00
0.061434960,2,0xAE,0x88
0.061440180,2,0xAF,0xF8
0.061445400,2,0x80,0x02
0.061451000,2,0xAE,0x88
0.061456220,2,0xAF,0x80
0.061461460,2,0x80,0xEF
0.061467040,2,0xAE,0x88
0.061472280,2,0xAF,0xF0
0.061477500,2,0x80,0x00
0.061483160,2,0xAE,0x88
0.061488380,2,0xAF,0xF8
0.061493600,2,0x80,0x0E
0.061499200,2,0xAE,0x88
0.061504420,2,0xAF,0x80
0.061509640,2,0x80,0x07
0.061515240,2,0xAE,0x88
0.061520480,2,0xAF,0xF0
0.061525700,2,0x80,0x00
0.061531280,2,0xAE,0x88
0.061536520,2,0xAF,0xF8
0.061541740,2,0x80,0x01
0.061547400,2,0xAE,0x88
0.061552620,2,0xAF,0x80
0.061557840,2,0x80,0xB8
0.061563440,2,0xAE,0x88
0.061568660,2,0xAF,0xF0
0.061573880,2,0x80,0x00
0.061579480,2,0xAE,0x88
0.061584720,2,0xAF,0x80
0.061589940,2,0x80,0x62
0.061595540,2,0xAE,0x88
0.061600760,2,0xAF,0xF0
0.061605980,2,0x80,0x00
0.061611660,2,0xAE,0x88
0.061616880,2,0xAF,0x29
0.061622100,2,0x80,0x20
0.061627680,2,0xAE,0x88
0.061632920,2,0xAF,0x44
0.061638160,2,0x80,0x00
0.061643740,2,0xAE,0x88
0.061648960,2,0xAF,0x29
0.061654200,2,0x80,0x20
0.061659800,2,0xAE,0x88
0.061665020,2,0xAF,0x88
0.061670240,2,0x80,0x17
0.061675900,2,0xAE,0x88
0.061681120,2,0xAF,0x42
0.061686360,2,0x80,0x00
0.061691940,2,0xAE,0x88
0.061697160,2,0xAF,0x88
0.061702380,2,0x80,0x0F
0.061707980,2,0xAE,0x88
0.061713220,2,0xAF,0xF0
0.061718440,2,0x80,0x00
0.061724020,2,0xAE,0x88
0.061729260,2,0xAF,0xF8
0.061734480,2,0x80,0x22
0.061740140,2,0xAE,0x88
0.061745360,2,0xAF,0x6F
0.061750580,2,0x80,0x0D
0.061756180,2,0xAE,0x88
0.061761420,2,0xAF,0xCC
0.061766640,2,0x80,0xD1
0.061772220,2,0xAE,0x88
0.061777440,2,0xAF,0xCC
0.061782680,2,0x80,0xD2
0.061788280,2,0xAE,0x88
0.061793500,2,0xAF,0xF8
0.061798720,2,0x80,0x03
0.061804380,2,0xAE,0x88
0.061809600,2,0xAF,0xE1
0.061814840,2,0x80,0xA1
0.061820420,2,0xAE,0x88
0.061825640,2,0xAF,0xF8
0.061830880,2,0x80,0x03
0.061836480,2,0xAE,0x88
0.061841700,2,0xAF,0xE2
0.061846940,2,0x80,0xA2
0.061852520,2,0xAE,0x88
0.061857760,2,0xAF,0xF8
0.061862980,2,0x80,0x0F
0.061868640,2,0xAE,0x88
0.061873860,2,0xAF,0x80
0.061879100,2,0x80,0x52
0.061884700,2,0xAE,0x88
0.061889920,2,0xAF,0xF0
0.061895140,2,0x80,0x00
0.061900740,2,0xAE,0x88
0.061905980,2,0xAF,0x83
0.061911200,2,0x80,0x64
0.061916800,2,0xAE,0x88
0.061922040,2,0xAF,0x20
0.061927260,2,0x80,0xB0
0.061932920,2,0xAE,0x88
0.061938160,2,0xAF,0xE0
0.061943380,2,0x80,0xF0
0.061948980,2,0xAE,0x88
0.061954220,2,0xAF,0xF8
0.061959460,2,0x80,0x01
0.061965040,2,0xAE,0x88
0.061970280,2,0xAF,0x80
0.061975500,2,0x80,0x8C
0.061981100,2,0xAE,0x88
0.061986340,2,0xAF,0xF0
0.061991560,2,0x80,0x00
0.061997220,2,0xAE,0x88
0.062002440,2,0xAF,0xCB
0.062007680,2,0x80,0x31
0.062013260,2,0xAE,0x88
0.062018480,2,0xAF,0x87
0.062023720,2,0x80,0xF5
0.062029320,2,0xAE,0x88
0.062034540,2,0xAF,0xCB
0.062039760,2,0x80,0x42
0.062045360,2,0xAE,0x88
0.062050580,2,0xAF,0x28
0.062055820,2,0x80,0x11
0.062061460,2,0xAE,0x88
0.062066700,2,0xAF,0xF8
0.062071920,2,0x80,0x08
0.062077520,2,0xAE,0x88
0.062082740,2,0xAF,0xE1
0.062087960,2,0x80,0xB1
0.062093560,2,0xAE,0x88
0.062098780,2,0xAF,0x42
0.062104020,2,0x80,0x01
0.062109600,2,0xAE,0x88
0.062114820,2,0xAF,0x8C
0.062120060,2,0x80,0x04
0.062125720,2,0xAE,0x88
0.062130940,2,0xAF,0xF0
0.062136160,2,0x80,0x00
0.062141760,2,0xAE,0x88
0.062146980,2,0xAF,0xF8
0.062152200,2,0x80,0x00
0.062157820,2,0xAE,0x88
0.062163040,2,0xAF,0x80
0.062168260,2,0x80,0x9E
0.062173860,2,0xAE,0x88
0.062179100,2,0xAF,0xF0
0.062184320,2,0x80,0x00
0.062189980,2,0xAE,0x88
0.062195200,2,0xAF,0x2A
0.062200420,2,0x80,0x01
0.062206040,2,0xAE,0x88
0.062211260,2,0xAF,0x20
0.062216500,2,0x80,0xB0
0.062222100,2,0xAE,0x88
0.062227320,2,0xAF,0x83
0.062232560,2,0x80,0x50
0.062238140,2,0xAE,0x88
0.062243360,2,0xAF,0x3A
0.062248600,2,0x80,0x01
0.062254260,2,0xAE,0x88
0.062259480,2,0xAF,0xE0
0.062264700,2,0x80,0xF0
0.062270300,2,0xAE,0x88
0.062275540,2,0xAF,0x26
0.062280760,2,0x80,0xEF
0.062286360,2,0xAE,0x88
0.062291580,2,0xAF,0xF8
0.062296800,2,0x80,0x0D
0.062302420,2,0xAE,0x88
0.062307640,2,0xAF,0x80
0.062312860,2,0x80,0x90
0.062318520,2,0xAE,0x88
0.062323740,2,0xAF,0x11
0.062328980,2,0x80,0xCF
0.062334580,2,0xAE,0x88
0.062339800,2,0xAF,0xF8
0.062345020,2,0x80,0x01
0.062350620,2,0xAE,0x88
0.062355860,2,0xAF,0x60
0.062361080,2,0x80,0x0D
0.062366660,2,0xAE,0x88
0.062371900,2,0xAF,0xC8
0.062377140,2,0x80,0x0D
0.062382780,2,0xAE,0x88
0.062388020,2,0xAF,0x8A
0.062393240,2,0x80,0xF9
0.062398840,2,0xAE,0x88
0.062404080,2,0xAF,0xF0
0.062409300,2,0x80,0x00
0.062414900,2,0xAE,0x88
0.062420140,2,0xAF,0xF8
0.062425380,2,0x80,0x05
0.062430980,2,0xAE,0x88
0.062436200,2,0xAF,0x80
0.062441420,2,0x80,0x24
0.062447080,2,0xAE,0x88
0.062452320,2,0xAF,0xF0
0.062457560,2,0x80,0x00
0.062463140,2,0xAE,0x88
0.062468380,2,0xAF,0xF8
0.062473600,2,0x80,0x05
0.062479200,2,0xAE,0x88
0.062484440,2,0xAF,0x80
0.062489660,2,0x80,0x31
0.062495240,2,0xAE,0x88
0.062500480,2,0xAF,0xF0
0.062505700,2,0x80,0x00
0.062511360,2,0xAE,0x88
0.062516580,2,0xAF,0xC9
0.062521800,2,0x80,0x00
0.062527400,2,0xAE,0x88
0.062532620,2,0xAF,0x88
0.062537840,2,0x80,0x15
0.062543440,2,0xAE,0x88
0.062548680,2,0xAF,0xF0
0.062553900,2,0x80,0x00
0.062559500,2,0xAE,0x88
0.062564720,2,0xAF,0xF8
0.062569940,2,0x80,0x00
0.062575600,2,0xAE,0x88
0.062580840,2,0xAF,0x80
0.062586060,2,0x80,0xAB
0.062591660,2,0xAE,0x88
0.062596880,2,0xAF,0xF0
0.062602100,2,0x80,0x00
0.062607700,2,0xAE,0x88
0.062612920,2,0xAF,0xF8
0.062618160,2,0x80,0x04
0.062623760,2,0xAE,0x88
0.062628980,2,0xAF,0x80
0.062634200,2,0x80,0x70
0.062639860,2,0xAE,0x88
0.062645100,2,0xAF,0xF0
0.062650320,2,0x80,0x00
0.062655920,2,0xAE,0x88
0.062661140,2,0xAF,0xC9
0.062666360,2,0x80,0x00
0.062671960,2,0xAE,0x88
0.062677200,2,0xAF,0x88
0.062682420,2,0x80,0x0C
0.062688020,2,0xAE,0x88
0.062693240,2,0xAF,0x62
0.062698480,2,0x80,0x00
0.062704140,2,0xAE,0x88
0.062709360,2,0xAF,0xF8
0.062714580,2,0x80,0x02
0.062720180,2,0xAE,0x88
0.062725400,2,0xAF,0x80
0.062730640,2,0x80,0x66
0.062736220,2,0xAE,0x88
0.062741460,2,0xAF,0x34
0.062746680,2,0x80,0x50
0.062752280,2,0xAE,0x88
0.062757500,2,0xAF,0xC9
0.062762720,2,0x80,0x00
0.062768380,2,0xAE,0x88
0.062773620,2,0xAF,0x88
0.062778840,2,0x80,0x06
0.062784440,2,0xAE,0x88
0.062789660,2,0xAF,0xF0
0.062794900,2,0x80,0x00
0.062800500,2,0xAE,0x88
0.062805720,2,0xAF,0xF8
0.062810940,2,0x80,0x05
0.062816540,2,0xAE,0x88
0.062821760,2,0xAF,0x80
0.062827000,2,0x80,0x54
0.062832640,2,0xAE,0x88
0.062837860,2,0xAF,0xF0
0.062843080,2,0x80,0x00
0.062848680,2,0xAE,0x88
0.062853900,2,0xAF,0x87
0.062859140,2,0x80,0x5E
0.062864720,2,0xAE,0x88
0.062869960,2,0xAF,0xF0
0.062875180,2,0x80,0x00
0.062880780,2,0xAE,0x88
0.062886000,2,0xAF,0xF8
0.062891240,2,0x80,0x0D
0.062896900,2,0xAE,0x88
0.062902120,2,0xAF,0x80
0.062907360,2,0x80,0xED
0.062912940,2,0xAE,0x88
0.062918180,2,0xAF,0xF0
0.062923400,2,0x80,0x00
0.062929000,2,0xAE,0x88
0.062934220,2,0xAF,0x87
0.062939440,2,0x80,0x59
0.062945040,2,0xAE,0x88
0.062950280,2,0xAF,0xF0
0.062955500,2,0x80,0x00
0.062961160,2,0xAE,0x88
0.062966380,2,0xAF,0x29
0.062971600,2,0x80,0x20
0.062977200,2,0xAE,0x88
0.062982420,2,0xAF,0x50
0.062987660,2,0x80,0x40
0.062993260,2,0xAE,0x88
0.062998500,2,0xAF,0x87
0.063003720,2,0x80,0x72
0.063009300,2,0xAE,0x88
0.063014540,2,0xAF,0x39
0.063019760,2,0x80,0x20
0.063025420,2,0xAE,0x88
0.063030660,2,0xAF,0x60
0.063035880,2,0x80,0x01
0.063041480,2,0xAE,0x88
0.063046700,2,0xAF,0x87
0.063051940,2,0x80,0x67
0.063057520,2,0xAE,0x88
0.063062760,2,0xAF,0x60
0.063067980,2,0x80,0x02
0.063073580,2,0xAE,0x88
0.063078800,2,0xAF,0xF8
0.063084020,2,0x80,0x0E
0.063089680,2,0xAE,0x88
0.063094900,2,0xAF,0x80
0.063100120,2,0x80,0x12
0.063105720,2,0xAE,0x88
0.063110940,2,0xAF,0xF0
0.063116160,2,0x80,0x00
0.063121760,2,0xAE,0x88
0.063126980,2,0xAF,0xF0
0.063132220,2,0x80,0x00
0.063137800,2,0xAE,0x88
0.063143040,2,0xAF,0x87
0.063148260,2,0x80,0x91
0.063153920,2,0xAE,0x88
0.063159140,2,0xAF,0xF0
0.063164360,2,0x80,0x00
0.063169960,2,0xAE,0x88
0.063175180,2,0xAF,0x28
0.063180400,2,0x80,0x11
0.063186000,2,0xAE,0x88
0.063191240,2,0xAF,0xF8
0.063196460,2,0x80,0x08
0.063202060,2,0xAE,0x88
0.063207280,2,0xAF,0xE1
0.063212500,2,0x80,0xB1
0.063218160,2,0xAE,0x88
0.063223400,2,0xAF,0xCB
0.063228620,2,0x80,0x02
0.063234220,2,0xAE,0x88
0.063239440,2,0xAF,0x14
0.063244680,2,0x80,0x00
0.063250280,2,0xAE,0x88
0.063255500,2,0xAF,0xCB
0.063260720,2,0x80,0x20
0.063266320,2,0xAE,0x88
0.063271560,2,0xAF,0xCB
0.063276780,2,0x80,0x13
0.063282420,2,0xAE,0x88
0.063287660,2,0xAF,0x94
0.063292880,2,0x80,0x30
0.063298480,2,0xAE,0x88
0.063303700,2,0xAF,0x29
0.063308920,2,0x80,0x22
0.063314520,2,0xAE,0x88
0.063319760,2,0xAF,0x48
0.063324980,2,0x80,0x01
0.063330580,2,0xAE,0x88
0.063335800,2,0xAF,0xCB
0.063341040,2,0x80,0x31
0.063346700,2,0xAE,0x88
0.063351920,2,0xAF,0x88
0.063357160,2,0x80,0x26
0.063362760,2,0xAE,0x88
0.063368000,2,0xAF,0x44
0.063373220,2,0x80,0x01
0.063378820,2,0xAE,0x88
0.063384040,2,0xAF,0xCB
0.063389260,2,0x80,0x31
0.063394860,2,0xAE,0x88
0.063400080,2,0xAF,0x88
0.063405320,2,0x80,0x2F
0.063410960,2,0xAE,0x88
0.063416200,2,0xAF,0xC9
0.063421420,2,0x80,0x00
0.063427020,2,0xAE,0x88
0.063432260,2,0xAF,0x88
0.063437480,2,0x80,0x02
0.063443100,2,0xAE,0x88
0.063448320,2,0xAF,0x41
0.063453540,2,0x80,0x81
0.063459140,2,0xAE,0x88
0.063464360,2,0xAF,0x88
0.063469600,2,0x80,0x13
0.063475260,2,0xAE,0x88
0.063480480,2,0xAF,0x44
0.063485720,2,0x80,0x02
0.063491320,2,0xAE,0x88
0.063496540,2,0xAF,0xF8
0.063501760,2,0x80,0x02
0.063507360,2,0xAE,0x88
0.063512600,2,0xAF,0x68
0.063517840,2,0x80,0x08
0.063523420,2,0xAE,0x88
0.063528660,2,0xAF,0x8C
0.063533880,2,0x80,0x1B
0.063539540,2,0xAE,0x88
0.063544780,2,0xAF,0xF0
0.063550000,2,0x80,0x00
0.063555580,2,0xAE,0x88
0.063560820,2,0xAF,0xF8
0.063566040,2,0x80,0x02
0.063571640,2,0xAE,0x88
0.063576860,2,0xAF,0x80
0.063582100,2,0x80,0xF3
0.063587700,2,0xAE,0x88
0.063592940,2,0xAF,0xF0
0.063598160,2,0x80,0x00
0.063603820,2,0xAE,0x88
0.063609040,2,0xAF,0x41
0.063614280,2,0x80,0x81
0.063619880,2,0xAE,0x88
0.063625100,2,0xAF,0x88
0.063630320,2,0x80,0x09
0.063635920,2,0xAE,0x88
0.063641160,2,0xAF,0x28
0.063646400,2,0x80,0x78
0.063651980,2,0xAE,0x88
0.063657200,2,0xAF,0xF8
0.063662440,2,0x80,0x01
0.063668100,2,0xAE,0x88
0.063673320,2,0xAF,0x6E
0.063678540,2,0x80,0x09
0.063684140,2,0xAE,0x88
0.063689360,2,0xAF,0xD9
0.063694600,2,0x80,0x98
0.063700200,2,0xAE,0x88
0.063705420,2,0xAF,0xF8
0.063710640,2,0x80,0x02
0.063716240,2,0xAE,0x88
0.063721460,2,0xAF,0x80
0.063726680,2,0x80,0xFB
0.063732340,2,0xAE,0x88
0.063737560,2,0xAF,0xF0
0.063742800,2,0x80,0x00
0.063748380,2,0xAE,0x88
0.063753600,2,0xAF,0x8C
0.063758840,2,0x80,0x0D
0.063764420,2,0xAE,0x88
0.063769660,2,0xAF,0xF0
0.063774880,2,0x80,0x00
0.063780480,2,0xAE,0x88
0.063785700,2,0xAF,0xF8
0.063790920,2,0x80,0x02
0.063796580,2,0xAE,0x88
0.063801800,2,0xAF,0x80
0.063807040,2,0x80,0xEF
0.063812640,2,0xAE,0x88
0.063817860,2,0xAF,0x28
0.063823080,2,0x80,0x61
0.063828680,2,0xAE,0x88
0.063833900,2,0xAF,0x60
0.063839140,2,0x80,0x42
0.063844740,2,0xAE,0x88
0.063849960,2,0xAF,0xF8
0.063855180,2,0x80,0x0C
0.063860840,2,0xAE,0x88
0.063866080,2,0xAF,0x6E
0.063871300,2,0x80,0x60
0.063876900,2,0xAE,0x88
0.063882120,2,0xAF,0xF8
0.063887360,2,0x80,0x02
0.063892960,2,0xAE,0x88
0.063898180,2,0xAF,0xE1
0.063903420,2,0x80,0xA1
0.063909020,2,0xAE,0x88
0.063914240,2,0xAF,0x3A
0.063919480,2,0x80,0x02
0.063925140,2,0xAE,0x88
0.063930360,2,0xAF,0x3B
0.063935600,2,0x80,0x01
0.063941200,2,0xAE,0x88
0.063946420,2,0xAF,0xBC
0.063951640,2,0x80,0x00
0.063957240,2,0xAE,0x88
0.063962480,2,0xAF,0x3F
0.063967700,2,0x80,0x00
0.063973300,2,0xAE,0x88
0.063978520,2,0xAF,0x60
0.063983760,2,0x80,0x21
0.063989420,2,0xAE,0x88
0.063994640,2,0xAF,0xF8
0.063999860,2,0x80,0x09
0.064005460,2,0xAE,0x88
0.064010680,2,0xAF,0x6F
0.064015920,2,0x80,0xA0
0.064021520,2,0xAE,0x88
0.064026740,2,0xAF,0x3A
0.064031960,2,0x80,0x01
0.064037560,2,0xAE,0x88
0.064042800,2,0xAF,0xBC
0.064048020,2,0x80,0x00
0.064053660,2,0xAE,0x88
0.064058900,2,0xAF,0x3F
0.064064120,2,0x80,0x00
0.064069720,2,0xAE,0x88
0.064074940,2,0xAF,0x60
0.064080160,2,0x80,0x01
0.064085760,2,0xAE,0x88
0.064091000,2,0xAF,0xF8
0.064096220,2,0x80,0x08
0.064101800,2,0xAE,0x88
0.064107040,2,0xAF,0x6D
0.064112260,2,0x80,0xD0
0.064117920,2,0xAE,0x88
0.064123160,2,0xAF,0x3A
0.064128380,2,0x80,0x01
0.064133980,2,0xAE,0x88
0.064139200,2,0xAF,0xBC
0.064144420,2,0x80,0x00
0.064150020,2,0xAE,0x88
0.064155240,2,0xAF,0x3F
0.064160480,2,0x80,0x00
0.064166060,2,0xAE,0x88
0.064171280,2,0xAF,0x60
0.064176520,2,0x80,0x01
0.064182180,2,0xAE,0x88
0.064187400,2,0xAF,0xF8
0.064192620,2,0x80,0x0B
0.064198220,2,0xAE,0x88
0.064203460,2,0xAF,0x6E
0.064208680,2,0x80,0x10
0.064214280,2,0xAE,0x88
0.064219500,2,0xAF,0x3A
0.064224720,2,0x80,0x01
0.064230320,2,0xAE,0x88
0.064235560,2,0xAF,0xBC
0.064240780,2,0x80,0x00
0.064246440,2,0xAE,0x88
0.064251660,2,0xAF,0x3F
0.064256900,2,0x80,0x00
0.064262500,2,0xAE,0x88
0.064267720,2,0xAF,0xF8
0.064272940,2,0x80,0x04
0.064278540,2,0xAE,0x88
0.064283780,2,0xAF,0x80
0.064289000,2,0x80,0xE8
0.064294600,2,0xAE,0x88
0.064299820,2,0xAF,0xF0
0.064305060,2,0x80,0x00
0.064310720,2,0xAE,0x88
0.064315940,2,0xAF,0x82
0.064321160,2,0x80,0x97
0.064326760,2,0xAE,0x88
0.064331980,2,0xAF,0x67
0.064337220,2,0x80,0x6A
0.064342800,2,0xAE,0x88
0.064348020,2,0xAF,0xF8
0.064353240,2,0x80,0x22
0.064358840,2,0xAE,0x88
0.064364060,2,0xAF,0x6F
0.064369280,2,0x80,0x0D
0.064374940,2,0xAE,0x88
0.064380160,2,0xAF,0xC9
0.064385400,2,0x80,0x00
0.064390980,2,0xAE,0x88
0.064396220,2,0xAF,0xF8
0.064401440,2,0x80,0x0B
0.064407040,2,0xAE,0x88
0.064412260,2,0xAF,0x88
0.064417500,2,0x80,0x80
0.064423080,2,0xAE,0x88
0.064428320,2,0xAF,0xF0
0.064433540,2,0x80,0x00
0.064439200,2,0xAE,0x88
0.064444420,2,0xAF,0xCC
0.064449660,2,0x80,0xD1
0.064455260,2,0xAE,0x88
0.064460500,2,0xAF,0xF8
0.064465720,2,0x80,0x03
0.064471320,2,0xAE,0x88
0.064476540,2,0xAF,0x80
0.064481780,2,0x80,0xB8
0.064487380,2,0xAE,0x88
0.064492600,2,0xAF,0xCC
0.064497820,2,0x80,0xD2
0.064503480,2,0xAE,0x88
0.064508720,2,0xAF,0xCB
0.064513940,2,0x80,0x31
0.064519540,2,0xAE,0x88
0.064524760,2,0xAF,0xCB
0.064529980,2,0x80,0x42
0.064535580,2,0xAE,0x88
0.064540820,2,0xAF,0x60
0.064546040,2,0x80,0x23
0.064551620,2,0xAE,0x88
0.064556860,2,0xAF,0xF8
0.064562080,2,0x80,0x03
0.064567740,2,0xAE,0x88
0.064572960,2,0xAF,0x80
0.064578180,2,0x80,0x3B
0.064583780,2,0xAE,0x88
0.064589020,2,0xAF,0x60
0.064594240,2,0x80,0x14
0.064599820,2,0xAE,0x88
0.064605060,2,0xAF,0xF8
0.064610280,2,0x80,0x0F
0.064615880,2,0xAE,0x88
0.064621100,2,0xAF,0x80
0.064626320,2,0x80,0x61
0.064631980,2,0xAE,0x88
0.064637200,2,0xAF,0xF0
0.064642420,2,0x80,0x00
0.064648020,2,0xAE,0x88
0.064653240,2,0xAF,0xF8
0.064658480,2,0x80,0x00
0.064664060,2,0xAE,0x88
0.064669280,2,0xAF,0x80
0.064674500,2,0x80,0xAB
0.064680100,2,0xAE,0x88
0.064685320,2,0xAF,0xF0
0.064690540,2,0x80,0x00
0.064696200,2,0xAE,0x88
0.064701420,2,0xAF,0xF8
0.064706640,2,0x80,0x04
0.064712240,2,0xAE,0x88
0.064717460,2,0xAF,0x80
0.064722680,2,0x80,0x70
0.064728280,2,0xAE,0x88
0.064733500,2,0xAF,0xF0
0.064738720,2,0x80,0x00
0.064744320,2,0xAE,0x88
0.064749540,2,0xAF,0xC9
0.064754760,2,0x80,0x00
0.064760420,2,0xAE,0x88
0.064765640,2,0xAF,0x88
0.064770860,2,0x80,0x2D
0.064776460,2,0xAE,0x88
0.064781700,2,0xAF,0xF0
0.064786920,2,0x80,0x00
0.064792500,2,0xAE,0x88
0.064797740,2,0xAF,0xF8
0.064802960,2,0x80,0x02
0.064808560,2,0xAE,0x88
0.064813780,2,0xAF,0x80
0.064819020,2,0x80,0x66
0.064824680,2,0xAE,0x88
0.064829900,2,0xAF,0xF0
0.064835120,2,0x80,0x00
0.064840720,2,0xAE,0x88
0.064845940,2,0xAF,0xC9
0.064851180,2,0x80,0x00
0.064856780,2,0xAE,0x88
0.064862000,2,0xAF,0x88
0.064867220,2,0x80,0x2D
0.064872800,2,0xAE,0x88
0.064878040,2,0xAF,0xF0
0.064883260,2,0x80,0x00
0.064888920,2,0xAE,0x88
0.064894140,2,0xAF,0xF8
0.064899360,2,0x80,0x05
0.064904960,2,0xAE,0x88
0.064910200,2,0xAF,0x80
0.064915420,2,0x80,0x24
0.064921020,2,0xAE,0x88
0.064926260,2,0xAF,0x60
0.064931480,2,0x80,0x00
0.064937060,2,0xAE,0x88
0.064942300,2,0xAF,0xF8
0.064947520,2,0x80,0x01
0.064953180,2,0xAE,0x88
0.064958420,2,0xAF,0x80
0.064963640,2,0x80,0x79
0.064969220,2,0xAE,0x88
0.064974440,2,0xAF,0x3A
0.064979680,2,0x80,0x00
0.064985260,2,0xAE,0x88
0.064990480,2,0xAF,0xF8
0.064995700,2,0x80,0x04
0.065001300,2,0xAE,0x88
0.065006540,2,0xAF,0x80
0.065011760,2,0x80,0x00
0.065017420,2,0xAE,0x88
0.065022640,2,0xAF,0xF0
0.065027880,2,0x80,0x00
0.065033480,2,0xAE,0x88
0.065038700,2,0xAF,0x39
0.065043920,2,0x80,0x73
0.065049520,2,0xAE,0x88
0.065054740,2,0xAF,0xF8
0.065059960,2,0x80,0x03
0.065065560,2,0xAE,0x88
0.065070780,2,0xAF,0xE1
0.065076020,2,0x80,0xA1
0.065081680,2,0xAE,0x88
0.065086900,2,0xAF,0xF8
0.065092120,2,0x80,0x03
0.065097720,2,0xAE,0x88
0.065102960,2,0xAF,0xE2
0.065108180,2,0x80,0xA2
0.065113760,2,0xAE,0x88
0.065119000,2,0xAF,0xF8
0.065124220,2,0x80,0x0F
0.065129820,2,0xAE,0x88
0.065135040,2,0xAF,0x80
0.065140260,2,0x80,0x52
0.065145920,2,0xAE,0x88
0.065151160,2,0xAF,0xF0
0.065156380,2,0x80,0x00
0.065161960,2,0xAE,0x88
0.065167200,2,0xAF,0x29
0.065172420,2,0x80,0x73
0.065178020,2,0xAE,0x88
0.065183240,2,0xAF,0xF8
0.065188480,2,0x80,0x00
0.065194060,2,0xAE,0x88
0.065199300,2,0xAF,0x68
0.065204520,2,0x80,0x84
0.065210180,2,0xAE,0x88
0.065215400,2,0xAF,0xCB
0.065220620,2,0x80,0x30
0.065226220,2,0xAE,0x88
0.065231460,2,0xAF,0xC2
0.065236680,2,0x80,0x43
0.065242280,2,0xAE,0x88
0.065247500,2,0xAF,0xCB
0.065252740,2,0x80,0x03
0.065258320,2,0xAE,0x88
0.065263560,2,0xAF,0x90
0.065268780,2,0x80,0x20
0.065274440,2,0xAE,0x88
0.065279660,2,0xAF,0xF0
0.065284880,2,0x80,0x00
0.065290480,2,0xAE,0x88
0.065295720,2,0xAF,0xF8
0.065300940,2,0x80,0x0B
0.065306540,2,0xAE,0x88
0.065311760,2,0xAF,0x61
0.065316980,2,0x80,0x40
0.065322580,2,0xAE,0x88
0.065327820,2,0xAF,0x3F
0.065333040,2,0x80,0x00
0.065338700,2,0xAE,0x88
0.065343940,2,0xAF,0xF8
0.065349160,2,0x80,0x02
0.065354760,2,0xAE,0x88
0.065359980,2,0xAF,0x80
0.065365220,2,0x80,0x34
0.065370820,2,0xAE,0x88
0.065376040,2,0xAF,0xF0
0.065381280,2,0x80,0x00
0.065386860,2,0xAE,0x88
0.065392100,2,0xAF,0x2B
0.065397320,2,0x80,0x03
0.065403000,2,0xAE,0x88
0.065408220,2,0xAF,0x10
0.065413440,2,0x80,0x33
0.065419040,2,0xAE,0x88
0.065424280,2,0xAF,0x2B
0.065429500,2,0x80,0x03
0.065435100,2,0xAE,0x88
0.065440320,2,0xAF,0x88
0.065445540,2,0x80,0x19
0.065451140,2,0xAE,0x88
0.065456380,2,0xAF,0x60
0.065461600,2,0x80,0x34
0.065467260,2,0xAE,0x88
0.065472480,2,0xAF,0xE0
0.065477720,2,0x80,0xF0
0.065483300,2,0xAE,0x88
0.065488540,2,0xAF,0xF0
0.065493760,2,0x80,0x00
0.065499360,2,0xAE,0x88
0.065504580,2,0xAF,0x60
0.065509800,2,0x80,0x01
0.065515400,2,0xAE,0x88
0.065520640,2,0xAF,0xF8
0.065525860,2,0x80,0x05
0.065531520,2,0xAE,0x88
0.065536740,2,0xAF,0x80
0.065541980,2,0x80,0x24
0.065547580,2,0xAE,0x88
0.065552800,2,0xAF,0x60
0.065558020,2,0x80,0x02
0.065563620,2,0xAE,0x88
0.065568840,2,0xAF,0x87
0.065574080,2,0x80,0xD8
0.065579680,2,0xAE,0x88
0.065584900,2,0xAF,0x64
0.065590120,2,0x80,0x00
0.065595780,2,0xAE,0x88
0.065601000,2,0xAF,0xF8
0.065606240,2,0x80,0x22
0.065611820,2,0xAE,0x88
0.065617040,2,0xAF,0x6F
0.065622280,2,0x80,0x0D
0.065627880,2,0xAE,0x88
0.065633100,2,0xAF,0xCC
0.065638320,2,0x80,0xD1
0.065643920,2,0xAE,0x88
0.065649160,2,0xAF,0xCC
0.065654380,2,0x80,0xD2
0.065660040,2,0xAE,0x88
0.065665260,2,0xAF,0xF8
0.065670500,2,0x80,0x22
0.065676100,2,0xAE,0x88
0.065681320,2,0xAF,0x6F
0.065686540,2,0x80,0x2D
0.065692140,2,0xAE,0x88
0.065697360,2,0xAF,0xCD
0.065702600,2,0x80,0xD1
0.065708200,2,0xAE,0x88
0.065713420,2,0xAF,0xCD
0.065718640,2,0x80,0xD2
0.065724300,2,0xAE,0x88
0.065729540,2,0xAF,0x60
0.065734760,2,0x80,0x23
0.065740340,2,0xAE,0x88
0.065745580,2,0xAF,0x60
0.065750800,2,0x80,0x00
0.065756400,2,0xAE,0x88
0.065761620,2,0xAF,0x87
0.065766840,2,0x80,0xCC
0.065772440,2,0xAE,0x88
0.065777680,2,0xAF,0x39
0.065782900,2,0x80,0x23
0.065788560,2,0xAE,0x88
0.065793780,2,0xAF,0xF8
0.065799020,2,0x80,0x08
0.065804620,2,0xAE,0x88
0.065809840,2,0xAF,0x6D
0.065815060,2,0x80,0xD0
0.065820660,2,0xAE,0x88
0.065825880,2,0xAF,0x87
0.065831120,2,0x80,0xE1
0.065836700,2,0xAE,0x88
0.065841940,2,0xAF,0x3F
0.065847160,2,0x80,0x00
0.065852820,2,0xAE,0x88
0.065858060,2,0xAF,0xF8
0.065863280,2,0x80,0x05
0.065868880,2,0xAE,0x88
0.065874120,2,0xAF,0x80
0.065879340,2,0x80,0x67
0.065884940,2,0xAE,0x88
0.065890160,2,0xAF,0x3B
0.065895400,2,0x80,0x04
0.065901000,2,0xAE,0x88
0.065906220,2,0xAF,0xF8
0.065911440,2,0x80,0x03
0.065917120,2,0xAE,0x88
0.065922360,2,0xAF,0x80
0.065927580,2,0x80,0xD2
0.065933180,2,0xAE,0x88
0.065938400,2,0xAF,0x10
0.065943640,2,0x80,0x2D
0.065949240,2,0xAE,0x88
0.065954480,2,0xAF,0xCD
0.065959700,2,0x80,0xD1
0.065965300,2,0xAE,0x88
0.065970540,2,0xAF,0xCD
0.065975760,2,0x80,0xD2
0.065981420,2,0xAE,0x88
0.065986640,2,0xAF,0xE0
0.065991880,2,0x80,0xF0
0.065997480,2,0xAE,0x88
0.066002700,2,0xAF,0xF8
0.066007920,2,0x80,0x02
0.066013520,2,0xAE,0x88
0.066018760,2,0xAF,0x80
0.066024000,2,0x80,0xEF
0.066029580,2,0xAE,0x88
0.066034800,2,0xAF,0x60
0.066040040,2,0x80,0x0C
0.066045700,2,0xAE,0x88
0.066050920,2,0xAF,0xF8
0.066056140,2,0x80,0x06
0.066061740,2,0xAE,0x88
0.066066960,2,0xAF,0x80
0.066072200,2,0x80,0xE1
0.066077800,2,0xAE,0x88
0.066083020,2,0xAF,0xF0
0.066088240,2,0x80,0x00
0.066093840,2,0xAE,0x88
0.066099080,2,0xAF,0xF8
0.066104300,2,0x80,0x02
0.066109960,2,0xAE,0x88
0.066115180,2,0xAF,0x68
0.066120420,2,0x80,0x01
0.066126020,2,0xAE,0x88
0.066131240,2,0xAF,0x30
0.066136460,2,0x80,0xC1
0.066142060,2,0xAE,0x88
0.066147300,2,0xAF,0xF8
0.066152520,2,0x80,0x0B
0.066158120,2,0xAE,0x88
0.066163340,2,0xAF,0x68
0.066168580,2,0x80,0xE1
0.066174240,2,0xAE,0x88
0.066179460,2,0xAF,0x3A
0.066184700,2,0x80,0x00
0.066190300,2,0xAE,0x88
0.066195520,2,0xAF,0x3F
0.066200760,2,0x80,0x01
0.066206340,2,0xAE,0x88
0.066211560,2,0xAF,0xE0
0.066216800,2,0x80,0xF0
0.066222400,2,0xAE,0x88
0.066227620,2,0xAF,0x82
0.066232840,2,0x80,0x3A
0.066238500,2,0xAE,0x88
0.066243740,2,0xAF,0x67
0.066248960,2,0x80,0x6A
0.066254560,2,0xAE,0x88
0.066259780,2,0xAF,0xC9
0.066265020,2,0x80,0x00
0.066270620,2,0xAE,0x88
0.066275840,2,0xAF,0x8C
0.066281080,2,0x80,0x11
0.066286660,2,0xAE,0x88
0.066291900,2,0xAF,0x2A
0.066297120,2,0x80,0x09
0.066302780,2,0xAE,0x88
0.066308000,2,0xAF,0x40
0.066313240,2,0x80,0x49
0.066318840,2,0xAE,0x88
0.066324060,2,0xAF,0x28
0.066329280,2,0x80,0x1A
0.066334880,2,0xAE,0x88
0.066340100,2,0xAF,0x88
0.066345320,2,0x80,0x2F
0.066350920,2,0xAE,0x88
0.066356140,2,0xAF,0x2A
0.066361380,2,0x80,0x09
0.066367040,2,0xAE,0x88
0.066372260,2,0xAF,0xF8
0.066377480,2,0x80,0x08
0.066383080,2,0xAE,0x88
0.066388300,2,0xAF,0xEA
0.066393540,2,0x80,0xBA
0.066399140,2,0xAE,0x88
0.066404360,2,0xAF,0x41
0.066409580,2,0x80,0x8A
0.066415180,2,0xAE,0x88
0.066420420,2,0xAF,0x2B
0.066425640,2,0x80,0x09
0.066431300,2,0xAE,0x88
0.066436540,2,0xAF,0x88
0.066441760,2,0x80,0x1B
0.066447360,2,0xAE,0x88
0.066452580,2,0xAF,0xC0
0.066457800,2,0x80,0x9C
0.066463400,2,0xAE,0x88
0.066468620,2,0xAF,0xCB
0.066473860,2,0x80,0xCB
0.066479440,2,0xAE,0x88
0.066484660,2,0xAF,0x13
0.066489900,2,0x80,0x2C
0.066495560,2,0xAE,0x88
0.066500780,2,0xAF,0x94
0.066506000,2,0x80,0x0F
0.066511600,2,0xAE,0x88
0.066516820,2,0xAF,0x62
0.066522060,2,0x80,0x00
0.066527640,2,0xAE,0x88
0.066532860,2,0xAF,0x87
0.066538080,2,0x80,0xE1
0.066543680,2,0xAE,0x88
0.066548920,2,0xAF,0xCB
0.066554140,2,0x80,0xBC
0.066559780,2,0xAE,0x88
0.066565020,2,0xAF,0xF8
0.066570240,2,0x80,0x22
0.066575840,2,0xAE,0x88
0.066581060,2,0xAF,0x6F
0.066586300,2,0x80,0x7C
0.066591900,2,0xAE,0x88
0.066597120,2,0xAF,0xF8
0.066602360,2,0x80,0x06
0.066607940,2,0xAE,0x88
0.066613180,2,0xAF,0x80
0.066618420,2,0x80,0xE8
0.066624060,2,0xAE,0x88
0.066629300,2,0xAF,0xF0
0.066634520,2,0x80,0x00
0.066640120,2,0xAE,0x88
0.066645340,2,0xAF,0xF8
0.066650560,2,0x80,0x08
0.066656160,2,0xAE,0x88
0.066661380,2,0xAF,0x60
0.066666620,2,0x80,0x11
0.066672220,2,0xAE,0x88
0.066677440,2,0xAF,0x3A
0.066682660,2,0x80,0x00
0.066688320,2,0xAE,0x88
0.066693540,2,0xAF,0x60
0.066698780,2,0x80,0x50
0.066704360,2,0xAE,0x88
0.066709600,2,0xAF,0x3F
0.066714820,2,0x80,0x01
0.066720420,2,0xAE,0x88
0.066725640,2,0xAF,0x3B
0.066730880,2,0x80,0x00
0.066736460,2,0xAE,0x88
0.066741700,2,0xAF,0xE0
0.066746920,2,0x80,0xF0
0.066752580,2,0xAE,0x88
0.066757800,2,0xAF,0x28
0.066763040,2,0x80,0x78
0.066768640,2,0xAE,0x88
0.066773860,2,0xAF,0xF8
0.066779080,2,0x80,0x01
0.066784680,2,0xAE,0x88
0.066789900,2,0xAF,0x6E
0.066795120,2,0x80,0x09
0.066800720,2,0xAE,0x88
0.066805940,2,0xAF,0xD9
0.066811180,2,0x80,0x98
0.066816840,2,0xAE,0x88
0.066822060,2,0xAF,0xF8
0.066827280,2,0x80,0x02
0.066832880,2,0xAE,0x88
0.066838100,2,0xAF,0x80
0.066843340,2,0x80,0xFB
0.066848920,2,0xAE,0x88
0.066854160,2,0xAF,0xF0
0.066859380,2,0x80,0x00
0.066864980,2,0xAE,0x88
0.066870200,2,0xAF,0x8C
0.066875420,2,0x80,0x09
0.066881080,2,0xAE,0x88
0.066886300,2,0xAF,0x28
0.066891540,2,0x80,0x61
0.066897120,2,0xAE,0x88
0.066902340,2,0xAF,0xF8
0.066907560,2,0x80,0x02
0.066913160,2,0xAE,0x88
0.066918400,2,0xAF,0xE1
0.066923620,2,0x80,0xA1
0.066929220,2,0xAE,0x88
0.066934460,2,0xAF,0xF8
0.066939680,2,0x80,0x02
0.066945340,2,0xAE,0x88
0.066950560,2,0xAF,0x80
0.066955800,2,0x80,0xEF
0.066961400,2,0xAE,0x88
0.066966640,2,0xAF,0x60
0.066971860,2,0x80,0x0C
0.066977460,2,0xAE,0x88
0.066982700,2,0xAF,0x62
0.066987920,2,0x80,0x40
0.066993520,2,0xAE,0x88
0.066998740,2,0xAF,0x87
0.067003980,2,0x80,0xC4
0.067009620,2,0xAE,0x88
0.067014860,2,0xAF,0x3B
0.067020080,2,0x80,0x01
0.067025680,2,0xAE,0x88
0.067030900,2,0xAF,0xF8
0.067036140,2,0x80,0x02
0.067041740,2,0xAE,0x88
0.067046960,2,0xAF,0x80
0.067052180,2,0x80,0xF3
0.067057760,2,0xAE,0x88
0.067063000,2,0xAF,0x60
0.067068220,2,0x80,0x18
0.067073880,2,0xAE,0x88
0.067079100,2,0xAF,0x87
0.067084320,2,0x80,0xBF
0.067089920,2,0xAE,0x88
0.067095160,2,0xAF,0x62
0.067100380,2,0x80,0x00
0.067105980,2,0xAE,0x88
0.067111200,2,0xAF,0xF8
0.067116440,2,0x80,0x08
0.067122040,2,0xAE,0x88
0.067127260,2,0xAF,0xEA
0.067132480,2,0x80,0xBA
0.067138140,2,0xAE,0x88
0.067143360,2,0xAF,0x40
0.067148580,2,0x80,0x8A
0.067154180,2,0xAE,0x88
0.067159400,2,0xAF,0x88
0.067164620,2,0x80,0x14
0.067170220,2,0xAE,0x88
0.067175440,2,0xAF,0x40
0.067180660,2,0x80,0x29
0.067186260,2,0xAE,0x88
0.067191500,2,0xAF,0x2B
0.067196720,2,0x80,0x09
0.067202360,2,0xAE,0x88
0.067207580,2,0xAF,0x88
0.067212820,2,0x80,0x11
0.067218400,2,0xAE,0x88
0.067223620,2,0xAF,0x61
0.067228840,2,0x80,0x58
0.067234440,2,0xAE,0x88
0.067239680,2,0xAF,0xD8
0.067244900,2,0x80,0x89
0.067250480,2,0xAE,0x88
0.067255720,2,0xAF,0xF8
0.067260940,2,0x80,0x0A
0.067266600,2,0xAE,0x88
0.067271820,2,0xAF,0xE8
0.067277040,2,0x80,0xB8
0.067282640,2,0xAE,0x88
0.067287860,2,0xAF,0xF8
0.067293080,2,0x80,0x0F
0.067298680,2,0xAE,0x88
0.067303900,2,0xAF,0x6A
0.067309120,2,0x80,0x09
0.067314720,2,0xAE,0x88
0.067319940,2,0xAF,0xF8
0.067325160,2,0x80,0x03
0.067330820,2,0xAE,0x88
0.067336040,2,0xAF,0x80
0.067341280,2,0x80,0x04
0.067346860,2,0xAE,0x88
0.067352080,2,0xAF,0xF0
0.067357300,2,0x80,0x00
0.067362900,2,0xAE,0x88
0.067368120,2,0xAF,0x60
0.067373340,2,0x80,0x01
0.067378940,2,0xAE,0x88
0.067384160,2,0xAF,0xF8
0.067389380,2,0x80,0x03
0.067395040,2,0xAE,0x88
0.067400260,2,0xAF,0x80
0.067405480,2,0x80,0x10
0.067411080,2,0xAE,0x88
0.067416300,2,0xAF,0x28
0.067421520,2,0x80,0x88
0.067427120,2,0xAE,0x88
0.067432340,2,0xAF,0xC9
0.067437580,2,0x80,0x11
0.067443160,2,0xAE,0x88
0.067448380,2,0xAF,0xF0
0.067453600,2,0x80,0x00
0.067459260,2,0xAE,0x88
0.067464480,2,0xAF,0x8F
0.067469700,2,0x80,0xA7
0.067475300,2,0xAE,0x88
0.067480520,2,0xAF,0x62
0.067485760,2,0x80,0x40
0.067491340,2,0xAE,0x88
0.067496560,2,0xAF,0x60
0.067501800,2,0x80,0x21
0.067507400,2,0xAE,0x88
0.067512620,2,0xAF,0x3B
0.067517840,2,0x80,0x11
0.067523500,2,0xAE,0x88
0.067528740,2,0xAF,0x87
0.067533960,2,0x80,0xA3
0.067539560,2,0xAE,0x88
0.067544780,2,0xAF,0x62
0.067550000,2,0x80,0x60
0.067555600,2,0xAE,0x88
0.067560840,2,0xAF,0x63
0.067566060,2,0x80,0x01
0.067571640,2,0xAE,0x88
0.067576880,2,0xAF,0x29
0.067582100,2,0x80,0x20
0.067587760,2,0xAE,0x88
0.067593000,2,0xAF,0xC8
0.067598220,2,0x80,0x10
0.067603820,2,0xAE,0x88
0.067609040,2,0xAF,0x39
0.067614280,2,0x80,0x20
0.067619880,2,0xAE,0x88
0.067625100,2,0xAF,0x80
0.067630340,2,0x80,0xF6
0.067635940,2,0xAE,0x88
0.067641160,2,0xAF,0xF0
0.067646400,2,0x80,0x00
0.067652060,2,0xAE,0x88
0.067657300,2,0xAF,0xF8
0.067662520,2,0x80,0x09
0.067668120,2,0xAE,0x88
0.067673340,2,0xAF,0x80
0.067678580,2,0x80,0xAF
0.067684180,2,0xAE,0x88
0.067689400,2,0xAF,0x67
0.067694620,2,0x80,0x6A
0.067700220,2,0xAE,0x88
0.067705440,2,0xAF,0xC9
0.067710680,2,0x80,0x00
0.067716340,2,0xAE,0x88
0.067721560,2,0xAF,0xF8
0.067726780,2,0x80,0x0B
0.067732380,2,0xAE,0x88
0.067737620,2,0xAF,0x88
0.067742840,2,0x80,0x80
0.067748440,2,0xAE,0x88
0.067753660,2,0xAF,0xF0
0.067758900,2,0x80,0x00
0.067764480,2,0xAE,0x88
0.067769720,2,0xAF,0xF8
0.067774940,2,0x80,0x0E
0.067780600,2,0xAE,0x88
0.067785840,2,0xAF,0x80
0.067791060,2,0x80,0xB4
0.067796660,2,0xAE,0x88
0.067801880,2,0xAF,0xF0
0.067807120,2,0x80,0x00
0.067812720,2,0xAE,0x88
0.067817940,2,0xAF,0xF8
0.067823160,2,0x80,0x0F
0.067828760,2,0xAE,0x88
0.067834000,2,0xAF,0x80
0.067839220,2,0x80,0x61
0.067844880,2,0xAE,0x88
0.067850100,2,0xAF,0xF0
0.067855340,2,0x80,0x00
0.067860940,2,0xAE,0x88
0.067866160,2,0xAF,0xF8
0.067871380,2,0x80,0x00
0.067876980,2,0xAE,0x88
0.067882220,2,0xAF,0x80
0.067887440,2,0x80,0xAB
0.067893040,2,0xAE,0x88
0.067898260,2,0xAF,0xF0
0.067903480,2,0x80,0x00
0.067909140,2,0xAE,0x88
0.067914380,2,0xAF,0xF8
0.067919600,2,0x80,0x05
0.067925200,2,0xAE,0x88
0.067930420,2,0xAF,0x80
0.067935660,2,0x80,0x10
0.067941240,2,0xAE,0x88
0.067946480,2,0xAF,0xF0
0.067951700,2,0x80,0x00
0.067957300,2,0xAE,0x88
0.067962540,2,0xAF,0xF8
0.067967760,2,0x80,0x02
0.067973420,2,0xAE,0x88
0.067978640,2,0xAF,0x80
0.067983880,2,0x80,0x66
0.067989460,2,0xAE,0x88
0.067994700,2,0xAF,0xF0
0.067999920,2,0x80,0x00
0.068005520,2,0xAE,0x88
0.068010740,2,0xAF,0xC9
0.068015960,2,0x80,0x00
0.068021560,2,0xAE,0x88
0.068026780,2,0xAF,0x88
0.068032020,2,0x80,0x7E
0.068037680,2,0xAE,0x88
0.068042900,2,0xAF,0xF0
0.068048140,2,0x80,0x00
0.068053740,2,0xAE,0x88
0.068058960,2,0xAF,0xF8
0.068064180,2,0x80,0x05
0.068069780,2,0xAE,0x88
0.068075020,2,0xAF,0x80
0.068080240,2,0x80,0x24
0.068085840,2,0xAE,0x88
0.068091060,2,0xAF,0xF0
0.068096280,2,0x80,0x00
0.068101960,2,0xAE,0x88
0.068107180,2,0xAF,0xF8
0.068112400,2,0x80,0x04
0.068118000,2,0xAE,0x88
0.068123220,2,0xAF,0x80
0.068128460,2,0x80,0x52
0.068134060,2,0xAE,0x88
0.068139280,2,0xAF,0xF0
0.068144500,2,0x80,0x00
0.068150100,2,0xAE,0x88
0.068155340,2,0xAF,0xC9
0.068160560,2,0x80,0x00
0.068166220,2,0xAE,0x88
0.068171440,2,0xAF,0x88
0.068176680,2,0x80,0x84
0.068182280,2,0xAE,0x88
0.068187500,2,0xAF,0xF0
0.068192720,2,0x80,0x00
0.068198320,2,0xAE,0x88
0.068203560,2,0xAF,0xF8
0.068208780,2,0x80,0x00
0.068214360,2,0xAE,0x88
0.068219600,2,0xAF,0x80
0.068224820,2,0x80,0xAB
0.068230480,2,0xAE,0x88
0.068235720,2,0xAF,0xF0
0.068240940,2,0x80,0x00
0.068246540,2,0xAE,0x88
0.068251760,2,0xAF,0xF8
0.068257000,2,0x80,0x04
0.068262600,2,0xAE,0x88
0.068267820,2,0xAF,0x80
0.068273040,2,0x80,0x70
0.068278660,2,0xAE,0x88
0.068283880,2,0xAF,0xF0
0.068289100,2,0x80,0x00
0.068294760,2,0xAE,0x88
0.068300000,2,0xAF,0xC9
0.068305220,2,0x80,0x00
0.068310820,2,0xAE,0x88
0.068316040,2,0xAF,0x88
0.068321260,2,0x80,0x7F
0.068326860,2,0xAE,0x88
0.068332100,2,0xAF,0xF0
0.068337320,2,0x80,0x00
0.068342900,2,0xAE,0x88
0.068348140,2,0xAF,0xF8
0.068353360,2,0x80,0x02
0.068359020,2,0xAE,0x88
0.068364240,2,0xAF,0x80
0.068369460,2,0x80,0x66
0.068375060,2,0xAE,0x88
0.068380300,2,0xAF,0xF0
0.068385520,2,0x80,0x00
0.068391100,2,0xAE,0x88
0.068396340,2,0xAF,0xC9
0.068401560,2,0x80,0x00
0.068407160,2,0xAE,0x88
0.068412380,2,0xAF,0x88
0.068417620,2,0x80,0x75
0.068423280,2,0xAE,0x88
0.068428500,2,0xAF,0xF0
0.068433720,2,0x80,0x00
0.068439320,2,0xAE,0x88
0.068444540,2,0xAF,0xF8
0.068449760,2,0x80,0x04
0.068455360,2,0xAE,0x88
0.068460580,2,0xAF,0x80
0.068465820,2,0x80,0x82
0.068471400,2,0xAE,0x88
0.068476640,2,0xAF,0xF0
0.068481860,2,0x80,0x00
0.068487520,2,0xAE,0x88
0.068492740,2,0xAF,0x29
0.068497960,2,0x80,0x20
0.068503560,2,0xAE,0x88
0.068508780,2,0xAF,0x40
0.068514000,2,0x80,0x60
0.068519600,2,0xAE,0x88
0.068524840,2,0xAF,0x29
0.068530060,2,0x80,0x20
0.068535660,2,0xAE,0x88
0.068540880,2,0xAF,0x8C
0.068546100,2,0x80,0x04
0.068551780,2,0xAE,0x88
0.068557000,2,0xAF,0xF0
0.068562220,2,0x80,0x00
0.068567820,2,0xAE,0x88
0.068573040,2,0xAF,0xF8
0.068578280,2,0x80,0x04
0.068583860,2,0xAE,0x88
0.068589100,2,0xAF,0x80
0.068594320,2,0x80,0xB0
0.068599920,2,0xAE,0x88
0.068605140,2,0xAF,0xF0
0.068610360,2,0x80,0x00
0.068616020,2,0xAE,0x88
0.068621240,2,0xAF,0xF8
0.068626480,2,0x80,0x04
0.068632060,2,0xAE,0x88
0.068637280,2,0xAF,0x80
0.068642520,2,0x80,0x8F
0.068648120,2,0xAE,0x88
0.068653340,2,0xAF,0xF0
0.068658560,2,0x80,0x00
0.068664140,2,0xAE,0x88
0.068669380,2,0xAF,0xF8
0.068674600,2,0x80,0x01
0.068680260,2,0xAE,0x88
0.068685480,2,0xAF,0x80
0.068690700,2,0x80,0x79
0.068696280,2,0xAE,0x88
0.068701520,2,0xAF,0xF0
0.068706740,2,0x80,0x00
0.068712320,2,0xAE,0x88
0.068717560,2,0xAF,0xF8
0.068722780,2,0x80,0x01
0.068728360,2,0xAE,0x88
0.068733580,2,0xAF,0x80
0.068738820,2,0x80,0x7E
0.068744480,2,0xAE,0x88
0.068749700,2,0xAF,0xF0
0.068754920,2,0x80,0x00
0.068760520,2,0xAE,0x88
0.068765740,2,0xAF,0xF8
0.068770960,2,0x80,0x04
0.068776560,2,0xAE,0x88
0.068781780,2,0xAF,0x80
0.068787000,2,0x80,0xA0
0.068792600,2,0xAE,0x88
0.068797820,2,0xAF,0xF0
0.068803060,2,0x80,0x00
0.068808700,2,0xAE,0x88
0.068813920,2,0xAF,0xF8
0.068819160,2,0x80,0x0E
0.068824760,2,0xAE,0x88
0.068829980,2,0xAF,0x80
0.068835200,2,0x80,0xDA
0.068840780,2,0xAE,0x88
0.068846020,2,0xAF,0xF0
0.068851240,2,0x80,0x00
0.068856840,2,0xAE,0x88
0.068862060,2,0xAF,0x28
0.068867300,2,0x80,0xF7
0.068872960,2,0xAE,0x88
0.068878180,2,0xAF,0xF8
0.068883400,2,0x80,0x00
0.068889000,2,0xAE,0x88
0.068894220,2,0xAF,0x6F
0.068899460,2,0x80,0xF6
0.068905040,2,0xAE,0x88
0.068910260,2,0xAF,0x00
0.068915480,2,0x80,0x47
0.068921080,2,0xAE,0x88
0.068926320,2,0xAF,0x28
0.068931540,2,0x80,0x58
0.068937180,2,0xAE,0x88
0.068942420,2,0xAF,0xE2
0.068947640,2,0x80,0x08
0.068953240,2,0xAE,0x88
0.068958460,2,0xAF,0xF8
0.068963680,2,0x80,0x0D
0.068969280,2,0xAE,0x88
0.068974520,2,0xAF,0x80
0.068979740,2,0x80,0xF7
0.068985320,2,0xAE,0x88
0.068990560,2,0xAF,0xE2
0.068995780,2,0x80,0x08
0.069001440,2,0xAE,0x88
0.069006660,2,0xAF,0xF8
0.069011880,2,0x80,0x0E
0.069017480,2,0xAE,0x88
0.069022720,2,0xAF,0x80
0.069027940,2,0x80,0x75
0.069033540,2,0xAE,0x88
0.069038760,2,0xAF,0xF0
0.069043980,2,0x80,0x00
0.069049580,2,0xAE,0x88
0.069054820,2,0xAF,0xF8
0.069060040,2,0x80,0x0F
0.069065700,2,0xAE,0x88
0.069070920,2,0xAF,0x80
0.069076140,2,0x80,0x5F
0.069081740,2,0xAE,0x88
0.069086960,2,0xAF,0x29
0.069092200,2,0x80,0x70
0.069097800,2,0xAE,0x88
0.069103020,2,0xAF,0x29
0.069108240,2,0x80,0x29
0.069113840,2,0xAE,0x88
0.069119060,2,0xAF,0xC9
0.069124280,2,0x80,0xB9
0.069129940,2,0xAE,0x88
0.069135160,2,0xAF,0xF8
0.069140380,2,0x80,0x0E
0.069145980,2,0xAE,0x88
0.069151220,2,0xAF,0x80
0.069156440,2,0x80,0x02
0.069162020,2,0xAE,0x88
0.069167260,2,0xAF,0xCB
0.069172480,2,0x80,0x9B
0.069178080,2,0xAE,0x88
0.069183300,2,0xAF,0xCB
0.069188520,2,0x80,0xB9
0.069194180,2,0xAE,0x88
0.069199420,2,0xAF,0x42
0.069204640,2,0x80,0x0B
0.069210240,2,0xAE,0x88
0.069215460,2,0xAF,0xCB
0.069220700,2,0x80,0x9B
0.069226280,2,0xAE,0x88
0.069231520,2,0xAF,0x88
0.069236740,2,0x80,0x49
0.069242340,2,0xAE,0x88
0.069247580,2,0xAF,0xF0
0.069252800,2,0x80,0x00
0.069258460,2,0xAE,0x88
0.069263680,2,0xAF,0x40
0.069268900,2,0x80,0x19
0.069274500,2,0xAE,0x88
0.069279720,2,0xAF,0x60
0.069284960,2,0x80,0x09
0.069290560,2,0xAE,0x88
0.069295780,2,0xAF,0x8C
0.069301000,2,0x80,0x04
0.069306600,2,0xAE,0x88
0.069311820,2,0xAF,0xF0
0.069317040,2,0x80,0x00
0.069322700,2,0xAE,0x88
0.069327920,2,0xAF,0xF8
0.069333140,2,0x80,0x02
0.069338740,2,0xAE,0x88
0.069343980,2,0xAF,0x80
0.069349200,2,0x80,0xEF
0.069354780,2,0xAE,0x88
0.069360020,2,0xAF,0xF0
0.069365240,2,0x80,0x00
0.069370840,2,0xAE,0x88
0.069376060,2,0xAF,0xF8
0.069381300,2,0x80,0x0E
0.069386960,2,0xAE,0x88
0.069392180,2,0xAF,0x80
0.069397400,2,0x80,0x07
0.069403000,2,0xAE,0x88
0.069408220,2,0xAF,0xF0
0.069413440,2,0x80,0x00
0.069419040,2,0xAE,0x88
0.069424260,2,0xAF,0xF8
0.069429480,2,0x80,0x01
0.069435080,2,0xAE,0x88
0.069440300,2,0xAF,0x80
0.069445540,2,0x80,0xB8
0.069451180,2,0xAE,0x88
0.069456400,2,0xAF,0xF0
0.069461640,2,0x80,0x00
0.069467240,2,0xAE,0x88
0.069472460,2,0xAF,0x80
0.069477680,2,0x80,0x3F
0.069483280,2,0xAE,0x88
0.069488500,2,0xAF,0xF0
0.069493740,2,0x80,0x00
0.069499320,2,0xAE,0x88
0.069504560,2,0xAF,0x29
0.069509780,2,0x80,0x20
0.069515440,2,0xAE,0x88
0.069520660,2,0xAF,0x44
0.069525900,2,0x80,0x00
0.069531480,2,0xAE,0x88
0.069536720,2,0xAF,0x29
0.069541940,2,0x80,0x20
0.069547540,2,0xAE,0x88
0.069552760,2,0xAF,0x88
0.069557980,2,0x80,0x1A
0.069563580,2,0xAE,0x88
0.069568820,2,0xAF,0x42
0.069574040,2,0x80,0x00
0.069579680,2,0xAE,0x88
0.069584920,2,0xAF,0x88
0.069590140,2,0x80,0x12
0.069595740,2,0xAE,0x88
0.069600960,2,0xAF,0xF0
0.069606180,2,0x80,0x00
0.069611780,2,0xAE,0x88
0.069617020,2,0xAF,0xF8
0.069622240,2,0x80,0x22
0.069627820,2,0xAE,0x88
0.069633040,2,0xAF,0x6F
0.069638280,2,0x80,0x0D
0.069643940,2,0xAE,0x88
0.069649160,2,0xAF,0xCC
0.069654380,2,0x80,0xD1
0.069659980,2,0xAE,0x88
0.069665220,2,0xAF,0xCC
0.069670440,2,0x80,0xD2
0.069676020,2,0xAE,0x88
0.069681260,2,0xAF,0xF8
0.069686480,2,0x80,0x03
0.069692080,2,0xAE,0x88
0.069697300,2,0xAF,0xE1
0.069702520,2,0x80,0xA1
0.069708180,2,0xAE,0x88
0.069713420,2,0xAF,0xF8
0.069718640,2,0x80,0x03
0.069724220,2,0xAE,0x88
0.069729460,2,0xAF,0xE2
0.069734680,2,0x80,0xA2
0.069740280,2,0xAE,0x88
0.069745500,2,0xAF,0xF8
0.069750720,2,0x80,0x0F
0.069756320,2,0xAE,0x88
0.069761540,2,0xAF,0x80
0.069766780,2,0x80,0x52
0.069772420,2,0xAE,0x88
0.069777660,2,0xAF,0xF0
0.069782880,2,0x80,0x00
0.069788480,2,0xAE,0x88
0.069793720,2,0xAF,0xF8
0.069798940,2,0x80,0x09
0.069804540,2,0xAE,0x88
0.069809760,2,0xAF,0x80
0.069815000,2,0x80,0xE6
0.069820580,2,0xAE,0x88
0.069825820,2,0xAF,0x20
0.069831040,2,0x80,0xB0
0.069836700,2,0xAE,0x88
0.069841920,2,0xAF,0x2A
0.069847140,2,0x80,0x01
0.069852740,2,0xAE,0x88
0.069857980,2,0xAF,0x3A
0.069863200,2,0x80,0x01
0.069868780,2,0xAE,0x88
0.069874000,2,0xAF,0xE0
0.069879240,2,0x80,0xF0
0.069884820,2,0xAE,0x88
0.069890060,2,0xAF,0xF8
0.069895280,2,0x80,0x01
0.069900940,2,0xAE,0x88
0.069906160,2,0xAF,0x80
0.069911400,2,0x80,0x8C
0.069916980,2,0xAE,0x88
0.069922200,2,0xAF,0xF0
0.069927440,2,0x80,0x00
0.069933020,2,0xAE,0x88
0.069938260,2,0xAF,0xCB
0.069943480,2,0x80,0x31
0.069949080,2,0xAE,0x88
0.069954300,2,0xAF,0x87
0.069959540,2,0x80,0xF2
0.069965180,2,0xAE,0x88
0.069970400,2,0xAF,0xCB
0.069975640,2,0x80,0x42
0.069981220,2,0xAE,0x88
0.069986460,2,0xAF,0xF8
0.069991680,2,0x80,0x00
0.069997280,2,0xAE,0x88
0.070002500,2,0xAF,0x80
0.070007720,2,0x80,0x9E
0.070013320,2,0xAE,0x88
0.070018540,2,0xAF,0xF0
0.070023760,2,0x80,0x00
0.070029420,2,0xAE,0x88
0.070034660,2,0xAF,0x87
0.070039880,2,0x80,0xF0
0.070045480,2,0xAE,0x88
0.070050700,2,0xAF,0xF0
0.070055920,2,0x80,0x00
0.070061520,2,0xAE,0x88
0.070066740,2,0xAF,0x26
0.070071960,2,0x80,0xEF
0.070077540,2,0xAE,0x88
0.070082780,2,0xAF,0xF8
0.070088000,2,0x80,0x0D
0.070093640,2,0xAE,0x88
0.070098880,2,0xAF,0x80
0.070104100,2,0x80,0x90
0.070109700,2,0xAE,0x88
0.070114920,2,0xAF,0x11
0.070120140,2,0x80,0xCF
0.070125720,2,0xAE,0x88
0.070130960,2,0xAF,0xF8
0.070136180,2,0x80,0x01
0.070141780,2,0xAE,0x88
0.070147000,2,0xAF,0x60
0.070152220,2,0x80,0x0D
0.070157880,2,0xAE,0x88
0.070163100,2,0xAF,0xC8
0.070168320,2,0x80,0x0D
0.070173920,2,0xAE,0x88
0.070179140,2,0xAF,0xF8
0.070184380,2,0x80,0x0D
0.070189960,2,0xAE,0x88
0.070195180,2,0xAF,0x88
0.070200400,2,0x80,0x40
0.070206000,2,0xAE,0x88
0.070211220,2,0xAF,0xF0
0.070216460,2,0x80,0x00
0.070222100,2,0xAE,0x88
0.070227320,2,0xAF,0xF8
0.070232560,2,0x80,0x05
0.070238160,2,0xAE,0x88
0.070243380,2,0xAF,0x80
0.070248600,2,0x80,0x24
0.070254200,2,0xAE,0x88
0.070259440,2,0xAF,0xF0
0.070264660,2,0x80,0x00
0.070270240,2,0xAE,0x88
0.070275480,2,0xAF,0x87
0.070280700,2,0x80,0x78
0.070286360,2,0xAE,0x88
0.070291580,2,0xAF,0xF0
0.070296800,2,0x80,0x00
0.070302400,2,0xAE,0x88
0.070307640,2,0xAF,0x29
0.070312860,2,0x80,0x20
0.070318440,2,0xAE,0x88
0.070323660,2,0xAF,0x50
0.070328900,2,0x80,0x40
0.070334500,2,0xAE,0x88
0.070339720,2,0xAF,0x87
0.070344940,2,0x80,0x91
0.070350600,2,0xAE,0x88
0.070355820,2,0xAF,0x39
0.070361040,2,0x80,0x20
0.070366640,2,0xAE,0x88
0.070371860,2,0xAF,0x60
0.070377080,2,0x80,0x01
0.070382680,2,0xAE,0x88
0.070387900,2,0xAF,0x87
0.070393120,2,0x80,0x86
0.070398720,2,0xAE,0x88
0.070403940,2,0xAF,0x60
0.070409180,2,0x80,0x02
0.070414820,2,0xAE,0x88
0.070420040,2,0xAF,0xF8
0.070425260,2,0x80,0x0E
0.070430860,2,0xAE,0x88
0.070436100,2,0xAF,0x80
0.070441300,2,0x80,0x12
0.070446900,2,0xAE,0x88
0.070452120,2,0xAF,0xF0
0.070457360,2,0x80,0x00
0.070462940,2,0xAE,0x88
0.070468160,2,0xAF,0x87
0.070473380,2,0x80,0xB4
0.070479040,2,0xAE,0x88
0.070484280,2,0xAF,0xF0
0.070489500,2,0x80,0x00
0.070495080,2,0xAE,0x88
0.070500320,2,0xAF,0x28
0.070505540,2,0x80,0x12
0.070511140,2,0xAE,0x88
0.070516360,2,0xAF,0xF8
0.070521580,2,0x80,0x08
0.070527180,2,0xAE,0x88
0.070532400,2,0xAF,0xE2
0.070537620,2,0x80,0xB2
0.070543280,2,0xAE,0x88
0.070548500,2,0xAF,0xCB
0.070553720,2,0x80,0x20
0.070559320,2,0xAE,0x88
0.070564540,2,0xAF,0x48
0.070569760,2,0x80,0x02
0.070575360,2,0xAE,0x88
0.070580580,2,0xAF,0xCB
0.070585800,2,0x80,0x02
0.070591400,2,0xAE,0x88
0.070596620,2,0xAF,0x88
0.070601840,2,0x80,0x34
0.070607500,2,0xAE,0x88
0.070612720,2,0xAF,0x44
0.070617940,2,0x80,0x02
0.070623540,2,0xAE,0x88
0.070628760,2,0xAF,0x8C
0.070634000,2,0x80,0x32
0.070639580,2,0xAE,0x88
0.070644800,2,0xAF,0x28
0.070650040,2,0x80,0x58
0.070655640,2,0xAE,0x88
0.070660860,2,0xAF,0xF8
0.070666080,2,0x80,0x02
0.070671740,2,0xAE,0x88
0.070676960,2,0xAF,0xE8
0.070682200,2,0x80,0xA8
0.070687780,2,0xAE,0x88
0.070693000,2,0xAF,0xCB
0.070698240,2,0x80,0x12
0.070703840,2,0xAE,0x88
0.070709060,2,0xAF,0xC2
0.070714280,2,0x80,0x81
0.070719880,2,0xAE,0x88
0.070725100,2,0xAF,0xCB
0.070730340,2,0x80,0x21
0.070735980,2,0xAE,0x88
0.070741220,2,0xAF,0x8C
0.070746440,2,0x80,0x06
0.070752040,2,0xAE,0x88
0.070757280,2,0xAF,0x60
0.070762500,2,0x80,0x01
0.070768100,2,0xAE,0x88
0.070773340,2,0xAF,0xF8
0.070778560,2,0x80,0x0B
0.070784160,2,0xAE,0x88
0.070789380,2,0xAF,0x6E
0.070794620,2,0x80,0x10
0.070800280,2,0xAE,0x88
0.070805500,2,0xAF,0x3A
0.070810720,2,0x80,0x01
0.070816320,2,0xAE,0x88
0.070821540,2,0xAF,0xBC
0.070826780,2,0x80,0x00
0.070832380,2,0xAE,0x88
0.070837600,2,0xAF,0x3F
0.070842820,2,0x80,0x00
0.070848420,2,0xAE,0x88
0.070853660,2,0xAF,0x29
0.070858880,2,0x80,0x22
0.070864540,2,0xAE,0x88
0.070869760,2,0xAF,0x60
0.070875000,2,0x80,0x21
0.070880600,2,0xAE,0x88
0.070885820,2,0xAF,0x44
0.070891040,2,0x80,0x02
0.070896640,2,0xAE,0x88
0.070901860,2,0xAF,0xF8
0.070907100,2,0x80,0x02
0.070912680,2,0xAE,0x88
0.070917900,2,0xAF,0x68
0.070923140,2,0x80,0x08
0.070928800,2,0xAE,0x88
0.070934020,2,0xAF,0x8F
0.070939240,2,0x80,0xF5
0.070944840,2,0xAE,0x88
0.070950060,2,0xAF,0x28
0.070955300,2,0x80,0x12
0.070960900,2,0xAE,0x88
0.070966120,2,0xAF,0xF8
0.070971340,2,0x80,0x08
0.070976940,2,0xAE,0x88
0.070982180,2,0xAF,0xE2
0.070987400,2,0x80,0xB2
0.070993040,2,0xAE,0x88
0.070998280,2,0xAF,0xF8
0.071003520,2,0x80,0x02
0.071009100,2,0xAE,0x88
0.071014320,2,0xAF,0x80
0.071019540,2,0x80,0xF3
0.071025140,2,0xAE,0x88
0.071030380,2,0xAF,0xF0
0.071035600,2,0x80,0x00
0.071041200,2,0xAE,0x88
0.071046420,2,0xAF,0x41
0.071051660,2,0x80,0x82
0.071057300,2,0xAE,0x88
0.071062520,2,0xAF,0x88
0.071067760,2,0x80,0x08
0.071073360,2,0xAE,0x88
0.071078580,2,0xAF,0x28
0.071083820,2,0x80,0x78
0.071089400,2,0xAE,0x88
0.071094640,2,0xAF,0xF8
0.071099880,2,0x80,0x01
0.071105460,2,0xAE,0x88
0.071110700,2,0xAF,0x6E
0.071115920,2,0x80,0x09
0.071121580,2,0xAE,0x88
0.071126800,2,0xAF,0xD9
0.071132020,2,0x80,0x98
0.071137620,2,0xAE,0x88
0.071142860,2,0xAF,0xF8
0.071148080,2,0x80,0x02
0.071153680,2,0xAE,0x88
0.071158900,2,0xAF,0x80
0.071164140,2,0x80,0xFB
0.071169720,2,0xAE,0x88
0.071174960,2,0xAF,0xF0
0.071180180,2,0x80,0x00
0.071185840,2,0xAE,0x88
0.071191060,2,0xAF,0x8F
0.071196300,2,0x80,0xE5
0.071201900,2,0xAE,0x88
0.071207120,2,0xAF,0x28
0.071212340,2,0x80,0x62
0.071217940,2,0xAE,0x88
0.071223180,2,0xAF,0xF8
0.071228400,2,0x80,0x08
0.071234000,2,0xAE,0x88
0.071239220,2,0xAF,0x80
0.071244440,2,0x80,0xB5
0.071250100,2,0xAE,0x88
0.071255340,2,0xAF,0xF0
0.071260560,2,0x80,0x00
0.071266160,2,0xAE,0x88
0.071271380,2,0xAF,0x60
0.071276620,2,0x80,0x41
0.071282200,2,0xAE,0x88
0.071287440,2,0xAF,0xF8
0.071292660,2,0x80,0x02
0.071298260,2,0xAE,0x88
0.071303480,2,0xAF,0xE2
0.071308720,2,0x80,0xA2
0.071314360,2,0xAE,0x88
0.071319600,2,0xAF,0xF8
0.071324820,2,0x80,0x0C
0.071330420,2,0xAE,0x88
0.071335640,2,0xAF,0x6E
0.071340860,2,0x80,0x60
0.071346460,2,0xAE,0x88
0.071351700,2,0xAF,0x3B
0.071356920,2,0x80,0x02
0.071362520,2,0xAE,0x88
0.071367740,2,0xAF,0xF8
0.071372980,2,0x80,0x02
0.071378620,2,0xAE,0x88
0.071383860,2,0xAF,0x80
0.071389080,2,0x80,0xEF
0.071394680,2,0xAE,0x88
0.071399900,2,0xAF,0x3A
0.071405120,2,0x80,0x01
0.071410720,2,0xAE,0x88
0.071415940,2,0xAF,0xBC
0.071421180,2,0x80,0x00
0.071426760,2,0xAE,0x88
0.071431980,2,0xAF,0x3F
0.071437220,2,0x80,0x00
0.071442880,2,0xAE,0x88
0.071448100,2,0xAF,0xF8
0.071453320,2,0x80,0x08
0.071458920,2,0xAE,0x88
0.071464140,2,0xAF,0x80
0.071469380,2,0x80,0xB5
0.071474980,2,0xAE,0x88
0.071480200,2,0xAF,0xF0
0.071485420,2,0x80,0x00
0.071491020,2,0xAE,0x88
0.071496260,2,0xAF,0x28
0.071501480,2,0x80,0x58
0.071507140,2,0xAE,0x88
0.071512360,2,0xAF,0xF8
0.071517600,2,0x80,0x08
0.071523200,2,0xAE,0x88
0.071528420,2,0xAF,0x6D
0.071533640,2,0x80,0xD0
0.071539240,2,0xAE,0x88
0.071544480,2,0xAF,0x3B
0.071549700,2,0x80,0x08
0.071555300,2,0xAE,0x88
0.071560520,2,0xAF,0xBC
0.071565740,2,0x80,0x00
0.071571400,2,0xAE,0x88
0.071576620,2,0xAF,0x3F
0.071581840,2,0x80,0x00
0.071587440,2,0xAE,0x88
0.071592660,2,0xAF,0xF8
0.071597900,2,0x80,0x00
0.071603480,2,0xAE,0x88
0.071608720,2,0xAF,0x60
0.071613940,2,0x80,0x00
0.071619540,2,0xAE,0x88
0.071624760,2,0xAF,0x35
0.071630000,2,0x80,0x50
0.071635640,2,0xAE,0x88
0.071640880,2,0xAF,0xF8
0.071646100,2,0x80,0x05
0.071651700,2,0xAE,0x88
0.071656920,2,0xAF,0x60
0.071662140,2,0x80,0x50
0.071667740,2,0xAE,0x88
0.071672980,2,0xAF,0x35
0.071678200,2,0x80,0x60
0.071683800,2,0xAE,0x88
0.071689020,2,0xAF,0xF8
0.071694260,2,0x80,0x01
0.071699900,2,0xAE,0x88
0.071705140,2,0xAF,0x60
0.071710360,2,0x80,0x40
0.071715960,2,0xAE,0x88
0.071721180,2,0xAF,0xBC
0.071726400,2,0x80,0x00
0.071732000,2,0xAE,0x88
0.071737240,2,0xAF,0x35
0.071742460,2,0x80,0x80
0.071748060,2,0xAE,0x88
0.071753280,2,0xAF,0x60
0.071758520,2,0x80,0x00
0.071764180,2,0xAE,0x88
0.071769400,2,0xAF,0x39
0.071774640,2,0x80,0x20
0.071780220,2,0xAE,0x88
0.071785460,2,0xAF,0xF8
0.071790680,2,0x80,0x09
0.071796280,2,0xAE,0x88
0.071801500,2,0xAF,0x80
0.071806740,2,0x80,0xAF
0.071812320,2,0xAE,0x88
0.071817560,2,0xAF,0x67
0.071822780,2,0x80,0x6A
0.071828440,2,0xAE,0x88
0.071833660,2,0xAF,0xC9
0.071838900,2,0x80,0x00
0.071844500,2,0xAE,0x88
0.071849720,2,0xAF,0xF8
0.071854940,2,0x80,0x0B
0.071860540,2,0xAE,0x88
0.071865760,2,0xAF,0x88
0.071871000,2,0x80,0x80
0.071876580,2,0xAE,0x88
0.071881820,2,0xAF,0xF0
0.071887040,2,0x80,0x00
0.071892700,2,0xAE,0x88
0.071897920,2,0xAF,0xF8
0.071903140,2,0x80,0x03
0.071908740,2,0xAE,0x88
0.071913960,2,0xAF,0x80
0.071919200,2,0x80,0x98
0.071924800,2,0xAE,0x88
0.071930020,2,0xAF,0xF0
0.071935240,2,0x80,0x00
0.071940860,2,0xAE,0x88
0.071946080,2,0xAF,0xF8
0.071951320,2,0x80,0x00
0.071956960,2,0xAE,0x88
0.071962200,2,0xAF,0x80
0.071967420,2,0x80,0xAB
0.071973020,2,0xAE,0x88
0.071978260,2,0xAF,0xF0
0.071983480,2,0x80,0x00
0.071989080,2,0xAE,0x88
0.071994300,2,0xAF,0xF8
0.071999540,2,0x80,0x04
0.072005120,2,0xAE,0x88
0.072010340,2,0xAF,0x80
0.072015580,2,0x80,0x3B
0.072021240,2,0xAE,0x88
0.072026460,2,0xAF,0xF0
0.072031680,2,0x80,0x00
0.072037280,2,0xAE,0x88
0.072042500,2,0xAF,0x88
0.072047740,2,0x80,0x47
0.072053320,2,0xAE,0x88
0.072058540,2,0xAF,0xF0
0.072063760,2,0x80,0x00
0.072069360,2,0xAE,0x88
0.072074580,2,0xAF,0xF8
0.072079800,2,0x80,0x05
0.072085460,2,0xAE,0x88
0.072090680,2,0xAF,0x80
0.072095920,2,0x80,0x1B
0.072101500,2,0xAE,0x88
0.072106740,2,0xAF,0xF0
0.072111960,2,0x80,0x00
0.072117560,2,0xAE,0x88
0.072122780,2,0xAF,0xF8
0.072128000,2,0x80,0x02
0.072133580,2,0xAE,0x88
0.072138820,2,0xAF,0x80
0.072144040,2,0x80,0x66
0.072149700,2,0xAE,0x88
0.072154920,2,0xAF,0xF0
0.072160140,2,0x80,0x00
0.072165740,2,0xAE,0x88
0.072170960,2,0xAF,0xC9
0.072176180,2,0x80,0x00
0.072181780,2,0xAE,0x88
0.072187000,2,0xAF,0x8C
0.072192220,2,0x80,0x03
0.072197820,2,0xAE,0x88
0.072203040,2,0xAF,0xF0
0.072208260,2,0x80,0x00
0.072213920,2,0xAE,0x88
0.072219160,2,0xAF,0x60
0.072224380,2,0x80,0x01
0.072229960,2,0xAE,0x88
0.072235200,2,0xAF,0x60
0.072240420,2,0x80,0x02
0.072246020,2,0xAE,0x88
0.072251240,2,0xAF,0xF8
0.072256460,2,0x80,0x05
0.072262060,2,0xAE,0x88
0.072267300,2,0xAF,0x80
0.072272520,2,0x80,0x24
0.072278160,2,0xAE,0x88
0.072283400,2,0xAF,0xF0
0.072288620,2,0x80,0x00
0.072294220,2,0xAE,0x88
0.072299440,2,0xAF,0xF8
0.072304660,2,0x80,0x04
0.072310260,2,0xAE,0x88
0.072315480,2,0xAF,0x80
0.072320720,2,0x80,0x00
0.072326300,2,0xAE,0x88
0.072331520,2,0xAF,0xF0
0.072336760,2,0x80,0x00
0.072342420,2,0xAE,0x88
0.072347640,2,0xAF,0x39
0.072352860,2,0x80,0x73
0.072358460,2,0xAE,0x88
0.072363680,2,0xAF,0x11
0.072368920,2,0x80,0x03
0.072374520,2,0xAE,0x88
0.072379740,2,0xAF,0x60
0.072384960,2,0x80,0x40
0.072390560,2,0xAE,0x88
0.072395780,2,0xAF,0x94
0.072401000,2,0x80,0x37
0.072406660,2,0xAE,0x88
0.072411880,2,0xAF,0x39
0.072417100,2,0x80,0x20
0.072422700,2,0xAE,0x88
0.072427920,2,0xAF,0xF8
0.072433140,2,0x80,0x04
0.072438740,2,0xAE,0x88
0.072443960,2,0xAF,0x80
0.072449180,2,0x80,0xB0
0.072454760,2,0xAE,0x88
0.072460000,2,0xAF,0xF0
0.072465220,2,0x80,0x00
0.072470880,2,0xAE,0x88
0.072476100,2,0xAF,0xF8
0.072481320,2,0x80,0x04
0.072486920,2,0xAE,0x88
0.072492160,2,0xAF,0x80
0.072497380,2,0x80,0x8F
0.072502960,2,0xAE,0x88
0.072508200,2,0xAF,0xF0
0.072513420,2,0x80,0x00
0.072519020,2,0xAE,0x88
0.072524240,2,0xAF,0xF8
0.072529460,2,0x80,0x01
0.072535120,2,0xAE,0x88
0.072540360,2,0xAF,0x80
0.072545580,2,0x80,0x79
0.072551180,2,0xAE,0x88
0.072556400,2,0xAF,0xF0
0.072561620,2,0x80,0x00
0.072567220,2,0xAE,0x88
0.072572440,2,0xAF,0xF8
0.072577660,2,0x80,0x04
0.072583260,2,0xAE,0x88
0.072588500,2,0xAF,0x80
0.072593720,2,0x80,0xA0
0.072599380,2,0xAE,0x88
0.072604600,2,0xAF,0xF0
0.072609840,2,0x80,0x00
0.072615440,2,0xAE,0x88
0.072620660,2,0xAF,0xF8
0.072625880,2,0x80,0x00
0.072631480,2,0xAE,0x88
0.072636700,2,0xAF,0x68
0.072641940,2,0x80,0x86
0.072647520,2,0xAE,0x88
0.072652740,2,0xAF,0x28
0.072657980,2,0x80,0x68
0.072663640,2,0xAE,0x88
0.072668860,2,0xAF,0xF8
0.072674100,2,0x80,0x02
0.072679680,2,0xAE,0x88
0.072684900,2,0xAF,0xE8
0.072690140,2,0x80,0xA8
0.072695740,2,0xAE,0x88
0.072700960,2,0xAF,0xCB
0.072706180,2,0x80,0x29
0.072711780,2,0xAE,0x88
0.072717020,2,0xAF,0xCB
0.072722240,2,0x80,0x8A
0.072727900,2,0xAE,0x88
0.072733120,2,0xAF,0xC2
0.072738340,2,0x80,0x62
0.072743940,2,0xAE,0x88
0.072749160,2,0xAF,0xCB
0.072754400,2,0x80,0x92
0.072759980,2,0xAE,0x88
0.072765220,2,0xAF,0x60
0.072770440,2,0x80,0x09
0.072776040,2,0xAE,0x88
0.072781260,2,0xAF,0x90
0.072786500,2,0x80,0x06
0.072792160,2,0xAE,0x88
0.072797380,2,0xAF,0x60
0.072802600,2,0x80,0x0B
0.072808180,2,0xAE,0x88
0.072813420,2,0xAF,0xF8
0.072818640,2,0x80,0x22
0.072824240,2,0xAE,0x88
0.072829460,2,0xAF,0x6F
0.072834700,2,0x80,0x0D
0.072840300,2,0xAE,0x88
0.072845520,2,0xAF,0xCC
0.072850740,2,0x80,0xD1
0.072856400,2,0xAE,0x88
0.072861620,2,0xAF,0x84
0.072866860,2,0x80,0x1A
0.072872440,2,0xAE,0x88
0.072877660,2,0xAF,0xCC
0.072882900,2,0x80,0xD2
0.072888500,2,0xAE,0x88
0.072893720,2,0xAF,0xF8
0.072898940,2,0x80,0x01
0.072904540,2,0xAE,0x88
0.072909780,2,0xAF,0x80
0.072915000,2,0x80,0x58
0.072920660,2,0xAE,0x88
0.072925880,2,0xAF,0xF0
0.072931100,2,0x80,0x00
0.072936700,2,0xAE,0x88
0.072941940,2,0xAF,0xF8
0.072947160,2,0x80,0x01
0.072952740,2,0xAE,0x88
0.072957980,2,0xAF,0x80
0.072963200,2,0x80,0xB8
0.072968800,2,0xAE,0x88
0.072974020,2,0xAF,0xF0
0.072979240,2,0x80,0x00
0.072984900,2,0xAE,0x88
0.072990140,2,0xAF,0x80
0.072995360,2,0x80,0x30
0.073000940,2,0xAE,0x88
0.073006180,2,0xAF,0xF0
0.073011400,2,0x80,0x00
0.073017000,2,0xAE,0x88
0.073022220,2,0xAF,0x29
0.073027460,2,0x80,0x20
0.073033060,2,0xAE,0x88
0.073038280,2,0xAF,0x44
0.073043500,2,0x80,0x00
0.073049160,2,0xAE,0x88
0.073054380,2,0xAF,0x88
0.073059620,2,0x80,0x4E
0.073065200,2,0xAE,0x88
0.073070440,2,0xAF,0x60
0.073075660,2,0x80,0x01
0.073081260,2,0xAE,0x88
0.073086480,2,0xAF,0xF8
0.073091720,2,0x80,0x00
0.073097300,2,0xAE,0x88
0.073102540,2,0xAF,0x80
0.073107760,2,0x80,0x5F
0.073113420,2,0xAE,0x88
0.073118640,2,0xAF,0x60
0.073123860,2,0x80,0x02
0.073129460,2,0xAE,0x88
0.073134700,2,0xAF,0xF8
0.073139920,2,0x80,0x0C
0.073145520,2,0xAE,0x88
0.073150740,2,0xAF,0x6E
0.073155960,2,0x80,0x60
0.073161560,2,0xAE,0x88
0.073166800,2,0xAF,0x3F
0.073172020,2,0x80,0x00
0.073177680,2,0xAE,0x88
0.073182900,2,0xAF,0xE0
0.073188140,2,0x80,0xF0
0.073193720,2,0xAE,0x88
0.073198960,2,0xAF,0x60
0.073204180,2,0x80,0x01
0.073209780,2,0xAE,0x88
0.073215000,2,0xAF,0xF8
0.073220220,2,0x80,0x22
0.073225820,2,0xAE,0x88
0.073231060,2,0xAF,0x6F
0.073236280,2,0x80,0x2D
0.073241940,2,0xAE,0x88
0.073247160,2,0xAF,0x60
0.073252380,2,0x80,0x02
0.073257980,2,0xAE,0x88
0.073263220,2,0xAF,0xCD
0.073268440,2,0x80,0xD1
0.073274040,2,0xAE,0x88
0.073279260,2,0xAF,0xCD
0.073284500,2,0x80,0xD2
0.073290080,2,0xAE,0x88
0.073295300,2,0xAF,0xF8
0.073300540,2,0x80,0x03
0.073306200,2,0xAE,0x88
0.073311440,2,0xAF,0xE1
0.073316660,2,0x80,0xA1
0.073322260,2,0xAE,0x88
0.073327480,2,0xAF,0xF8
0.073332720,2,0x80,0x03
0.073338320,2,0xAE,0x88
0.073343540,2,0xAF,0xE2
0.073348760,2,0x80,0xA2
0.073354360,2,0xAE,0x88
0.073359600,2,0xAF,0xF8
0.073364820,2,0x80,0x00
0.073370460,2,0xAE,0x88
0.073375700,2,0xAF,0x80
0.073380920,2,0x80,0x5F
0.073386520,2,0xAE,0x88
0.073391760,2,0xAF,0xF0
0.073396980,2,0x80,0x00
0.073402580,2,0xAE,0x88
0.073407800,2,0xAF,0xF8
0.073413040,2,0x80,0x03
0.073418620,2,0xAE,0x88
0.073423840,2,0xAF,0x80
0.073429080,2,0x80,0x17
0.073434740,2,0xAE,0x88
0.073439960,2,0xAF,0xF0
0.073445180,2,0x80,0x00
0.073450780,2,0xAE,0x88
0.073456000,2,0xAF,0xF8
0.073461240,2,0x80,0x09
0.073466820,2,0xAE,0x88
0.073472040,2,0xAF,0x80
0.073477280,2,0x80,0xEE
0.073482880,2,0xAE,0x88
0.073488100,2,0xAF,0xF0
0.073493320,2,0x80,0x00
0.073498960,2,0xAE,0x88
0.073504200,2,0xAF,0xF8
0.073509420,2,0x80,0x08
0.073515020,2,0xAE,0x88
0.073520240,2,0xAF,0x80
0.073525480,2,0x80,0xB5
0.073531080,2,0xAE,0x88
0.073536320,2,0xAF,0xF0
0.073541540,2,0x80,0x00
0.073547140,2,0xAE,0x88
0.073552380,2,0xAF,0x60
0.073557620,2,0x80,0xA0
0.073563260,2,0xAE,0x88
0.073568500,2,0xAF,0x64
0.073573720,2,0x80,0x01
0.073579320,2,0xAE,0x88
0.073584540,2,0xAF,0x3B
0.073589760,2,0x80,0x00
0.073595360,2,0xAE,0x88
0.073600600,2,0xAF,0x3A
0.073605820,2,0x80,0x01
0.073611420,2,0xAE,0x88
0.073616640,2,0xAF,0x60
0.073621860,2,0x80,0x41
0.073627520,2,0xAE,0x88
0.073632760,2,0xAF,0xF8
0.073637980,2,0x80,0x08
0.073643580,2,0xAE,0x88
0.073648800,2,0xAF,0x60
0.073654020,2,0x80,0xD0
0.073659620,2,0xAE,0x88
0.073664840,2,0xAF,0x3B
0.073670080,2,0x80,0x11
0.073675680,2,0xAE,0x88
0.073680900,2,0xAF,0xF8
0.073686120,2,0x80,0x22
0.073691780,2,0xAE,0x88
0.073697000,2,0xAF,0x6F
0.073702240,2,0x80,0x7C
0.073707840,2,0xAE,0x88
0.073713060,2,0xAF,0xF8
0.073718280,2,0x80,0x02
0.073723880,2,0xAE,0x88
0.073729100,2,0xAF,0x80
0.073734340,2,0x80,0x4A
0.073739920,2,0xAE,0x88
0.073745160,2,0xAF,0x3F
0.073750380,2,0x80,0x00
0.073756040,2,0xAE,0x88
0.073761260,2,0xAF,0xE0
0.073766480,2,0x80,0xF0
0.073772080,2,0xAE,0x88
0.073777320,2,0xAF,0x2A
0.073782540,2,0x80,0x00
0.073788140,2,0xAE,0x88
0.073793360,2,0xAF,0x40
0.073798580,2,0x80,0x20
0.073804180,2,0xAE,0x88
0.073809400,2,0xAF,0x88
0.073814640,2,0x80,0x1A
0.073820300,2,0xAE,0x88
0.073825520,2,0xAF,0x28
0.073830760,2,0x80,0x11
0.073836340,2,0xAE,0x88
0.073841560,2,0xAF,0x29
0.073846800,2,0x80,0x20
0.073852400,2,0xAE,0x88
0.073857620,2,0xAF,0xF8
0.073862860,2,0x80,0x08
0.073868440,2,0xAE,0x88
0.073873680,2,0xAF,0xE1
0.073878920,2,0x80,0xB1
0.073884560,2,0xAE,0x88
0.073889800,2,0xAF,0x40
0.073895020,2,0x80,0x81
0.073900620,2,0xAE,0x88
0.073905840,2,0xAF,0x88
0.073911060,2,0x80,0x14
0.073916660,2,0xAE,0x88
0.073921880,2,0xAF,0x44
0.073927120,2,0x80,0x00
0.073932720,2,0xAE,0x88
0.073937940,2,0xAF,0xF8
0.073943180,2,0x80,0x01
0.073948840,2,0xAE,0x88
0.073954060,2,0xAF,0x65
0.073959300,2,0x80,0x48
0.073964900,2,0xAE,0x88
0.073970120,2,0xAF,0x8C
0.073975360,2,0x80,0x0D
0.073980960,2,0xAE,0x88
0.073986180,2,0xAF,0xF0
0.073991400,2,0x80,0x00
0.073997000,2,0xAE,0x88
0.074002240,2,0xAF,0xF8
0.074007460,2,0x80,0x0F
0.074013120,2,0xAE,0x88
0.074018340,2,0xAF,0x6A
0.074023580,2,0x80,0x09
0.074029180,2,0xAE,0x88
0.074034400,2,0xAF,0xF8
0.074039640,2,0x80,0x03
0.074045240,2,0xAE,0x88
0.074050460,2,0xAF,0x80
0.074055700,2,0x80,0x04
0.074061300,2,0xAE,0x88
0.074066520,2,0xAF,0xF0
0.074071740,2,0x80,0x00
0.074077420,2,0xAE,0x88
0.074082640,2,0xAF,0x60
0.074087860,2,0x80,0x01
0.074093460,2,0xAE,0x88
0.074098680,2,0xAF,0xF8
0.074103920,2,0x80,0x03
0.074109520,2,0xAE,0x88
0.074114740,2,0xAF,0x80
0.074119960,2,0x80,0x10
0.074125560,2,0xAE,0x88
0.074130800,2,0xAF,0x28
0.074136020,2,0x80,0x88
0.074141680,2,0xAE,0x88
0.074146900,2,0xAF,0xC9
0.074152140,2,0x80,0x11
0.074157740,2,0xAE,0x88
0.074162960,2,0xAF,0x88
0.074168180,2,0x80,0x04
0.074173780,2,0xAE,0x88
0.074179000,2,0xAF,0xF0
0.074184220,2,0x80,0x00
0.074189820,2,0xAE,0x88
0.074195060,2,0xAF,0x60
0.074200280,2,0x80,0x40
0.074205940,2,0xAE,0x88
0.074211180,2,0xAF,0xBC
0.074216400,2,0x80,0x00
0.074222000,2,0xAE,0x88
0.074227240,2,0xAF,0x3A
0.074232460,2,0x80,0x00
0.074238060,2,0xAE,0x88
0.074243280,2,0xAF,0x60
0.074248520,2,0x80,0x60
0.074254120,2,0xAE,0x88
0.074259360,2,0xAF,0x60
0.074264580,2,0x80,0x21
0.074270240,2,0xAE,0x88
0.074275480,2,0xAF,0x3A
0.074280700,2,0x80,0x00
0.074286300,2,0xAE,0x88
0.074291540,2,0xAF,0xBC
0.074296760,2,0x80,0x00
0.074302360,2,0xAE,0x88
0.074307580,2,0xAF,0x3B
0.074312800,2,0x80,0x11
0.074318400,2,0xAE,0x88
0.074323620,2,0xAF,0xF8
0.074328860,2,0x80,0x00
0.074334520,2,0xAE,0x88
0.074339740,2,0xAF,0x80
0.074344980,2,0x80,0x9E
0.074350580,2,0xAE,0x88
0.074355800,2,0xAF,0xF0
0.074361020,2,0x80,0x00
0.074366620,2,0xAE,0x88
0.074371860,2,0xAF,0xF8
0.074377080,2,0x80,0x0C
0.074382680,2,0xAE,0x88
0.074387900,2,0xAF,0x6E
0.074393140,2,0x80,0x61
0.074398800,2,0xAE,0x88
0.074404020,2,0xAF,0x20
0.074409240,2,0x80,0xB0
0.074414840,2,0xAE,0x88
0.074420080,2,0xAF,0xF8
0.074425300,2,0x80,0x09
0.074430900,2,0xAE,0x88
0.074436120,2,0xAF,0x80
0.074441360,2,0x80,0xE6
0.074446960,2,0xAE,0x88
0.074452180,2,0xAF,0x3F
0.074457400,2,0x80,0x01
0.074463060,2,0xAE,0x88
0.074468300,2,0xAF,0xE0
0.074473520,2,0x80,0xF0
0.074479120,2,0xAE,0x88
0.074484340,2,0xAF,0x29
0.074489560,2,0x80,0x20
0.074495160,2,0xAE,0x88
0.074500400,2,0xAF,0x26
0.074505620,2,0x80,0xBD
0.074511220,2,0xAE,0x88
0.074516440,2,0xAF,0xCC
0.074521680,2,0x80,0xF4
0.074527340,2,0xAE,0x88
0.074532560,2,0xAF,0x50
0.074537780,2,0x80,0x80
0.074543400,2,0xAE,0x88
0.074548620,2,0xAF,0xCC
0.074553840,2,0x80,0xF5
0.074559440,2,0xAE,0x88
0.074564660,2,0xAF,0x39
0.074569900,2,0x80,0x20
0.074575500,2,0xAE,0x88
0.074580720,2,0xAF,0xCC
0.074585940,2,0x80,0xF6
0.074591600,2,0xAE,0x88
0.074596820,2,0xAF,0xC2
0.074602060,2,0x80,0x4D
0.074607640,2,0xAE,0x88
0.074612880,2,0xAF,0x26
0.074618100,2,0x80,0xBD
0.074623720,2,0xAE,0x88
0.074628940,2,0xAF,0xAC
0.074634160,2,0x80,0x58
0.074639760,2,0xAE,0x88
0.074645000,2,0xAF,0x01
0.074650240,2,0x80,0x8F
0.074655880,2,0xAE,0x88
0.074661120,2,0xAF,0xC2
0.074666340,2,0x80,0x5D
0.074671960,2,0xAE,0x88
0.074677180,2,0xAF,0x26
0.074682400,2,0x80,0xBD
0.074688000,2,0xAE,0x88
0.074693240,2,0xAF,0xAC
0.074698460,2,0x80,0x54
0.074704060,2,0xAE,0x88
0.074709280,2,0xAF,0xC0
0.074714520,2,0x80,0x54
0.074720180,2,0xAE,0x88
0.074725400,2,0xAF,0xC2
0.074730620,2,0x80,0x6D
0.074736220,2,0xAE,0x88
0.074741440,2,0xAF,0x26
0.074746680,2,0x80,0xBD
0.074752280,2,0xAE,0x88
0.074757500,2,0xAF,0xAC
0.074762720,2,0x80,0x50
0.074768320,2,0xAE,0x88
0.074773560,2,0xAF,0xC0
0.074778780,2,0x80,0x56
0.074784440,2,0xAE,0x88
0.074789660,2,0xAF,0xCC
0.074794900,2,0x80,0xF7
0.074800480,2,0xAE,0x88
0.074805720,2,0xAF,0xCC
0.074810940,2,0x80,0xF8
0.074816540,2,0xAE,0x88
0.074821760,2,0xAF,0xC2
0.074827000,2,0x80,0x7D
0.074832580,2,0xAE,0x88
0.074837820,2,0xAF,0x26
0.074843060,2,0x80,0xBD
0.074848720,2,0xAE,0x88
0.074853940,2,0xAF,0xAC
0.074859160,2,0x80,0x4A
0.074864760,2,0xAE,0x88
0.074870000,2,0xAF,0xCC
0.074875220,2,0x80,0xF9
0.074880820,2,0xAE,0x88
0.074886040,2,0xAF,0x01
0.074891260,2,0x80,0x8F
0.074896860,2,0xAE,0x88
0.074902080,2,0xAF,0xC2
0.074907320,2,0x80,0x9D
0.074912960,2,0xAE,0x88
0.074918200,2,0xAF,0x26
0.074923420,2,0x80,0xBD
0.074929020,2,0xAE,0x88
0.074934260,2,0xAF,0xAC
0.074939480,2,0x80,0x45
0.074945080,2,0xAE,0x88
0.074950300,2,0xAF,0xC0
0.074955540,2,0x80,0x74
0.074961120,2,0xAE,0x88
0.074966360,2,0xAF,0xC0
0.074971600,2,0x80,0x96
0.074977240,2,0xAE,0x88
0.074982480,2,0xAF,0xCC
0.074987700,2,0x80,0xFA
0.074993300,2,0xAE,0x88
0.074998540,2,0xAF,0xCC
0.075003760,2,0x80,0xFB
0.075009360,2,0xAE,0x88
0.075014580,2,0xAF,0xC2
0.075019820,2,0x80,0xAD
0.075025420,2,0xAE,0x88
0.075030640,2,0xAF,0x26
0.075035860,2,0x80,0xBD
0.075041520,2,0xAE,0x88
0.075046760,2,0xAF,0xAC
0.075051980,2,0x80,0x3E
0.075057580,2,0xAE,0x88
0.075062820,2,0xAF,0xCC
0.075068040,2,0x80,0xFC
0.075073640,2,0xAE,0x88
0.075078860,2,0xAF,0xC2
0.075084100,2,0x80,0xBD
0.075089700,2,0xAE,0x88
0.075094920,2,0xAF,0x26
0.075100140,2,0x80,0xBD
0.075105800,2,0xAE,0x88
0.075111020,2,0xAF,0xAC
0.075116260,2,0x80,0x3A
0.075121860,2,0xAE,0x88
0.075127080,2,0xAF,0xC0
0.075132320,2,0x80,0x7A
0.075137920,2,0xAE,0x88
0.075143140,2,0xAF,0xC2
0.075148380,2,0x80,0xCD
0.075153960,2,0xAE,0x88
0.075159200,2,0xAF,0x26
0.075164420,2,0x80,0xBD
0.075170100,2,0xAE,0x88
0.075175320,2,0xAF,0xAC
0.075180540,2,0x80,0x36
0.075186140,2,0xAE,0x88
0.075191380,2,0xAF,0xC0
0.075196620,2,0x80,0x9C
0.075202200,2,0xAE,0x88
0.075207440,2,0xAF,0xC0
0.075212660,2,0x80,0xBA
0.075218280,2,0xAE,0x88
0.075223500,2,0xAF,0xC0
0.075228740,2,0x80,0xBC
0.075234400,2,0xAE,0x88
0.075239620,2,0xAF,0xCB
0.075244860,2,0x80,0x45
0.075250460,2,0xAE,0x88
0.075255700,2,0xAF,0xC2
0.075260920,2,0x80,0x64
0.075266520,2,0xAE,0x88
0.075271760,2,0xAF,0xCB
0.075276980,2,0x80,0x54
0.075282580,2,0xAE,0x88
0.075287820,2,0xAF,0xA8
0.075293060,2,0x80,0x0C
0.075298720,2,0xAE,0x88
0.075303960,2,0xAF,0xCB
0.075309180,2,0x80,0xA5
0.075314780,2,0xAE,0x88
0.075320020,2,0xAF,0xC2
0.075325240,2,0x80,0xCA
0.075330840,2,0xAE,0x88
0.075336080,2,0xAF,0xCB
0.075341320,2,0x80,0x5A
0.075346920,2,0xAE,0x88
0.075352140,2,0xAF,0xA8
0.075357360,2,0x80,0x14
0.075363040,2,0xAE,0x88
0.075368260,2,0xAF,0xCB
0.075373500,2,0x80,0x65
0.075379080,2,0xAE,0x88
0.075384320,2,0xAF,0xC2
0.075389560,2,0x80,0xC6
0.075395160,2,0xAE,0x88
0.075400380,2,0xAF,0xCB
0.075405600,2,0x80,0x56
0.075411200,2,0xAE,0x88
0.075416440,2,0xAF,0xA8
0.075421660,2,0x80,0x1E
0.075427320,2,0xAE,0x88
0.075432560,2,0xAF,0x60
0.075437780,2,0x80,0x01
0.075443380,2,0xAE,0x88
0.075448620,2,0xAF,0x62
0.075453840,2,0x80,0x02
0.075459440,2,0xAE,0x88
0.075464680,2,0xAF,0xBC
0.075469900,2,0x80,0x00
0.075475500,2,0xAE,0x88
0.075480720,2,0xAF,0x12
0.075485960,2,0x80,0x01
0.075491620,2,0xAE,0x88
0.075496840,2,0xAF,0xC2
0.075502060,2,0x80,0xCA
0.075507660,2,0xAE,0x88
0.075512900,2,0xAF,0xCB
0.075518120,2,0x80,0x5A
0.075523720,2,0xAE,0x88
0.075528940,2,0xAF,0xA8
0.075534160,2,0x80,0x10
0.075539760,2,0xAE,0x88
0.075545000,2,0xAF,0xCB
0.075550220,2,0x80,0x45
0.075555880,2,0xAE,0x88
0.075561100,2,0xAF,0xC2
0.075566340,2,0x80,0xC4
0.075571940,2,0xAE,0x88
0.075577160,2,0xAF,0xCB
0.075582380,2,0x80,0x54
0.075587980,2,0xAE,0x88
0.075593220,2,0xAF,0xAF
0.075598440,2,0x80,0xF6
0.075604020,2,0xAE,0x88
0.075609260,2,0xAF,0x60
0.075614500,2,0x80,0x01
0.075620140,2,0xAE,0x88
0.075625380,2,0xAF,0x60
0.075630600,2,0x80,0x02
0.075636200,2,0xAE,0x88
0.075641440,2,0xAF,0x62
0.075646660,2,0x80,0x01
0.075652260,2,0xAE,0x88
0.075657480,2,0xAF,0xBC
0.075662720,2,0x80,0x00
0.075668320,2,0xAE,0x88
0.075673540,2,0xAF,0x12
0.075678760,2,0x80,0x02
0.075684420,2,0xAE,0x88
0.075689660,2,0xAF,0xC2
0.075694880,2,0x80,0xA6
0.075700480,2,0xAE,0x88
0.075705720,2,0xAF,0xCB
0.075710940,2,0x80,0x56
0.075716540,2,0xAE,0x88
0.075721760,2,0xAF,0xA8
0.075727000,2,0x80,0x0B
0.075732600,2,0xAE,0x88
0.075737820,2,0xAF,0x60
0.075743060,2,0x80,0x01
0.075748720,2,0xAE,0x88
0.075753940,2,0xAF,0x62
0.075759180,2,0x80,0x01
0.075764780,2,0xAE,0x88
0.075770000,2,0xAF,0xBC
0.075775240,2,0x80,0x00
0.075780840,2,0xAE,0x88
0.075786080,2,0xAF,0x62
0.075791320,2,0x80,0x02
0.075796900,2,0xAE,0x88
0.075802140,2,0xAF,0xC2
0.075807360,2,0x80,0xA4
0.075813040,2,0xAE,0x88
0.075818260,2,0xAF,0xCB
0.075823480,2,0x80,0x54
0.075829080,2,0xAE,0x88
0.075834320,2,0xAF,0xAB
0.075839560,2,0x80,0xF3
0.075845140,2,0xAE,0x88
0.075850380,2,0xAF,0x60
0.075855600,2,0x80,0x02
0.075861200,2,0xAE,0x88
0.075866440,2,0xAF,0x62
0.075871660,2,0x80,0x01
0.075877320,2,0xAE,0x88
0.075882540,2,0xAF,0xBC
0.075887780,2,0x80,0x00
0.075893380,2,0xAE,0x88
0.075898600,2,0xAF,0x62
0.075903840,2,0x80,0x02
0.075909440,2,0xAE,0x88
0.075914680,2,0xAF,0x60
0.075919900,2,0x80,0x02
0.075925500,2,0xAE,0x88
0.075930740,2,0xAF,0x12
0.075935980,2,0x80,0x01
0.075941620,2,0xAE,0x88
0.075946860,2,0xAF,0xBC
0.075952080,2,0x80,0x00
0.075957680,2,0xAE,0x88
0.075962920,2,0xAF,0x12
0.075968140,2,0x80,0x02
0.075973740,2,0xAE,0x88
0.075978960,2,0xAF,0xF8
0.075984200,2,0x80,0x22
0.075989800,2,0xAE,0x88
0.075995020,2,0xAF,0x6F
0.076000240,2,0x80,0x2D
0.076005900,2,0xAE,0x88
0.076011140,2,0xAF,0xCC
0.076016380,2,0x80,0xD1
0.076021960,2,0xAE,0x88
0.076027200,2,0xAF,0xBC
0.076032420,2,0x80,0x00
0.076038020,2,0xAE,0x88
0.076043260,2,0xAF,0xCC
0.076048480,2,0x80,0xD2
0.076054080,2,0xAE,0x88
0.076059320,2,0xAF,0xF8
0.076064540,2,0x80,0x01
0.076070200,2,0xAE,0x88
0.076075420,2,0xAF,0x60
0.076080660,2,0x80,0x0D
0.076086260,2,0xAE,0x88
0.076091500,2,0xAF,0xC9
0.076096720,2,0x80,0xD0
0.076102320,2,0xAE,0x88
0.076107540,2,0xAF,0xBC
0.076112780,2,0x80,0x00
0.076118380,2,0xAE,0x88
0.076123600,2,0xAF,0x39
0.076128820,2,0x80,0x20
0.076134500,2,0xAE,0x88
0.076139720,2,0xAF,0xCB
0.076144940,2,0x80,0x1A
0.076150540,2,0xAE,0x88
0.076155760,2,0xAF,0xF8
0.076161000,2,0x80,0x02
0.076166600,2,0xAE,0x88
0.076171820,2,0xAF,0xEA
0.076177040,2,0x80,0xAA
0.076182640,2,0xAE,0x88
0.076187880,2,0xAF,0xCB
0.076193100,2,0x80,0x8B
0.076198760,2,0xAE,0x88
0.076203980,2,0xAF,0xC2
0.076209220,2,0x80,0xA8
0.076214800,2,0xAE,0x88
0.076220020,2,0xAF,0xCB
0.076225260,2,0x80,0xB8
0.076230840,2,0xAE,0x88
0.076236080,2,0xAF,0x90
0.076241300,2,0x80,0x02
0.076246900,2,0xAE,0x88
0.076252120,2,0xAF,0xF0
0.076257340,2,0x80,0x00
0.076263020,2,0xAE,0x88
0.076268240,2,0xAF,0xCB
0.076273460,2,0x80,0xA8
0.076279060,2,0xAE,0x88
0.076284280,2,0xAF,0xBC
0.076289520,2,0x80,0x00
0.076295100,2,0xAE,0x88
0.076300340,2,0xAF,0xF0
0.076305560,2,0x80,0x00
0.076311160,2,0xAE,0x88
0.076316380,2,0xAF,0xF8
0.076321600,2,0x80,0x13
0.076327260,2,0xAE,0x88
0.076332500,2,0xAF,0x6E
0.076337720,2,0x80,0xC9
0.076343320,2,0xAE,0x88
0.076348540,2,0xAF,0xF8
0.076353780,2,0x80,0x01
0.076359380,2,0xAE,0x88
0.076364600,2,0xAF,0x84
0.076369820,2,0x80,0x4F
0.076375420,2,0xAE,0x88
0.076380660,2,0xAF,0xC2
0.076385880,2,0x80,0x39
0.076391540,2,0xAE,0x88
0.076396760,2,0xAF,0xF8
0.076402000,2,0x80,0x7D
0.076407600,2,0xAE,0x88
0.076412820,2,0xAF,0x60
0.076418040,2,0x80,0x09
0.076423640,2,0xAE,0x88
0.076428880,2,0xAF,0xC2
0.076434120,2,0x80,0x39
0.076439700,2,0xAE,0x88
0.076444940,2,0xAF,0x97
0.076450160,2,0x80,0xF5
0.076455820,2,0xAE,0x88
0.076461040,2,0xAF,0xCB
0.076466280,2,0x80,0x29
0.076471880,2,0xAE,0x88
0.076477100,2,0xAF,0x50
0.076482340,2,0x80,0x1B
0.076487920,2,0xAE,0x88
0.076493160,2,0xAF,0x12
0.076498380,2,0x80,0x09
0.076503980,2,0xAE,0x88
0.076509220,2,0xAF,0x97
0.076514440,2,0x80,0xF1
0.076520100,2,0xAE,0x88
0.076525320,2,0xAF,0xF0
0.076530560,2,0x80,0x00
0.076536160,2,0xAE,0x88
0.076541380,2,0xAF,0xBC
0.076546600,2,0x80,0x00
0.076552200,2,0xAE,0x88
0.076557440,2,0xAF,0x54
0.076562660,2,0x80,0x0B
0.076568260,2,0xAE,0x88
0.076573480,2,0xAF,0xCB
0.076578720,2,0x80,0xB9
0.076584380,2,0xAE,0x88
0.076589600,2,0xAF,0x48
0.076594820,2,0x80,0x0B
0.076600420,2,0xAE,0x88
0.076605640,2,0xAF,0xCB
0.076610880,2,0x80,0x9B
0.076616460,2,0xAE,0x88
0.076621700,2,0xAF,0xF8
0.076626920,2,0x80,0x01
0.076632520,2,0xAE,0x88
0.076637760,2,0xAF,0x88
0.076642980,2,0x80,0x74
0.076648640,2,0xAE,0x88
0.076653860,2,0xAF,0xCB
0.076659100,2,0x80,0x09
0.076664700,2,0xAE,0x88
0.076669920,2,0xAF,0x10
0.076675140,2,0x80,0xC0
0.076680740,2,0xAE,0x88
0.076685980,2,0xAF,0xCB
0.076691200,2,0x80,0x90
0.076696800,2,0xAE,0x88
0.076702020,2,0xAF,0xF8
0.076707260,2,0x80,0x01
0.076712920,2,0xAE,0x88
0.076718140,2,0xAF,0x94
0.076723360,2,0x80,0x74
0.076728960,2,0xAE,0x88
0.076734200,2,0xAF,0xCB
0.076739420,2,0x80,0xB9
0.076745000,2,0xAE,0x88
0.076750240,2,0xAF,0x40
0.076755460,2,0x80,0x1B
0.076761060,2,0xAE,0x88
0.076766280,2,0xAF,0xCB
0.076771520,2,0x80,0x9B
0.076777180,2,0xAE,0x88
0.076782400,2,0xAF,0xF8
0.076787640,2,0x80,0x01
0.076793220,2,0xAE,0x88
0.076798460,2,0xAF,0x8C
0.076803680,2,0x80,0x54
0.076809280,2,0xAE,0x88
0.076814500,2,0xAF,0xF0
0.076819740,2,0x80,0x00
0.076825340,2,0xAE,0x88
0.076830560,2,0xAF,0xF8
0.076835800,2,0x80,0x10
0.076841440,2,0xAE,0x88
0.076846680,2,0xAF,0x6C
0.076851900,2,0x80,0xC9
0.076857500,2,0xAE,0x88
0.076862720,2,0xAF,0xC2
0.076867940,2,0x80,0x39
0.076873540,2,0xAE,0x88
0.076878780,2,0xAF,0xF8
0.076884000,2,0x80,0x01
0.076889600,2,0xAE,0x88
0.076894820,2,0xAF,0x94
0.076900040,2,0x80,0x74
0.076905700,2,0xAE,0x88
0.076910940,2,0xAF,0xF0
0.076916160,2,0x80,0x00
0.076921760,2,0xAE,0x88
0.076926980,2,0xAF,0xBC
0.076932220,2,0x80,0x00
0.076937800,2,0xAE,0x88
0.076943040,2,0xAF,0x52
0.076948260,2,0x80,0x0B
0.076953860,2,0xAE,0x88
0.076959080,2,0xAF,0xF8
0.076964320,2,0x80,0x22
0.076969980,2,0xAE,0x88
0.076975200,2,0xAF,0x6F
0.076980440,2,0x80,0xFD
0.076986020,2,0xAE,0x88
0.076991240,2,0xAF,0xCC
0.076996480,2,0x80,0xDA
0.077002080,2,0xAE,0x88
0.077007320,2,0xAF,0xF8
0.077012540,2,0x80,0x01
0.077018140,2,0xAE,0x88
0.077023360,2,0xAF,0x6F
0.077028600,2,0x80,0xFB
0.077034260,2,0xAE,0x88
0.077039480,2,0xAF,0xC0
0.077044720,2,0x80,0xA0
0.077050320,2,0xAE,0x88
0.077055540,2,0xAF,0xC0
0.077060780,2,0x80,0xA2
0.077066360,2,0xAE,0x88
0.077071600,2,0xAF,0xCB
0.077076820,2,0x80,0xBA
0.077082420,2,0xAE,0x88
0.077087640,2,0xAF,0xC2
0.077092860,2,0x80,0x0B
0.077098520,2,0xAE,0x88
0.077103760,2,0xAF,0xCB
0.077108980,2,0x80,0xAB
0.077114580,2,0xAE,0x88
0.077119800,2,0xAF,0x90
0.077125020,2,0x80,0x08
0.077130640,2,0xAE,0x88
0.077135860,2,0xAF,0xC2
0.077141080,2,0x80,0x2B
0.077146680,2,0xAE,0x88
0.077151900,2,0xAF,0xCB
0.077157140,2,0x80,0xAB
0.077162800,2,0xAE,0x88
0.077168020,2,0xAF,0x90
0.077173260,2,0x80,0x05
0.077178860,2,0xAE,0x88
0.077184080,2,0xAF,0xF0
0.077189320,2,0x80,0x00
0.077194900,2,0xAE,0x88
0.077200140,2,0xAF,0x80
0.077205360,2,0x80,0xD3
0.077210960,2,0xAE,0x88
0.077216180,2,0xAF,0xF0
0.077221420,2,0x80,0x00
0.077227080,2,0xAE,0x88
0.077232300,2,0xAF,0xBC
0.077237520,2,0x80,0x00
0.077243120,2,0xAE,0x88
0.077248360,2,0xAF,0xF0
0.077253580,2,0x80,0x00
0.077259180,2,0xAE,0x88
0.077264400,2,0xAF,0xF8
0.077269640,2,0x80,0x23
0.077275240,2,0xAE,0x88
0.077280460,2,0xAF,0x60
0.077285680,2,0x80,0x0D
0.077291340,2,0xAE,0x88
0.077296580,2,0xAF,0xCD
0.077301820,2,0x80,0xD0
0.077307400,2,0xAE,0x88
0.077312640,2,0xAF,0xCD
0.077317860,2,0x80,0xD2
0.077323480,2,0xAE,0x88
0.077328700,2,0xAF,0xCD
0.077333940,2,0x80,0xD4
0.077339520,2,0xAE,0x88
0.077344760,2,0xAF,0xCD
0.077350000,2,0x80,0xD6
0.077355660,2,0xAE,0x88
0.077360880,2,0xAF,0xE0
0.077366120,2,0x80,0x00
0.077371720,2,0xAE,0x88
0.077376940,2,0xAF,0xE0
0.077382180,2,0x80,0x02
0.077387760,2,0xAE,0x88
0.077393000,2,0xAF,0xE0
0.077398240,2,0x80,0x04
0.077403840,2,0xAE,0x88
0.077409060,2,0xAF,0x80
0.077414300,2,0x80,0xC6
0.077419960,2,0xAE,0x88
0.077425180,2,0xAF,0xE0
0.077430420,2,0x80,0x06
0.077436000,2,0xAE,0x88
0.077441240,2,0xAF,0xF8
0.077446460,2,0x80,0x23
0.077452060,2,0xAE,0x88
0.077457300,2,0xAF,0x60
0.077462520,2,0x80,0x0D
0.077468120,2,0xAE,0x88
0.077473360,2,0xAF,0xCC
0.077478580,2,0x80,0xD0
0.077484240,2,0xAE,0x88
0.077489480,2,0xAF,0xCC
0.077494700,2,0x80,0xD2
0.077500300,2,0xAE,0x88
0.077505540,2,0xAF,0xCC
0.077510760,2,0x80,0xD4
0.077516360,2,0xAE,0x88
0.077521600,2,0xAF,0xBC
0.077526820,2,0x80,0x00
0.077532420,2,0xAE,0x88
0.077537640,2,0xAF,0xCC
0.077542880,2,0x80,0xD6
0.077548540,2,0xAE,0x88
0.077553760,2,0xAF,0xF8
0.077558980,2,0x80,0x22
0.077564580,2,0xAE,0x88
0.077569820,2,0xAF,0x6F
0.077575060,2,0x80,0xFD
0.077580640,2,0xAE,0x88
0.077585880,2,0xAF,0xCB
0.077591100,2,0x80,0x1F
0.077596700,2,0xAE,0x88
0.077601940,2,0xAF,0x11
0.077607160,2,0x80,0x91
0.077612820,2,0xAE,0x88
0.077618060,2,0xAF,0xCB
0.077623280,2,0x80,0xF1
0.077628880,2,0xAE,0x88
0.077634100,2,0xAF,0x93
0.077639340,2,0x80,0xD8
0.077644940,2,0xAE,0x88
0.077650160,2,0xAF,0xCC
0.077655400,2,0x80,0xDA
0.077660980,2,0xAE,0x88
0.077666220,2,0xAF,0x60
0.077671440,2,0x80,0x0B
0.077677100,2,0xAE,0x88
0.077682320,2,0xAF,0xCB
0.077687560,2,0x80,0xAF
0.077693160,2,0xAE,0x88
0.077698380,2,0xAF,0x10
0.077703620,2,0x80,0x6A
0.077709200,2,0xAE,0x88
0.077714420,2,0xAF,0xCB
0.077719660,2,0x80,0xFA
0.077725260,2,0xAE,0x88
0.077730480,2,0xAF,0x93
0.077735700,2,0x80,0xD2
0.077741360,2,0xAE,0x88
0.077746600,2,0xAF,0xF0
0.077751820,2,0x80,0x00
0.077757420,2,0xAE,0x88
0.077762640,2,0xAF,0xE0
0.077767880,2,0x80,0x01
0.077773480,2,0xAE,0x88
0.077778700,2,0xAF,0x11
0.077783920,2,0x80,0x9A
0.077789520,2,0xAE,0x88
0.077794760,2,0xAF,0xCB
0.077799980,2,0x80,0xFA
0.077805640,2,0xAE,0x88
0.077810860,2,0xAF,0x90
0.077816100,2,0x80,0x08
0.077821700,2,0xAE,0x88
0.077826920,2,0xAF,0xF0
0.077832160,2,0x80,0x00
0.077837740,2,0xAE,0x88
0.077842980,2,0xAF,0xE0
0.077848200,2,0x80,0x01
0.077853800,2,0xAE,0x88
0.077859020,2,0xAF,0x16
0.077864240,2,0x80,0x4A
0.077869900,2,0xAE,0x88
0.077875140,2,0xAF,0xCB
0.077880360,2,0x80,0xFA
0.077885960,2,0xAE,0x88
0.077891180,2,0xAF,0x90
0.077896420,2,0x80,0x02
0.077902020,2,0xAE,0x88
0.077907240,2,0xAF,0xF0
0.077912460,2,0x80,0x00
0.077918060,2,0xAE,0x88
0.077923300,2,0xAF,0xE0
0.077928520,2,0x80,0x01
0.077934160,2,0xAE,0x88
0.077939400,2,0xAF,0x68
0.077944640,2,0x80,0x0B
0.077950240,2,0xAE,0x88
0.077955460,2,0xAF,0xCB
0.077960680,2,0x80,0x2F
0.077966280,2,0xAE,0x88
0.077971520,2,0xAF,0xC0
0.077976740,2,0x80,0xA2
0.077982340,2,0xAE,0x88
0.077987560,2,0xAF,0xCB
0.077992800,2,0x80,0x1A
0.077998460,2,0xAE,0x88
0.078003680,2,0xAF,0xC2
0.078008900,2,0x80,0x62
0.078014500,2,0xAE,0x88
0.078019740,2,0xAF,0xCB
0.078024960,2,0x80,0xF2
0.078030560,2,0xAE,0x88
0.078035780,2,0xAF,0x90
0.078041020,2,0x80,0x02
0.078046620,2,0xAE,0x88
0.078051840,2,0xAF,0xF0
0.078057060,2,0x80,0x00
0.078062720,2,0xAE,0x88
0.078067940,2,0xAF,0x50
0.078073180,2,0x80,0x1B
0.078078780,2,0xAE,0x88
0.078084000,2,0xAF,0xF8
0.078089220,2,0x80,0x00
0.078094820,2,0xAE,0x88
0.078100060,2,0xAF,0x80
0.078105280,2,0x80,0xC6
0.078110880,2,0xAE,0x88
0.078116100,2,0xAF,0x2B
0.078121340,2,0x80,0x01
0.078127000,2,0xAE,0x88
0.078132220,2,0xAF,0xBC
0.078137460,2,0x80,0x00
0.078143060,2,0xAE,0x88
0.078148300,2,0xAF,0xF0
0.078153520,2,0x80,0x00
0.078159100,2,0xAE,0x88
0.078164340,2,0xAF,0xF8
0.078169580,2,0x80,0x22
0.078175160,2,0xAE,0x88
0.078180400,2,0xAF,0x6F
0.078185620,2,0x80,0xFD
0.078191280,2,0xAE,0x88
0.078196520,2,0xAF,0xCB
0.078201740,2,0x80,0x1F
0.078207340,2,0xAE,0x88
0.078212560,2,0xAF,0x16
0.078217800,2,0x80,0x41
0.078223400,2,0xAE,0x88
0.078228640,2,0xAF,0xCB
0.078233860,2,0x80,0xF1
0.078239460,2,0xAE,0x88
0.078244700,2,0xAF,0x93
0.078249920,2,0x80,0xB2
0.078255580,2,0xAE,0x88
0.078260800,2,0xAF,0xCC
0.078266040,2,0x80,0xDA
0.078271640,2,0xAE,0x88
0.078276860,2,0xAF,0x87
0.078282080,2,0x80,0xDA
0.078287680,2,0xAE,0x88
0.078292920,2,0xAF,0x60
0.078298140,2,0x80,0x0B
0.078303720,2,0xAE,0x88
0.078308960,2,0xAF,0x2B
0.078314180,2,0x80,0x09
0.078319840,2,0xAE,0x88
0.078325060,2,0xAF,0x29
0.078330280,2,0x80,0x63
0.078335880,2,0xAE,0x88
0.078341120,2,0xAF,0xF8
0.078346340,2,0x80,0x22
0.078351940,2,0xAE,0x88
0.078357160,2,0xAF,0x6F
0.078362400,2,0x80,0x0D
0.078368000,2,0xAE,0x88
0.078373220,2,0xAF,0xCB
0.078378440,2,0x80,0x94
0.078384100,2,0xAE,0x88
0.078389340,2,0xAF,0xC2
0.078394560,2,0x80,0x39
0.078400160,2,0xAE,0x88
0.078405380,2,0xAF,0xCC
0.078410600,2,0x80,0xD1
0.078416200,2,0xAE,0x88
0.078421440,2,0xAF,0x8C
0.078426660,2,0x80,0x28
0.078432240,2,0xAE,0x88
0.078437480,2,0xAF,0xCC
0.078442700,2,0x80,0xD2
0.078448360,2,0xAE,0x88
0.078453580,2,0xAF,0xF8
0.078458800,2,0x80,0x03
0.078464420,2,0xAE,0x88
0.078469640,2,0xAF,0x80
0.078474860,2,0x80,0xD2
0.078480460,2,0xAE,0x88
0.078485700,2,0xAF,0x10
0.078490920,2,0x80,0x2D
0.078496520,2,0xAE,0x88
0.078501760,2,0xAF,0xCD
0.078506980,2,0x80,0xD1
0.078512640,2,0xAE,0x88
0.078517880,2,0xAF,0xF8
0.078523100,2,0x80,0x04
0.078528700,2,0xAE,0x88
0.078533940,2,0xAF,0x80
0.078539160,2,0x80,0x00
0.078544760,2,0xAE,0x88
0.078550000,2,0xAF,0xCD
0.078555220,2,0x80,0xD2
0.078560820,2,0xAE,0x88
0.078566060,2,0xAF,0xF8
0.078571280,2,0x80,0x22
0.078576940,2,0xAE,0x88
0.078582160,2,0xAF,0x6F
0.078587400,2,0x80,0xFF
0.078593000,2,0xAE,0x88
0.078598220,2,0xAF,0xF8
0.078603460,2,0x80,0x03
0.078609060,2,0xAE,0x88
0.078614280,2,0xAF,0x80
0.078619520,2,0x80,0xB8
0.078625120,2,0xAE,0x88
0.078630340,2,0xAF,0xCD
0.078635580,2,0x80,0xF3
0.078641240,2,0xAE,0x88
0.078646480,2,0xAF,0x2B
0.078651700,2,0x80,0x01
0.078657300,2,0xAE,0x88
0.078662540,2,0xAF,0x61
0.078667780,2,0x80,0x86
0.078673360,2,0xAE,0x88
0.078678600,2,0xAF,0x67
0.078683840,2,0x80,0xC7
0.078689460,2,0xAE,0x88
0.078694680,2,0xAF,0xF8
0.078699920,2,0x80,0x03
0.078705600,2,0xAE,0x88
0.078710820,2,0xAF,0x80
0.078716060,2,0x80,0xA5
0.078721680,2,0xAE,0x88
0.078726900,2,0xAF,0x61
0.078732140,2,0x80,0xC2
0.078737740,2,0xAE,0x88
0.078742980,2,0xAF,0x11
0.078748220,2,0x80,0x41
0.078753820,2,0xAE,0x88
0.078759060,2,0xAF,0x2B
0.078764300,2,0x80,0x01
0.078769960,2,0xAE,0x88
0.078775200,2,0xAF,0x90
0.078780420,2,0x80,0x0C
0.078786020,2,0xAE,0x88
0.078791260,2,0xAF,0xF0
0.078796500,2,0x80,0x00
0.078802100,2,0xAE,0x88
0.078807340,2,0xAF,0x00
0.078812560,2,0x80,0x10
0.078818180,2,0xAE,0x88
0.078823400,2,0xAF,0x12
0.078828640,2,0x80,0x31
0.078834300,2,0xAE,0x88
0.078839540,2,0xAF,0x2B
0.078844780,2,0x80,0x01
0.078850380,2,0xAE,0x88
0.078855620,2,0xAF,0x90
0.078860840,2,0x80,0x07
0.078866460,2,0xAE,0x88
0.078871680,2,0xAF,0xF0
0.078876920,2,0x80,0x00
0.078882520,2,0xAE,0x88
0.078887760,2,0xAF,0x00
0.078893000,2,0x80,0x10
0.078898660,2,0xAE,0x88
0.078903880,2,0xAF,0xF8
0.078909120,2,0x80,0x22
0.078914720,2,0xAE,0x88
0.078919960,2,0xAF,0x6F
0.078925180,2,0x80,0xEC
0.078930780,2,0xAE,0x88
0.078936020,2,0xAF,0xF8
0.078941260,2,0x80,0x05
0.078946860,2,0xAE,0x88
0.078952080,2,0xAF,0x84
0.078957320,2,0x80,0x03
0.078963000,2,0xAE,0x88
0.078968220,2,0xAF,0xCD
0.078973460,2,0x80,0xC0
0.078979060,2,0xAE,0x88
0.078984300,2,0xAF,0xF8
0.078989540,2,0x80,0x22
0.078995140,2,0xAE,0x88
0.079000360,2,0xAF,0x6F
0.079005600,2,0x80,0xEC
0.079011200,2,0xAE,0x88
0.079016440,2,0xAF,0xCD
0.079021660,2,0x80,0xC0
0.079027320,2,0xAE,0x88
0.079032540,2,0xAF,0xF8
0.079037780,2,0x80,0x05
0.079043380,2,0xAE,0x88
0.079048620,2,0xAF,0x84
0.079053840,2,0x80,0x03
0.079059440,2,0xAE,0x88
0.079064680,2,0xAF,0x00
0.079069920,2,0x80,0x10
0.079075520,2,0xAE,0x88
0.079080760,2,0xAF,0x29
0.079086000,2,0x80,0x73
0.079091660,2,0xAE,0x88
0.079096880,2,0xAF,0xF8
0.079102120,2,0x80,0x22
0.079107720,2,0xAE,0x88
0.079112960,2,0xAF,0x6F
0.079118200,2,0x80,0xFF
0.079123800,2,0xAE,0x88
0.079129020,2,0xAF,0xF8
0.079134260,2,0x80,0x05
0.079139880,2,0xAE,0x88
0.079145100,2,0xAF,0x84
0.079150340,2,0x80,0x0A
0.079156000,2,0xAE,0x88
0.079161240,2,0xAF,0xCD
0.079166480,2,0x80,0xF3
0.079172080,2,0xAE,0x88
0.079177300,2,0xAF,0x2B
0.079182540,2,0x80,0x09
0.079188140,2,0xAE,0x88
0.079193380,2,0xAF,0x29
0.079198600,2,0x80,0x63
0.079204200,2,0xAE,0x88
0.079209440,2,0xAF,0xF8
0.079214680,2,0x80,0x22
0.079220320,2,0xAE,0x88
0.079225560,2,0xAF,0x6F
0.079230780,2,0x80,0x0D
0.079236400,2,0xAE,0x88
0.079241620,2,0xAF,0xCB
0.079246840,2,0x80,0x94
0.079252440,2,0xAE,0x88
0.079257680,2,0xAF,0xC2
0.079262920,2,0x80,0x39
0.079268500,2,0xAE,0x88
0.079273740,2,0xAF,0xCC
0.079278960,2,0x80,0xD1
0.079284640,2,0xAE,0x88
0.079289860,2,0xAF,0x8F
0.079295100,2,0x80,0xF2
0.079300700,2,0xAE,0x88
0.079305920,2,0xAF,0xCC
0.079311160,2,0x80,0xD2
0.079316760,2,0xAE,0x88
0.079321980,2,0xAF,0xF8
0.079327220,2,0x80,0x03
0.079332820,2,0xAE,0x88
0.079338060,2,0xAF,0x80
0.079343280,2,0x80,0xD2
0.079348940,2,0xAE,0x88
0.079354180,2,0xAF,0x10
0.079359400,2,0x80,0x2D
0.079365000,2,0xAE,0x88
0.079370240,2,0xAF,0xCD
0.079375460,2,0x80,0xD1
0.079381060,2,0xAE,0x88
0.079386300,2,0xAF,0xF8
0.079391520,2,0x80,0x04
0.079397120,2,0xAE,0x88
0.079402340,2,0xAF,0x80
0.079407580,2,0x80,0x00
0.079413260,2,0xAE,0x88
0.079418480,2,0xAF,0xCD
0.079423700,2,0x80,0xD2
0.079429300,2,0xAE,0x88
0.079434540,2,0xAF,0xF8
0.079439780,2,0x80,0x22
0.079445380,2,0xAE,0x88
0.079450600,2,0xAF,0x6F
0.079455840,2,0x80,0xFF
0.079461440,2,0xAE,0x88
0.079466660,2,0xAF,0xF8
0.079471900,2,0x80,0x03
0.079477560,2,0xAE,0x88
0.079482780,2,0xAF,0x80
0.079488020,2,0x80,0xB8
0.079493620,2,0xAE,0x88
0.079498860,2,0xAF,0xCD
0.079504080,2,0x80,0xF3
0.079509700,2,0xAE,0x88
0.079514920,2,0xAF,0x2B
0.079520160,2,0x80,0x01
0.079525760,2,0xAE,0x88
0.079530980,2,0xAF,0x65
0.079536220,2,0x80,0xA6
0.079541880,2,0xAE,0x88
0.079547120,2,0xAF,0xF8
0.079552340,2,0x80,0x01
0.079557960,2,0xAE,0x88
0.079563200,2,0xAF,0x6C
0.079568420,2,0x80,0xF7
0.079574020,2,0xAE,0x88
0.079579260,2,0xAF,0xF8
0.079584500,2,0x80,0x03
0.079590100,2,0xAE,0x88
0.079595320,2,0xAF,0x80
0.079600560,2,0x80,0xA5
0.079606240,2,0xAE,0x88
0.079611460,2,0xAF,0x60
0.079616700,2,0x80,0x22
0.079622300,2,0xAE,0x88
0.079627520,2,0xAF,0x15
0.079632760,2,0x80,0x01
0.079638360,2,0xAE,0x88
0.079643600,2,0xAF,0x2B
0.079648820,2,0x80,0x01
0.079654440,2,0xAE,0x88
0.079659660,2,0xAF,0x93
0.079664900,2,0x80,0xD5
0.079670560,2,0xAE,0x88
0.079675780,2,0xAF,0xF0
0.079681020,2,0x80,0x00
0.079686620,2,0xAE,0x88
0.079691840,2,0xAF,0x00
0.079697060,2,0x80,0x10
0.079702680,2,0xAE,0x88
0.079707900,2,0xAF,0xF8
0.079713140,2,0x80,0x22
0.079718740,2,0xAE,0x88
0.079723960,2,0xAF,0x6F
0.079729200,2,0x80,0xEC
0.079734860,2,0xAE,0x88
0.079740100,2,0xAF,0xF8
0.079745320,2,0x80,0x05
0.079750920,2,0xAE,0x88
0.079756160,2,0xAF,0x84
0.079761400,2,0x80,0x03
0.079767000,2,0xAE,0x88
0.079772220,2,0xAF,0xCD
0.079777460,2,0x80,0xC0
0.079783060,2,0xAE,0x88
0.079788280,2,0xAF,0xF8
0.079793500,2,0x80,0x22
0.079799160,2,0xAE,0x88
0.079804400,2,0xAF,0x6F
0.079809640,2,0x80,0xFC
0.079815240,2,0xAE,0x88
0.079820460,2,0xAF,0xCB
0.079825700,2,0x80,0x06
0.079831300,2,0xAE,0x88
0.079836540,2,0xAF,0xCC
0.079841760,2,0x80,0xC7
0.079847360,2,0xAE,0x88
0.079852600,2,0xAF,0xC2
0.079857840,2,0x80,0x76
0.079863500,2,0xAE,0x88
0.079868720,2,0xAF,0x90
0.079873960,2,0x80,0x08
0.079879560,2,0xAE,0x88
0.079884800,2,0xAF,0xCB
0.079890020,2,0x80,0x68
0.079895620,2,0xAE,0x88
0.079900860,2,0xAF,0x11
0.079906080,2,0x80,0x06
0.079911680,2,0xAE,0x88
0.079916900,2,0xAF,0xCB
0.079922140,2,0x80,0x86
0.079927800,2,0xAE,0x88
0.079933040,2,0xAF,0x94
0.079938260,2,0x80,0x02
0.079943860,2,0xAE,0x88
0.079949080,2,0xAF,0xF0
0.079954320,2,0x80,0x00
0.079959920,2,0xAE,0x88
0.079965140,2,0xAF,0x60
0.079970380,2,0x80,0x06
0.079975980,2,0xAE,0x88
0.079981220,2,0xAF,0xBC
0.079986440,2,0x80,0x00
0.079992100,2,0xAE,0x88
0.079997320,2,0xAF,0xCD
0.080002560,2,0x80,0xC6
0.080008160,2,0xAE,0x88
0.080013380,2,0xAF,0xE5
0.080018620,2,0x80,0x06
0.080024220,2,0xAE,0x88
0.080029460,2,0xAF,0xCB
0.080034680,2,0x80,0x68
0.080040280,2,0xAE,0x88
0.080045500,2,0xAF,0x11
0.080050740,2,0x80,0x06
0.080056420,2,0xAE,0x88
0.080061640,2,0xAF,0xCB
0.080066880,2,0x80,0x86
0.080072480,2,0xAE,0x88
0.080077720,2,0xAF,0x93
0.080082940,2,0x80,0xF8
0.080088540,2,0xAE,0x88
0.080093760,2,0xAF,0xF0
0.080099000,2,0x80,0x00
0.080104600,2,0xAE,0x88
0.080109820,2,0xAF,0xBC
0.080115060,2,0x80,0x00
0.080120720,2,0xAE,0x88
0.080125960,2,0xAF,0xCD
0.080131180,2,0x80,0xC6
0.080136780,2,0xAE,0x88
0.080142020,2,0xAF,0x18
0.080147260,2,0x80,0x0A
0.080152860,2,0xAE,0x88
0.080158100,2,0xAF,0xCB
0.080163320,2,0x80,0x9A
0.080168920,2,0xAE,0x88
0.080174160,2,0xAF,0x90
0.080179380,2,0x80,0x03
0.080185040,2,0xAE,0x88
0.080190280,2,0xAF,0xF0
0.080195500,2,0x80,0x00
0.080201100,2,0xAE,0x88
0.080206340,2,0xAF,0x68
0.080211560,2,0x80,0x0A
0.080217160,2,0xAE,0x88
0.080222400,2,0xAF,0x68
0.080227640,2,0x80,0x09
0.080233240,2,0xAE,0x88
0.080238460,2,0xAF,0xC2
0.080243680,2,0x80,0xBA
0.080249360,2,0xAE,0x88
0.080254600,2,0xAF,0xCB
0.080259820,2,0x80,0x9A
0.080265420,2,0xAE,0x88
0.080270640,2,0xAF,0x90
0.080275880,2,0x80,0x06
0.080281480,2,0xAE,0x88
0.080286700,2,0xAF,0xF0
0.080291920,2,0x80,0x00
0.080297540,2,0xAE,0x88
0.080302760,2,0xAF,0xF8
0.080308000,2,0x80,0x06
0.080313660,2,0xAE,0x88
0.080318880,2,0xAF,0xEB
0.080324120,2,0x80,0xAB
0.080329720,2,0xAE,0x88
0.080334940,2,0xAF,0x62
0.080340180,2,0x80,0x0D
0.080345780,2,0xAE,0x88
0.080351020,2,0xAF,0xBC
0.080356240,2,0x80,0x00
0.080361840,2,0xAE,0x88
0.080367080,2,0xAF,0x60
0.080372300,2,0x80,0x6E
0.080377980,2,0xAE,0x88
0.080383200,2,0xAF,0xF8
0.080388420,2,0x80,0x08
0.080394040,2,0xAE,0x88
0.080399280,2,0xAF,0x60
0.080404500,2,0x80,0x0D
0.080410100,2,0xAE,0x88
0.080415340,2,0xAF,0xBC
0.080420580,2,0x80,0x00
0.080426180,2,0xAE,0x88
0.080431400,2,0xAF,0x60
0.080436640,2,0x80,0xCE
0.080442300,2,0xAE,0x88
0.080447520,2,0xAF,0xCB
0.080452760,2,0x80,0x0B
0.080458360,2,0xAE,0x88
0.080463580,2,0xAF,0xCB
0.080468820,2,0x80,0x1C
0.080474420,2,0xAE,0x88
0.080479660,2,0xAF,0x11
0.080484880,2,0x80,0x00
0.080490480,2,0xAE,0x88
0.080495720,2,0xAF,0xCB
0.080500960,2,0x80,0x90
0.080506620,2,0xAE,0x88
0.080511840,2,0xAF,0x94
0.080517080,2,0x80,0x03
0.080522680,2,0xAE,0x88
0.080527900,2,0xAF,0xCB
0.080533140,2,0x80,0x29
0.080538740,2,0xAE,0x88
0.080543960,2,0xAF,0xCB
0.080549200,2,0x80,0x2B
0.080554800,2,0xAE,0x88
0.080560020,2,0xAF,0xCB
0.080565260,2,0x80,0x3C
0.080570920,2,0xAE,0x88
0.080576160,2,0xAF,0xBC
0.080581380,2,0x80,0x00
0.080586980,2,0xAE,0x88
0.080592220,2,0xAF,0xF0
0.080597460,2,0x80,0x00
0.080603060,2,0xAE,0x88
0.080608280,2,0xAF,0xF8
0.080613520,2,0x80,0x0C
0.080619120,2,0xAE,0x88
0.080624340,2,0xAF,0x3F
0.080629580,2,0x80,0x10
0.080635240,2,0xAE,0x88
0.080640460,2,0xAF,0xCB
0.080645700,2,0x80,0x09
0.080651300,2,0xAE,0x88
0.080656540,2,0xAF,0xC2
0.080661760,2,0x80,0x60
0.080667360,2,0xAE,0x88
0.080672600,2,0xAF,0xCB
0.080677820,2,0x80,0x90
0.080683420,2,0xAE,0x88
0.080688660,2,0xAF,0x90
0.080693900,2,0x80,0x0F
0.080699560,2,0xAE,0x88
0.080704800,2,0xAF,0xCB
0.080710020,2,0x80,0x29
0.080715620,2,0xAE,0x88
0.080720860,2,0xAF,0xF8
0.080726100,2,0x80,0x06
0.080731700,2,0xAE,0x88
0.080736940,2,0xAF,0xE0
0.080742160,2,0x80,0xA0
0.080747760,2,0xAE,0x88
0.080753000,2,0xAF,0xCB
0.080758220,2,0x80,0x6A
0.080763880,2,0xAE,0x88
0.080769120,2,0xAF,0xCB
0.080774340,2,0x80,0x0B
0.080779940,2,0xAE,0x88
0.080785180,2,0xAF,0xCB
0.080790400,2,0x80,0x1C
0.080796000,2,0xAE,0x88
0.080801240,2,0xAF,0x64
0.080806480,2,0x80,0x0D
0.080812080,2,0xAE,0x88
0.080817300,2,0xAF,0xF8
0.080822540,2,0x80,0x00
0.080828200,2,0xAE,0x88
0.080833440,2,0xAF,0x80
0.080838680,2,0x80,0xD3
0.080844280,2,0xAE,0x88
0.080849520,2,0xAF,0x60
0.080854760,2,0x80,0x7E
0.080860360,2,0xAE,0x88
0.080865580,2,0xAF,0xF8
0.080870820,2,0x80,0x00
0.080876420,2,0xAE,0x88
0.080881640,2,0xAF,0x80
0.080886880,2,0x80,0xC6
0.080892540,2,0xAE,0x88
0.080897780,2,0xAF,0x68
0.080903000,2,0x80,0x1B
0.080908600,2,0xAE,0x88
0.080913840,2,0xAF,0xBC
0.080919080,2,0x80,0x00
0.080924680,2,0xAE,0x88
0.080929900,2,0xAF,0xF0
0.080935140,2,0x80,0x00
0.080940740,2,0xAE,0x88
0.080945980,2,0xAF,0xC2
0.080951200,2,0x80,0x62
0.080956860,2,0xAE,0x88
0.080962100,2,0xAF,0xCB
0.080967320,2,0x80,0x92
0.080972940,2,0xAE,0x88
0.080978160,2,0xAF,0x94
0.080983400,2,0x80,0x11
0.080989000,2,0xAE,0x88
0.080994240,2,0xAF,0xF0
0.080999480,2,0x80,0x00
0.081005080,2,0xAE,0x88
0.081010300,2,0xAF,0x83
0.081015540,2,0x80,0xDC
0.081021200,2,0xAE,0x88
0.081026440,2,0xAF,0xCB
0.081031660,2,0x80,0x09
0.081037260,2,0xAE,0x88
0.081042500,2,0xAF,0xCB
0.081047740,2,0x80,0x6A
0.081053320,2,0xAE,0x88
0.081058560,2,0xAF,0xC2
0.081063800,2,0x80,0x2A
0.081069400,2,0xAE,0x88
0.081074640,2,0xAF,0x83
0.081079860,2,0x80,0xC5
0.081085520,2,0xAE,0x88
0.081090760,2,0xAF,0xCB
0.081096000,2,0x80,0xA9
0.081101580,2,0xAE,0x88
0.081106820,2,0xAF,0xF8
0.081112040,2,0x80,0x00
0.081117640,2,0xAE,0x88
0.081122880,2,0xAF,0x80
0.081128100,2,0x80,0xD3
0.081133700,2,0xAE,0x88
0.081138940,2,0xAF,0xF0
0.081144180,2,0x80,0x00
0.081149840,2,0xAE,0x88
0.081155060,2,0xAF,0xC0
0.081160280,2,0x80,0xBA
0.081165900,2,0xAE,0x88
0.081171120,2,0xAF,0xCB
0.081176340,2,0x80,0x79
0.081181940,2,0xAE,0x88
0.081187180,2,0xAF,0xE0
0.081192400,2,0x80,0x07
0.081198000,2,0xAE,0x88
0.081203240,2,0xAF,0xC2
0.081208480,2,0x80,0xA7
0.081214140,2,0xAE,0x88
0.081219380,2,0xAF,0xCB
0.081224600,2,0x80,0x97
0.081230200,2,0xAE,0x88
0.081235440,2,0xAF,0x90
0.081240680,2,0x80,0x18
0.081246280,2,0xAE,0x88
0.081251500,2,0xAF,0x60
0.081256740,2,0x80,0x0B
0.081262340,2,0xAE,0x88
0.081267560,2,0xAF,0x83
0.081272800,2,0x80,0xCC
0.081278460,2,0xAE,0x88
0.081283680,2,0xAF,0xCB
0.081288920,2,0x80,0x09
0.081294520,2,0xAE,0x88
0.081299760,2,0xAF,0xCB
0.081304980,2,0x80,0x6A
0.081310580,2,0xAE,0x88
0.081315820,2,0xAF,0xC2
0.081321060,2,0x80,0x0A
0.081326640,2,0xAE,0x88
0.081331880,2,0xAF,0xC2
0.081337100,2,0x80,0x4A
0.081342780,2,0xAE,0x88
0.081348000,2,0xAF,0x9C
0.081353220,2,0x80,0x09
0.081358820,2,0xAE,0x88
0.081364060,2,0xAF,0xF0
0.081369300,2,0x80,0x00
0.081374900,2,0xAE,0x88
0.081380120,2,0xAF,0x83
0.081385360,2,0x80,0xB2
0.081390980,2,0xAE,0x88
0.081396200,2,0xAF,0xCB
0.081401440,2,0x80,0xA9
0.081407100,2,0xAE,0x88
0.081412320,2,0xAF,0xF8
0.081417560,2,0x80,0x00
0.081423160,2,0xAE,0x88
0.081428400,2,0xAF,0x80
0.081433620,2,0x80,0xD3
0.081439220,2,0xAE,0x88
0.081444460,2,0xAF,0xF0
0.081449700,2,0x80,0x00
0.081455300,2,0xAE,0x88
0.081460540,2,0xAF,0xC0
0.081465780,2,0x80,0xBA
0.081471440,2,0xAE,0x88
0.081476680,2,0xAF,0x84
0.081481900,2,0x80,0x09
0.081487520,2,0xAE,0x88
0.081492760,2,0xAF,0x60
0.081498000,2,0x80,0x1B
0.081503600,2,0xAE,0x88
0.081508820,2,0xAF,0xC0
0.081514060,2,0x80,0x4A
0.081519680,2,0xAE,0x88
0.081524900,2,0xAF,0x83
0.081530140,2,0x80,0xA9
0.081535800,2,0xAE,0x88
0.081541040,2,0xAF,0xCB
0.081546260,2,0x80,0xA9
0.081551860,2,0xAE,0x88
0.081557100,2,0xAF,0xF8
0.081562340,2,0x80,0x00
0.081567940,2,0xAE,0x88
0.081573180,2,0xAF,0x80
0.081578420,2,0x80,0xD3
0.081584020,2,0xAE,0x88
0.081589240,2,0xAF,0xF0
0.081594480,2,0x80,0x00
0.081600140,2,0xAE,0x88
0.081605380,2,0xAF,0xC0
0.081610620,2,0x80,0xBA
0.081616220,2,0xAE,0x88
0.081621460,2,0xAF,0x61
0.081626680,2,0x80,0x1B
0.081632280,2,0xAE,0x88
0.081637520,2,0xAF,0xF8
0.081642760,2,0x80,0x00
0.081648360,2,0xAE,0x88
0.081653580,2,0xAF,0x80
0.081658820,2,0x80,0xC6
0.081664480,2,0xAE,0x88
0.081669720,2,0xAF,0xF0
0.081674960,2,0x80,0x00
0.081680560,2,0xAE,0x88
0.081685800,2,0xAF,0xBC
0.081691040,2,0x80,0x00
0.081696640,2,0xAE,0x88
0.081701880,2,0xAF,0xF0
0.081707100,2,0x80,0x00
0.081712720,2,0xAE,0x88
0.081717940,2,0xAF,0x28
0.081723180,2,0x80,0x18
0.081728840,2,0xAE,0x88
0.081734080,2,0xAF,0xF8
0.081739320,2,0x80,0x08
0.081744920,2,0xAE,0x88
0.081750140,2,0xAF,0xE8
0.081755380,2,0x80,0xB8
0.081760980,2,0xAE,0x88
0.081766220,2,0xAF,0x40
0.081771460,2,0x80,0x48
0.081777060,2,0xAE,0x88
0.081782300,2,0xAF,0x8C
0.081787540,2,0x80,0x03
0.081793200,2,0xAE,0x88
0.081798440,2,0xAF,0xF0
0.081803660,2,0x80,0x00
0.081809280,2,0xAE,0x88
0.081814500,2,0xAF,0xE2
0.081819740,2,0x80,0x01
0.081825340,2,0xAE,0x88
0.081830580,2,0xAF,0xE2
0.081835800,2,0x80,0x02
0.081841420,2,0xAE,0x88
0.081846640,2,0xAF,0xF8
0.081851880,2,0x80,0x00
0.081857540,2,0xAE,0x88
0.081862780,2,0xAF,0x80
0.081868000,2,0x80,0x5F
0.081873600,2,0xAE,0x88
0.081878840,2,0xAF,0xF0
0.081884080,2,0x80,0x00
0.081889680,2,0xAE,0x88
0.081894920,2,0xAF,0xBC
0.081900140,2,0x80,0x00
0.081905740,2,0xAE,0x88
0.081910980,2,0xAF,0xF0
0.081916220,2,0x80,0x00
0.081921880,2,0xAE,0x88
0.081927100,2,0xAF,0xBC
0.081932340,2,0x80,0x00
0.081937940,2,0xAE,0x88
0.081943180,2,0xAF,0xF0
0.081948420,2,0x80,0x00
0.081954000,2,0xAE,0x88
0.081959240,2,0xAF,0xCB
0.081964480,2,0x80,0x60
0.081970080,2,0xAE,0x88
0.081975300,2,0xAF,0xC2
0.081980540,2,0x80,0x56
0.081986200,2,0xAE,0x88
0.081991440,2,0xAF,0xCB
0.081996680,2,0x80,0x06
0.082002280,2,0xAE,0x88
0.082007520,2,0xAF,0xAC
0.082012740,2,0x80,0x07
0.082018360,2,0xAE,0x88
0.082023580,2,0xAF,0xCB
0.082028820,2,0x80,0x70
0.082034420,2,0xAE,0x88
0.082039680,2,0xAF,0xC2
0.082044900,2,0x80,0x87
0.082050560,2,0xAE,0x88
0.082055800,2,0xAF,0xCB
0.082061040,2,0x80,0x07
0.082066640,2,0xAE,0x88
0.082071880,2,0xAF,0xAC
0.082077100,2,0x80,0x03
0.082082700,2,0xAE,0x88
0.082087960,2,0xAF,0xF0
0.082093200,2,0x80,0x00
0.082098800,2,0xAE,0x88
0.082104020,2,0xAF,0xBC
0.082109260,2,0x80,0x00
0.082114940,2,0xAE,0x88
0.082120180,2,0xAF,0xF0
0.082125400,2,0x80,0x00
0.082131000,2,0xAE,0x88
0.082136240,2,0xAF,0x64
0.082141480,2,0x80,0x00
0.082147080,2,0xAE,0x88
0.082152320,2,0xAF,0xF8
0.082157540,2,0x80,0x03
0.082163160,2,0xAE,0x88
0.082168400,2,0xAF,0x80
0.082173620,2,0x80,0x98
0.082179280,2,0xAE,0x88
0.082184520,2,0xAF,0x3A
0.082189740,2,0x80,0x00
0.082195340,2,0xAE,0x88
0.082200580,2,0xAF,0xF8
0.082205800,2,0x80,0x08
0.082211420,2,0xAE,0x88
0.082216660,2,0xAF,0x80
0.082221880,2,0x80,0xAE
0.082227480,2,0xAE,0x88
0.082232720,2,0xAF,0x60
0.082237940,2,0x80,0x90
0.082243620,2,0xAE,0x88
0.082248840,2,0xAF,0xBC
0.082254080,2,0x80,0x00
0.082259680,2,0xAE,0x88
0.082264920,2,0xAF,0xF0
0.082270160,2,0x80,0x00
0.082275760,2,0xAE,0x88
0.082281000,2,0xAF,0xE0
0.082286240,2,0x80,0xF0
0.082291840,2,0xAE,0x88
0.082297060,2,0xAF,0xE0
0.082302300,2,0x80,0xF0
0.082307960,2,0xAE,0x88
0.082313200,2,0xAF,0xE0
0.082318420,2,0x80,0xF0
0.082324020,2,0xAE,0x88
0.082329260,2,0xAF,0xE0
0.082334500,2,0x80,0xF0
0.082340100,2,0xAE,0x88
0.082345320,2,0xAF,0xE0
0.082350560,2,0x80,0xF0
0.082356160,2,0xAE,0x88
0.082361400,2,0xAF,0xE0
0.082366640,2,0x80,0xF0
0.082372300,2,0xAE,0x88
0.082377540,2,0xAF,0xE0
0.082382760,2,0x80,0xF0
0.082388380,2,0xAE,0x88
0.082393600,2,0xAF,0xE0
0.082398840,2,0x80,0xF0
0.082404440,2,0xAE,0x88
0.082409680,2,0xAF,0xE0
0.082414920,2,0x80,0xF0
0.082420520,2,0xAE,0x88
0.082425760,2,0xAF,0xE0
0.082430980,2,0x80,0xF0
0.082436660,2,0xAE,0x88
0.082441880,2,0xAF,0xE0
0.082447120,2,0x80,0xF0
0.082452720,2,0xAE,0x88
0.082457960,2,0xAF,0xE0
0.082463200,2,0x80,0xF0
0.082468800,2,0xAE,0x88
0.082474040,2,0xAF,0xE0
0.082479260,2,0x80,0xF0
0.082484880,2,0xAE,0x88
0.082490120,2,0xAF,0xE0
0.082495340,2,0x80,0xF0
0.082501000,2,0xAE,0x88
0.082506240,2,0xAF,0xE0
0.082511480,2,0x80,0xF0
0.082517080,2,0xAE,0x88
0.082522320,2,0xAF,0xE0
0.082527540,2,0x80,0xF0
0.082533160,2,0xAE,0x88
0.082538400,2,0xAF,0xE0
0.082543620,2,0x80,0xF0
0.082549220,2,0xAE,0x88
0.082554460,2,0xAF,0xE0
0.082559700,2,0x80,0xF0
0.082565360,2,0xAE,0x88
0.082570580,2,0xAF,0xE0
0.082575820,2,0x80,0xF0
0.082581420,2,0xAE,0x88
0.082586660,2,0xAF,0xE0
0.082591880,2,0x80,0xF0
0.082597480,2,0xAE,0x88
0.082602720,2,0xAF,0xE0
0.082607940,2,0x80,0xF0
0.082613540,2,0xAE,0x88
0.082618780,2,0xAF,0xE0
0.082624000,2,0x80,0xF0
0.082629680,2,0xAE,0x88
0.082634900,2,0xAF,0xE0
0.082640140,2,0x80,0xF0
0.082645740,2,0xAE,0x88
0.082650960,2,0xAF,0xE0
0.082656200,2,0x80,0xF0
0.082661800,2,0xAE,0x88
0.082667020,2,0xAF,0xE0
0.082672260,2,0x80,0xF0
0.082677860,2,0xAE,0x88
0.082683080,2,0xAF,0xE0
0.082688320,2,0x80,0xF0
0.082693980,2,0xAE,0x88
0.082699200,2,0xAF,0xE0
0.082704440,2,0x80,0xF0
0.082710040,2,0xAE,0x88
0.082715260,2,0xAF,0xE0
0.082720500,2,0x80,0xF0
0.082726100,2,0xAE,0x88
0.082731320,2,0xAF,0xE0
0.082736560,2,0x80,0xF0
0.082742160,2,0xAE,0x88
0.082747380,2,0xAF,0xE0
0.082752620,2,0x80,0xF0
0.082758280,2,0xAE,0x88
0.082763500,2,0xAF,0xE0
0.082768740,2,0x80,0xF0
0.082774320,2,0xAE,0x88
0.082779560,2,0xAF,0xE0
0.082784800,2,0x80,0xF0
0.082790400,2,0xAE,0x88
0.082795620,2,0xAF,0xE0
0.082800840,2,0x80,0xF0
0.082806440,2,0xAE,0x88
0.082811680,2,0xAF,0xE0
0.082816900,2,0x80,0xF0
0.082822560,2,0xAE,0x88
0.082827800,2,0xAF,0xE0
0.082833020,2,0x80,0xF0
0.082838620,2,0xAE,0x88
0.082843840,2,0xAF,0xE0
0.082849060,2,0x80,0xF0
0.082854660,2,0xAE,0x88
0.082859900,2,0xAF,0xE0
0.082865120,2,0x80,0xF0
0.082870720,2,0xAE,0x88
0.082875960,2,0xAF,0xE0
0.082881200,2,0x80,0xF0
0.082886860,2,0xAE,0x88
0.082892080,2,0xAF,0xE0
0.082897300,2,0x80,0xF0
0.082902900,2,0xAE,0x88
0.082908140,2,0xAF,0xE0
0.082913380,2,0x80,0xF0
0.082918960,2,0xAE,0x88
0.082924200,2,0xAF,0xE0
0.082929420,2,0x80,0xF0
0.082935020,2,0xAE,0x88
0.082940260,2,0xAF,0xE0
0.082945480,2,0x80,0xF0
0.082951140,2,0xAE,0x88
0.082956380,2,0xAF,0xE0
0.082961600,2,0x80,0xF0
0.082967200,2,0xAE,0x88
0.082972420,2,0xAF,0xE0
0.082977660,2,0x80,0xF0
0.082983260,2,0xAE,0x88
0.082988480,2,0xAF,0xE0
0.082993720,2,0x80,0xF0
0.082999320,2,0xAE,0x88
0.083004540,2,0xAF,0xE0
0.083009780,2,0x80,0xF0
0.083015420,2,0xAE,0x88
0.083020660,2,0xAF,0xE0
0.083025880,2,0x80,0xF0
0.083031480,2,0xAE,0x88
0.083036720,2,0xAF,0xE0
0.083041940,2,0x80,0xF0
0.083047540,2,0xAE,0x88
0.083052760,2,0xAF,0xE0
0.083058000,2,0x80,0xF0
0.083063600,2,0xAE,0x88
0.083068820,2,0xAF,0xE0
0.083074060,2,0x80,0xF0
0.083079720,2,0xAE,0x88
0.083084960,2,0xAF,0xE0
0.083090180,2,0x80,0xF0
0.083095780,2,0xAE,0x88
0.083101000,2,0xAF,0xE0
0.083106240,2,0x80,0xF0
0.083111840,2,0xAE,0x88
0.083117060,2,0xAF,0xE0
0.083122280,2,0x80,0xF0
0.083127900,2,0xAE,0x88
0.083133120,2,0xAF,0xE0
0.083138360,2,0x80,0xF0
0.083144020,2,0xAE,0x88
0.083149240,2,0xAF,0xE0
0.083154480,2,0x80,0xF0
0.083160080,2,0xAE,0x88
0.083165300,2,0xAF,0xE0
0.083170520,2,0x80,0xF0
0.083176140,2,0xAE,0x88
0.083181360,2,0xAF,0xE0
0.083186600,2,0x80,0xF0
0.083192180,2,0xAE,0x88
0.083197420,2,0xAF,0xE0
0.083202660,2,0x80,0xF0
0.083208320,2,0xAE,0x88
0.083213540,2,0xAF,0xE0
0.083218780,2,0x80,0xF0
0.083224380,2,0xAE,0x88
0.083229620,2,0xAF,0xE0
0.083234840,2,0x80,0xF0
0.083240440,2,0xAE,0x88
0.083245680,2,0xAF,0xE0
0.083250900,2,0x80,0xF0
0.083256500,2,0xAE,0x88
0.083261740,2,0xAF,0xE0
0.083266960,2,0x80,0xF0
0.083272620,2,0xAE,0x88
0.083277860,2,0xAF,0xE0
0.083283100,2,0x80,0xF0
0.083288700,2,0xAE,0x88
0.083293920,2,0xAF,0xE0
0.083299160,2,0x80,0xF0
0.083304760,2,0xAE,0x88
0.083310000,2,0xAF,0xE0
0.083315220,2,0x80,0xF0
0.083320820,2,0xAE,0x88
0.083326060,2,0xAF,0xE0
0.083331300,2,0x80,0xF0
0.083336960,2,0xAE,0x88
0.083342180,2,0xAF,0xE0
0.083347420,2,0x80,0xF0
0.083353020,2,0xAE,0x88
0.083358260,2,0xAF,0xE0
0.083363480,2,0x80,0xF0
0.083369080,2,0xAE,0x88
0.083374320,2,0xAF,0xE0
0.083379540,2,0x80,0xF0
0.083385140,2,0xAE,0x88
0.083390380,2,0xAF,0xE0
0.083395600,2,0x80,0xF0
0.083401280,2,0xAE,0x88
0.083406500,2,0xAF,0xE0
0.083411740,2,0x80,0xF0
0.083417340,2,0xAE,0x88
0.083422560,2,0xAF,0xE0
0.083427800,2,0x80,0xF0
0.083433400,2,0xAE,0x88
0.083438620,2,0xAF,0xE0
0.083443860,2,0x80,0xF0
0.083449460,2,0xAE,0x88
0.083454700,2,0xAF,0xE0
0.083459920,2,0x80,0xF0
0.083465580,2,0xAE,0x88
0.083470800,2,0xAF,0xE0
0.083476040,2,0x80,0xF0
0.083481640,2,0xAE,0x88
0.083486880,2,0xAF,0xE0
0.083492100,2,0x80,0xF0
0.083497700,2,0xAE,0x88
0.083502940,2,0xAF,0xE0
0.083508160,2,0x80,0xF0
0.083513760,2,0xAE,0x88
0.083518980,2,0xAF,0xE0
0.083524220,2,0x80,0xF0
0.083529880,2,0xAE,0x88
0.083535100,2,0xAF,0xE0
0.083540320,2,0x80,0xF0
0.083545920,2,0xAE,0x88
0.083551160,2,0xAF,0xE0
0.083556380,2,0x80,0xF0
0.083561980,2,0xAE,0x88
0.083567200,2,0xAF,0xE0
0.083572440,2,0x80,0xF0
0.083578040,2,0xAE,0x88
0.083583260,2,0xAF,0xE0
0.083588480,2,0x80,0xF0
0.083594140,2,0xAE,0x88
0.083599380,2,0xAF,0xE0
0.083604620,2,0x80,0xF0
0.083610200,2,0xAE,0x88
0.083615440,2,0xAF,0xE0
0.083620660,2,0x80,0xF0
0.083626260,2,0xAE,0x88
0.083631500,2,0xAF,0xE0
0.083636720,2,0x80,0xF0
0.083642320,2,0xAE,0x88
0.083647560,2,0xAF,0xE0
0.083652780,2,0x80,0xF0
0.083658440,2,0xAE,0x88
0.083663680,2,0xAF,0xE0
0.083668900,2,0x80,0xF0
0.083674500,2,0xAE,0x88
0.083679740,2,0xAF,0xE0
0.083684980,2,0x80,0xF0
0.083690580,2,0xAE,0x88
0.083695800,2,0xAF,0xE0
0.083701040,2,0x80,0xF0
0.083706640,2,0xAE,0x88
0.083711860,2,0xAF,0xE0
0.083717100,2,0x80,0xF0
0.083722760,2,0xAE,0x88
0.083728000,2,0xAF,0xE0
0.083733220,2,0x80,0xF0
0.083738820,2,0xAE,0x88
0.083744060,2,0xAF,0xE0
0.083749280,2,0x80,0xF0
0.083754900,2,0xAE,0x88
0.083760120,2,0xAF,0xE0
0.083765340,2,0x80,0xF0
0.083770960,2,0xAE,0x88
0.083776180,2,0xAF,0xE0
0.083781420,2,0x80,0xF0
0.083787080,2,0xAE,0x88
0.083792300,2,0xAF,0xE0
0.083797540,2,0x80,0xF0
0.083803140,2,0xAE,0x88
0.083808360,2,0xAF,0xE0
0.083813600,2,0x80,0xF0
0.083819180,2,0xAE,0x88
0.083824420,2,0xAF,0xE0
0.083829660,2,0x80,0xF0
0.083835260,2,0xAE,0x88
0.083840480,2,0xAF,0xE0
0.083845720,2,0x80,0xF0
0.083851380,2,0xAE,0x88
0.083856620,2,0xAF,0xE0
0.083861840,2,0x80,0xF0
0.083867440,2,0xAE,0x88
0.083872680,2,0xAF,0xE0
0.083877900,2,0x80,0xF0
0.083883500,2,0xAE,0x88
0.083888740,2,0xAF,0xE0
0.083893980,2,0x80,0xF0
0.083899580,2,0xAE,0x88
0.083904820,2,0xAF,0xE0
0.083910060,2,0x80,0xF0
0.083915720,2,0xAE,0x88
0.083920940,2,0xAF,0xE0
0.083926180,2,0x80,0xF0
0.083931780,2,0xAE,0x88
0.083937020,2,0xAF,0xE0
0.083942240,2,0x80,0xF0
0.083947860,2,0xAE,0x88
0.083953100,2,0xAF,0xE0
0.083958320,2,0x80,0xF0
0.083963920,2,0xAE,0x88
0.083969160,2,0xAF,0xE0
0.083974400,2,0x80,0xF0
0.083980060,2,0xAE,0x88
0.083985280,2,0xAF,0xE0
0.083990520,2,0x80,0xF0
0.083996120,2,0xAE,0x88
0.084001340,2,0xAF,0xE0
0.084006580,2,0x80,0xF0
0.084012180,2,0xAE,0x88
0.084017420,2,0xAF,0xE0
0.084022660,2,0x80,0xF0
0.084028260,2,0xAE,0x88
0.084033480,2,0xAF,0xE0
0.084038720,2,0x80,0xF0
0.084044380,2,0xAE,0x88
0.084049620,2,0xAF,0xE0
0.084054860,2,0x80,0xF0
0.084060440,2,0xAE,0x88
0.084065680,2,0xAF,0xE0
0.084070900,2,0x80,0xF0
0.084076520,2,0xAE,0x88
0.084081740,2,0xAF,0xE0
0.084086980,2,0x80,0xF0
0.084092580,2,0xAE,0x88
0.084097800,2,0xAF,0xE0
0.084103040,2,0x80,0xF0
0.084108700,2,0xAE,0x88
0.084113920,2,0xAF,0xE0
0.084119160,2,0x80,0xF0
0.084124760,2,0xAE,0x88
0.084130000,2,0xAF,0xE0
0.084135220,2,0x80,0xF0
0.084140820,2,0xAE,0x88
0.084146060,2,0xAF,0xE0
0.084151280,2,0x80,0xF0
0.084156880,2,0xAE,0x88
0.084162120,2,0xAF,0xE0
0.084167340,2,0x80,0xF0
0.084173000,2,0xAE,0x88
0.084178240,2,0xAF,0xE0
0.084183460,2,0x80,0xF0
0.084189060,2,0xAE,0x88
0.084194300,2,0xAF,0xE0
0.084199540,2,0x80,0xF0
0.084205140,2,0xAE,0x88
0.084210360,2,0xAF,0xE0
0.084215600,2,0x80,0xF0
0.084221200,2,0xAE,0x88
0.084226440,2,0xAF,0xE0
0.084231660,2,0x80,0xF0
0.084237320,2,0xAE,0x88
0.084242560,2,0xAF,0xE0
0.084247800,2,0x80,0xF0
0.084253400,2,0xAE,0x88
0.084258640,2,0xAF,0xE0
0.084263860,2,0x80,0xF0
0.084269460,2,0xAE,0x88
0.084274700,2,0xAF,0xE0
0.084279940,2,0x80,0xF0
0.084285540,2,0xAE,0x88
0.084290780,2,0xAF,0xE0
0.084296020,2,0x80,0xF0
0.084301680,2,0xAE,0x88
0.084306900,2,0xAF,0xE0
0.084312140,2,0x80,0xF0
0.084317740,2,0xAE,0x88
0.084322980,2,0xAF,0xE0
0.084328200,2,0x80,0xF0
0.084333800,2,0xAE,0x88
0.084339020,2,0xAF,0xE0
0.084344260,2,0x80,0xF0
0.084349860,2,0xAE,0x88
0.084355080,2,0xAF,0xE0
0.084360320,2,0x80,0xF0
0.084365960,2,0xAE,0x88
0.084371200,2,0xAF,0xE0
0.084376440,2,0x80,0xF0
0.084382020,2,0xAE,0x88
0.084387260,2,0xAF,0xE0
0.084392480,2,0x80,0xF0
0.084398080,2,0xAE,0x88
0.084403320,2,0xAF,0xE0
0.084408540,2,0x80,0xF0
0.084414140,2,0xAE,0x88
0.084419380,2,0xAF,0xE0
0.084424620,2,0x80,0xF0
0.084430260,2,0xAE,0x88
0.084435500,2,0xAF,0xE0
0.084440740,2,0x80,0xF0
0.084446340,2,0xAE,0x88
0.084451580,2,0xAF,0xE0
0.084456800,2,0x80,0xF0
0.084462400,2,0xAE,0x88
0.084467620,2,0xAF,0xE0
0.084472860,2,0x80,0xF0
0.084478460,2,0xAE,0x88
0.084483680,2,0xAF,0xE0
0.084488920,2,0x80,0xF0
0.084494580,2,0xAE,0x88
0.084499820,2,0xAF,0x01
0.084505040,2,0x80,0x20
0.084511320,3,0x2A,0x10
0.084516600,3,0x00,0xCF
0.084522660,4,0x76,0x10
0.084527940,4,0x88,0x00
0.084533860,4,0x40,0x88
0.084539140,4,0x82,0x00
0.084544860,4,0x43,0x82
0.084550160,4,0x01,0x00
0.084557180,4,0x43,0x01
0.084562460,4,0x00,0x01
0.084567940,4,0xCA,0x00
0.084573180,4,0xCB,0x00
0.084578420,4,0x80,0x5A
0.084584060,4,0x40,0x88
0.084589360,4,0x83,0x82
0.084595100,4,0x43,0x83
0.084600380,4,0x01,0x00
0.084607400,4,0x43,0x01
0.084612680,4,0x00,0x01
0.084618160,4,0xCA,0x00
0.084623400,4,0xCB,0x17
0.084628620,4,0x80,0x40
0.084634280,4,0x40,0x88
0.084639580,4,0x84,0x83
0.084645300,4,0x43,0x84
0.084650600,4,0x01,0x00
0.084657620,4,0x43,0x01
0.084662900,4,0x00,0x01
0.084668380,4,0xCA,0x00
0.084673620,4,0xCB,0x09
0.084678840,4,0x80,0x09
0.084684500,4,0x40,0x88
0.084689800,4,0x85,0x84
0.084695520,4,0x43,0x85
0.084700820,4,0x01,0x00
0.084707820,4,0x43,0x01
0.084713120,4,0x00,0x01
0.084718600,4,0xCA,0x00
0.084723840,4,0xCB,0x0F
0.084729060,4,0x80,0x0B
0.084734660,4,0x76,0x88
0.084739960,4,0x00,0x88
0.084745860,5,0x30,0x10
0.084751160,5,0x17,0x18
0.084756880,5,0x31,0x17
0.084762180,5,0x40,0x40
0.084767900,5,0x32,0x40
0.084773200,5,0x09,0x08
0.084778860,5,0x33,0x09
0.084784140,5,0x09,0x08
0.084789820,5,0x34,0x09
0.084795100,5,0x0F,0x10
0.084800820,5,0x35,0x0F
0.084806120,5,0x0B,0x08
0.084812640,6,0x03,0x10
0.084817940,6,0x40,0x00
0.084853860,6,0x0B,0x40
0.084859160,6,0x40,0x00
0.084895080,6,0x0E,0x40
0.084900380,6,0x11,0x10
0.084936320,6,0x22,0x11
0.084941600,6,0x08,0xC8
0.084977540,6,0x23,0x08
0.084982840,6,0x97,0xFA
0.085018780,6,0x24,0x97
0.085024080,6,0xB6,0x00
0.085060040,6,0x25,0xB6
0.085065320,6,0x36,0x00
0.085101260,6,0x26,0x36
0.085106560,6,0xDA,0x00
0.085142500,6,0x27,0xDA
0.085147800,6,0x50,0x00
0.085183720,6,0x28,0x50
0.085189020,6,0xC4,0x00
0.085224960,6,0x29,0xC4
0.085230240,6,0x06,0x00
0.085266200,6,0x64,0x06
0.085271480,6,0x06,0x0C
0.085307540,7,0x82,0x10
0.085312840,7,0x80,0x00
0.085318620,7,0x02,0x88
0.085323920,7,0x80,0x00
0.086104680,8,0x83,0x69
0.086109960,8,0x80,0x40
0.086115800,9,0x03,0x69
0.086121100,9,0x40,0x40
0.093232780,10,0x0C,0x69
0.093238060,10,0x0F,0x1F
0.093243720,10,0x0D,0x0F
0.093249020,10,0x0F,0x1F
0.093256520,11,0x80,0x69
0.093258500,11,0x85,0x88
0.093260460,11,0x86,0x00
0.093262440,11,0x87,0x00
0.093264400,11,0x88,0x00
0.093266380,11,0x96,0x00
0.093268340,11,0x80,0xC6
0.097766260,12,0x03,0x29
0.097771620,12,0x20,0x40
0.097808140,12,0x0B,0x20
0.097813500,12,0x40,0x40
0.097850020,12,0x0E,0x40
0.097855380,12,0x11,0x11
0.097894080,12,0x22,0x11
0.097899460,12,0xC8,0x08
0.097938140,12,0x23,0xC8
0.097943520,12,0x97,0x97
0.097980020,12,0x24,0x97
0.097989160,12,0xB6,0xB6
0.098025660,12,0x25,0xB6
0.098031040,12,0x36,0x36
0.098067540,12,0x26,0x36
0.098072920,12,0xDA,0xDA
0.098111600,12,0x27,0xDA
0.098116980,12,0x50,0x50
0.098153480,12,0x28,0x50
0.098161920,12,0xC4,0xC4
0.098198420,12,0x29,0xC4
0.098203800,12,0x00,0x06
0.098240300,12,0x64,0x00
0.098245680,12,0x06,0x06
0.098374380,13,0x80,0x29
0.098376380,13,0x85,0x88
0.098378380,13,0x86,0x00
0.098380380,13,0x87,0x00
0.098382380,13,0x88,0x00
0.098384380,13,0x96,0x00
0.098386380,13,0x80,0xC6
0.098434640,14,0x80,0x28
0.098436640,14,0x85,0x88
0.098438640,14,0x86,0x00
0.098440640,14,0x87,0x00
0.098442640,14,0x88,0x00
0.098444640,14,0x96,0x00
0.098446640,14,0x80,0xC6
0.099322040,15,0x80,0x29
0.099324060,15,0x85,0x88
0.099326060,15,0x86,0x00
0.099328060,15,0x87,0x00
0.099330060,15,0x88,0x00
0.099332060,15,0x96,0x00
0.099334060,15,0x80,0xC6
0.100322220,16,0x80,0x29
0.100324220,16,0x85,0x88
0.100326220,16,0x86,0x00
0.100328220,16,0x87,0x00
0.100330220,16,0x88,0x00
0.100332220,16,0x96,0x00
0.100334220,16,0x80,0xC6
0.101322340,17,0x80,0x29
0.101324340,17,0x85,0x88
0.101326340,17,0x86,0x00
0.101328340,17,0x87,0x00
0.101330340,17,0x88,0x00
0.101332340,17,0x96,0x00
0.101334340,17,0x80,0xC6
0.102322440,18,0x80,0x29
0.102324440,18,0x85,0x88
0.102326440,18,0x86,0x00
0.102328440,18,0x87,0x00
0.102330440,18,0x88,0x00
0.102332440,18,0x96,0x00
0.102334440,18,0x80,0xC6
0.103322560,19,0x80,0x29
0.103324560,19,0x85,0x88
0.103326560,19,0x86,0x00
0.103328560,19,0x87,0x00
0.103330560,19,0x88,0x00
0.103332560,19,0x96,0x00
0.103334560,19,0x80,0xC6
0.104322660,20,0x80,0x29
0.104324660,20,0x85,0x88
0.104326660,20,0x86,0x00
0.104328660,20,0x87,0x00
0.104330660,20,0x88,0x00
0.104332660,20,0x96,0x00
0.104334660,20,0x80,0xC6
0.105324960,21,0x80,0x29
0.105326960,21,0x85,0x88
0.105328960,21,0x86,0x00
0.105330960,21,0x87,0x00
0.105332960,21,0x88,0x00
0.105334960,21,0x96,0x00
0.105336960,21,0x80,0xC6
0.106325080,22,0x80,0x29
0.106327080,22,0x85,0x88
0.106329080,22,0x86,0x00
0.106331080,22,0x87,0x00
0.106333080,22,0x88,0x00
0.106335080,22,0x96,0x00
0.106337080,22,0x80,0xC6
0.107325180,23,0x80,0x29
0.107327180,23,0x85,0x88
0.107329180,23,0x86,0x00
0.107331180,23,0x87,0x00
0.107333180,23,0x88,0x00
0.107335180,23,0x96,0x00
0.107337180,23,0x80,0xC6
0.108323100,24,0x80,0x29
0.108325100,24,0x85,0x88
0.108327100,24,0x86,0x00
0.108329100,24,0x87,0x00
0.108331100,24,0x88,0x00
0.108333100,24,0x96,0x00
0.108335100,24,0x80,0xC6
0.109323220,25,0x80,0x29
0.109325220,25,0x85,0x88
0.109327220,25,0x86,0x00
0.109329220,25,0x87,0x00
0.109331220,25,0x88,0x00
0.109333220,25,0x96,0x00
0.109335220,25,0x80,0xC6
0.110328520,26,0x80,0x29
0.110330520,26,0x85,0x88
0.110332520,26,0x86,0x00
0.110334520,26,0x87,0x00
0.110336520,26,0x88,0x00
0.110338520,26,0x96,0x00
0.110340520,26,0x80,0xC6
0.111323440,27,0x80,0x29
0.111325440,27,0x85,0x88
0.111327440,27,0x86,0x00
0.111329440,27,0x87,0x00
0.111331440,27,0x88,0x00
0.111333440,27,0x96,0x00
0.111335440,27,0x80,0xC6
0.112328740,28,0x80,0x29
0.112330740,28,0x85,0x88
0.112332740,28,0x86,0x00
0.112334740,28,0x87,0x00
0.112336740,28,0x88,0x00
0.112338740,28,0x96,0x00
0.112340740,28,0x80,0xC6
0.113323600,29,0x80,0x29
0.113325600,29,0x85,0x88
0.113327600,29,0x86,0x00
0.113329600,29,0x87,0x00
0.113331600,29,0x88,0x00
0.113333600,29,0x96,0x00
0.113335600,29,0x80,0xC6
0.114323700,30,0x80,0x29
0.114325700,30,0x85,0x88
0.114327700,30,0x86,0x00
0.114329700,30,0x87,0x00
0.114331700,30,0x88,0x00
0.114333700,30,0x96,0x00
0.114335700,30,0x80,0xC6
0.115323820,31,0x80,0x29
0.115325820,31,0x85,0x88
0.115327820,31,0x86,0x00
0.115329820,31,0x87,0x00
0.115331820,31,0x88,0x00
0.115333820,31,0x96,0x00
0.115335820,31,0x80,0xC6
0.116323920,32,0x80,0x29
0.116325920,32,0x85,0x88
0.116327920,32,0x86,0x00
0.116329920,32,0x87,0x00
0.116331920,32,0x88,0x00
0.116333920,32,0x96,0x00
0.116335920,32,0x80,0xC6
0.117324040,33,0x80,0x29
0.117326040,33,0x85,0x88
0.117328040,33,0x86,0x00
0.117330040,33,0x87,0x00
0.117332040,33,0x88,0x00
0.117334040,33,0x96,0x00
0.117336040,33,0x80,0xC6
0.118324140,34,0x80,0x29
0.118326140,34,0x85,0x88
0.118328140,34,0x86,0x00
0.118330140,34,0x87,0x00
0.118332140,34,0x88,0x00
0.118334140,34,0x96,0x00
0.118336140,34,0x80,0xC6
0.119324260,35,0x80,0x29
0.119326260,35,0x85,0x88
0.119328260,35,0x86,0x00
0.119330260,35,0x87,0x00
0.119332260,35,0x88,0x00
0.119334260,35,0x96,0x00
0.119336260,35,0x80,0xC6
0.120324440,36,0x80,0x29
0.120326440,36,0x85,0x88
0.120328440,36,0x86,0x00
0.120330440,36,0x87,0x00
0.120332440,36,0x88,0x00
0.120334440,36,0x96,0x00
0.120336440,36,0x80,0xC6
0.121324480,37,0x80,0x29
0.121326480,37,0x85,0x88
0.121328480,37,0x86,0x00
0.121330480,37,0x87,0x00
0.121332480,37,0x88,0x00
0.121334480,37,0x96,0x00
0.121336480,37,0x80,0xC6
0.122324660,38,0x80,0x29
0.122326660,38,0x85,0x88
0.122328660,38,0x86,0x00
0.122330660,38,0x87,0x00
0.122332660,38,0x88,0x00
0.122334660,38,0x96,0x00
0.122336660,38,0x80,0xC6
0.123324700,39,0x80,0x29
0.123326700,39,0x85,0x88
0.123328700,39,0x86,0x00
0.123330700,39,0x87,0x00
0.123332700,39,0x88,0x00
0.123334700,39,0x96,0x00
0.123336700,39,0x80,0xC6
0.124324820,40,0x80,0x29
0.124326820,40,0x85,0x88
0.124328820,40,0x86,0x00
0.124330820,40,0x87,0x00
0.124332820,40,0x88,0x00
0.124334820,40,0x96,0x00
0.124336820,40,0x80,0xC6
0.125324920,41,0x80,0x29
0.125326920,41,0x85,0x88
0.125328920,41,0x86,0x00
0.125330920,41,0x87,0x00
0.125332920,41,0x88,0x00
0.125334920,41,0x96,0x00
0.125336920,41,0x80,0xC6
0.126325040,42,0x80,0x29
0.126327040,42,0x85,0x88
0.126329040,42,0x86,0x00
0.126331040,42,0x87,0x00
0.126333040,42,0x88,0x00
0.126335040,42,0x96,0x00
0.126337040,42,0x80,0xC6
0.127325140,43,0x80,0x29
0.127327140,43,0x85,0x88
0.127329140,43,0x86,0x00
0.127331140,43,0x87,0x00
0.127333140,43,0x88,0x00
0.127335140,43,0x96,0x00
0.127337140,43,0x80,0xC6
0.128325260,44,0x80,0x29
0.128327260,44,0x85,0x88
0.128329260,44,0x86,0x00
0.128331260,44,0x87,0x00
0.128333260,44,0x88,0x00
0.128335260,44,0x96,0x00
0.128337260,44,0x80,0xC6
0.129325360,45,0x80,0x29
0.129327360,45,0x85,0x88
0.129329360,45,0x86,0x00
0.129331360,45,0x87,0x00
0.129333360,45,0x88,0x00
0.129335360,45,0x96,0x00
0.129337360,45,0x80,0xC6
0.130325540,46,0x80,0x29
0.130327540,46,0x85,0x88
0.130329540,46,0x86,0x00
0.130331540,46,0x87,0x00
0.130333540,46,0x88,0x00
0.130335540,46,0x96,0x00
0.130337540,46,0x80,0xC6
0.131325580,47,0x80,0x29
0.131327580,47,0x85,0x88
0.131329580,47,0x86,0x00
0.131331580,47,0x87,0x00
0.131333580,47,0x88,0x00
0.131335580,47,0x96,0x00
0.131337580,47,0x80,0xC6
0.132331060,48,0x80,0x29
0.132333060,48,0x85,0x88
0.132335060,48,0x86,0x00
0.132337060,48,0x87,0x00
0.132339060,48,0x88,0x00
0.132341080,48,0x96,0x00
0.132343080,48,0x80,0xC6
0.133325800,49,0x80,0x29
0.133327800,49,0x85,0x88
0.133329800,49,0x86,0x00
0.133331800,49,0x87,0x00
0.133333800,49,0x88,0x00
0.133335800,49,0x96,0x00
0.133337800,49,0x80,0xC6
0.134325920,50,0x80,0x29
0.134327920,50,0x85,0x88
0.134329920,50,0x86,0x00
0.134331920,50,0x87,0x00
0.134333920,50,0x88,0x00
0.134335920,50,0x96,0x00
0.134337920,50,0x80,0xC6
0.135326020,51,0x80,0x29
0.135328020,51,0x85,0x88
0.135330020,51,0x86,0x00
0.135332020,51,0x87,0x00
0.135334020,51,0x88,0x00
0.135336020,51,0x96,0x00
0.135338020,51,0x80,0xC6
0.136326140,52,0x80,0x29
0.136328140,52,0x85,0x88
0.136330140,52,0x86,0x00
0.136332140,52,0x87,0x00
0.136334140,52,0x88,0x00
0.136336140,52,0x96,0x00
0.136338140,52,0x80,0xC6
0.137326240,53,0x80,0x29
0.137328240,53,0x85,0x88
0.137330240,53,0x86,0x00
0.137332240,53,0x87,0x00
0.137334240,53,0x88,0x00
0.137336240,53,0x96,0x00
0.137338240,53,0x80,0xC6
0.138326360,54,0x80,0x29
0.138328360,54,0x85,0x88
0.138330360,54,0x86,0x00
0.138332360,54,0x87,0x00
0.138334360,54,0x88,0x00
0.138336360,54,0x96,0x00
0.138338360,54,0x80,0xC6
0.139326460,55,0x80,0x29
0.139328460,55,0x85,0x88
0.139330460,55,0x86,0x00
0.139332460,55,0x87,0x00
0.139334460,55,0x88,0x00
0.139336460,55,0x96,0x00
0.139338460,55,0x80,0xC6
0.140326640,56,0x80,0x29
0.140328640,56,0x85,0x88
0.140330640,56,0x86,0x00
0.140332640,56,0x87,0x00
0.140334640,56,0x88,0x00
0.140336640,56,0x96,0x00
0.140338640,56,0x80,0xC6
0.141326680,57,0x80,0x29
0.141328680,57,0x85,0x88
0.141330680,57,0x86,0x00
0.141332680,57,0x87,0x00
0.141334680,57,0x88,0x00
0.141336680,57,0x96,0x00
0.141338680,57,0x80,0xC6
0.142332040,58,0x80,0x29
0.142334040,58,0x85,0x88
0.142336040,58,0x86,0x00
0.142338040,58,0x87,0x00
0.142340040,58,0x88,0x00
0.142342040,58,0x96,0x00
0.142344040,58,0x80,0xC6
0.143326900,59,0x80,0x29
0.143328900,59,0x85,0x88
0.143330900,59,0x86,0x00
0.143332900,59,0x87,0x00
0.143334900,59,0x88,0x00
0.143336900,59,0x96,0x00
0.143338900,59,0x80,0xC6
0.144327020,60,0x80,0x29
0.144329020,60,0x85,0x88
0.144331020,60,0x86,0x00
0.144333020,60,0x87,0x00
0.144335020,60,0x88,0x00
0.144337020,60,0x96,0x00
0.144339020,60,0x80,0xC6
0.145327120,61,0x80,0x29
0.145329120,61,0x85,0x88
0.145331120,61,0x86,0x00
0.145333120,61,0x87,0x00
0.145335140,61,0x88,0x00
0.145337140,61,0x96,0x00
0.145339140,61,0x80,0xC6
0.146327240,62,0x80,0x29
0.146329240,62,0x85,0x88
0.146331240,62,0x86,0x00
0.146333240,62,0x87,0x00
0.146335240,62,0x88,0x00
0.146337240,62,0x96,0x00
0.146339240,62,0x80,0xC6
0.147327340,63,0x80,0x29
0.147329360,63,0x85,0x88
0.147331360,63,0x86,0x00
0.147333360,63,0x87,0x00
0.147335360,63,0x88,0x00
0.147337360,63,0x96,0x00
0.147339360,63,0x80,0xC6
0.148327460,64,0x80,0x29
0.148329460,64,0x85,0x88
0.148331460,64,0x86,0x00
0.148333460,64,0x87,0x00
0.148335460,64,0x88,0x00
0.148337460,64,0x96,0x00
0.148339460,64,0x80,0xC6
0.149327580,65,0x80,0x29
0.149329580,65,0x85,0x88
0.149331580,65,0x86,0x00
0.149333580,65,0x87,0x00
0.149335580,65,0x88,0x00
0.149337580,65,0x96,0x00
0.149339580,65,0x80,0xC6
0.150327740,66,0x80,0x29
0.150329740,66,0x85,0x88
0.150331740,66,0x86,0x00
0.150333740,66,0x87,0x00
0.150335740,66,0x88,0x00
0.150337740,66,0x96,0x00
0.150339740,66,0x80,0xC6
0.151327800,67,0x80,0x29
0.151329800,67,0x85,0x88
0.151331800,67,0x86,0x00
0.151333800,67,0x87,0x00
0.151335800,67,0x88,0x00
0.151337800,67,0x96,0x00
0.151339800,67,0x80,0xC6
0.152903020,68,0x80,0x29
0.152905020,68,0x85,0x88
0.152907020,68,0x86,0x00
0.152909020,68,0x87,0x00
0.152911020,68,0x88,0x00
0.152913020,68,0x96,0x00
0.152915020,68,0x80,0xC6
0.153328080,69,0x80,0x29
0.153330080,69,0x85,0x88
0.153332080,69,0x86,0x00
0.153334080,69,0x87,0x00
0.153336080,69,0x88,0x00
0.153338080,69,0x96,0x00
0.153340080,69,0x80,0xC6
0.154328120,70,0x80,0x29
0.154330120,70,0x85,0x88
0.154332120,70,0x86,0x00
0.154334120,70,0x87,0x00
0.154336120,70,0x88,0x00
0.154338120,70,0x96,0x00
0.154340120,70,0x80,0xC6
0.155328240,71,0x80,0x29
0.155330240,71,0x85,0x88
0.155332240,71,0x86,0x00
0.155334240,71,0x87,0x00
0.155336240,71,0x88,0x00
0.155338240,71,0x96,0x00
0.155340240,71,0x80,0xC6
0.156328340,72,0x80,0x29
0.156330340,72,0x85,0x88
0.156332340,72,0x86,0x00
0.156334340,72,0x87,0x00
0.156336340,72,0x88,0x00
0.156338340,72,0x96,0x00
0.156340340,72,0x80,0xC6
0.157328460,73,0x80,0x29
0.157330460,73,0x85,0x88
0.157332460,73,0x86,0x00
0.157334460,73,0x87,0x00
0.157336460,73,0x88,0x00
0.157338460,73,0x96,0x00
0.157340460,73,0x80,0xC6
0.158328560,74,0x80,0x29
0.158330560,74,0x85,0x88
0.158332560,74,0x86,0x00
0.158334560,74,0x87,0x00
0.158336560,74,0x88,0x00
0.158338560,74,0x96,0x00
0.158340560,74,0x80,0xC6
0.159328680,75,0x80,0x29
0.159330680,75,0x85,0x88
0.159332680,75,0x86,0x00
0.159334680,75,0x87,0x00
0.159336680,75,0x88,0x00
0.159338680,75,0x96,0x00
0.159340680,75,0x80,0xC6
0.160328840,76,0x80,0x29
0.160330840,76,0x85,0x88
0.160332840,76,0x86,0x00
0.160334840,76,0x87,0x00
0.160336840,76,0x88,0x00
0.160338840,76,0x96,0x00
0.160340840,76,0x80,0xC6
0.161328900,77,0x80,0x29
0.161330900,77,0x85,0x88
0.161332900,77,0x86,0x00
0.161334900,77,0x87,0x00
0.161336900,77,0x88,0x00
0.161338900,77,0x96,0x00
0.161340900,77,0x80,0xC6
0.162334320,78,0x80,0x29
0.162336320,78,0x85,0x88
0.162338320,78,0x86,0x00
0.162340320,78,0x87,0x00
0.162342320,78,0x88,0x00
0.162344320,78,0x96,0x00
0.162346320,78,0x80,0xC6
0.163329120,79,0x80,0x29
0.163331120,79,0x85,0x88
0.163333120,79,0x86,0x00
0.163335120,79,0x87,0x00
0.163337120,79,0x88,0x00
0.163339120,79,0x96,0x00
0.163341120,79,0x80,0xC6
0.164329220,80,0x80,0x29
0.164331220,80,0x85,0x88
0.164333220,80,0x86,0x00
0.164335220,80,0x87,0x00
0.164337220,80,0x88,0x00
0.164339220,80,0x96,0x00
0.164341220,80,0x80,0xC6
0.165329340,81,0x80,0x29
0.165331340,81,0x85,0x88
0.165333340,81,0x86,0x00
0.165335340,81,0x87,0x00
0.165337340,81,0x88,0x00
0.165339340,81,0x96,0x00
0.165341340,81,0x80,0xC6
0.166329440,82,0x80,0x29
0.166331440,82,0x85,0x88
0.166333440,82,0x86,0x00
0.166335440,82,0x87,0x00
0.166337440,82,0x88,0x00
0.166339440,82,0x96,0x00
0.166341440,82,0x80,0xC6
0.167329560,83,0x80,0x29
0.167331560,83,0x85,0x88
0.167333560,83,0x86,0x00
0.167335560,83,0x87,0x00
0.167337560,83,0x88,0x00
0.167339560,83,0x96,0x00
0.167341560,83,0x80,0xC6
0.168329660,84,0x80,0x29
